
SetupTitle, ID-VDS-3rd
PrimitiveTest, Multi Channel I/V Sweep
TestParameter, Channel.UnitType, SMU, SMU
TestParameter, Channel.Unit, SMU2:MC, SMU3:UHC500
TestParameter, Channel.IName, IG, ID
TestParameter, Channel.VName, VGS, VDS
TestParameter, Channel.Mode, VPULSE, VPULSE
TestParameter, Channel.Func, VAR2, VAR1
TestParameter, Channel.Index, 
TestParameter, Channel.Time, 
TestParameter, Measurement.Port.Unit, SMU2:MC, SMU3:UHC500
TestParameter, Measurement.Port.SeriesResistor, NONE, NONE
TestParameter, Measurement.Port.Filter, OFF, OFF
TestParameter, Measurement.Port.OutputVoltageComparison, 0, 0
TestParameter, Measurement.Primary.Start, -5
TestParameter, Measurement.Primary.Stop, 0
TestParameter, Measurement.Primary.Compliance, 2
TestParameter, Measurement.Primary.PowerCompliance, 0
TestParameter, Measurement.Primary.Locus, Single
TestParameter, Measurement.Primary.Scale, LINEAR
TestParameter, Measurement.Primary.Count, 21
TestParameter, Measurement.Aborting.Condition, CONTINUE AT ANY
TestParameter, Measurement.PostOutput.Value, START
TestParameter, Measurement.PostOutput.Retention, OFF
TestParameter, Measurement.Secondary.Start, 10
TestParameter, Measurement.Secondary.Count, 5
TestParameter, Measurement.Secondary.Step, 1.25
TestParameter, Measurement.Secondary.Compliance, 0.099999999999999992
TestParameter, Measurement.Secondary.PowerCompliance, 0
TestParameter, Measurement.Bias.Source, 0, 0
TestParameter, Measurement.Bias.Compliance, 0.099999999999999992, 0
TestParameter, Measurement.Pulse.Delay, 0, 9.9999999999999991E-05
TestParameter, Measurement.Pulse.Duration, 0.001, 0.00019999999999999998
TestParameter, Measurement.Pulse.Base, 0, 0
TestParameter, Measurement.Pulse.Period, 0
TestParameter, Measurement.Pulse.MeasurementDelay, 0
TestParameter, Measurement.Pulse.AveragingCount, 1
TestParameter, Measurement.Monitor.Unit, SMU2:MC, SMU3:UHC500
TestParameter, Measurement.Monitor.Adc, HS ADC, HS ADC
TestParameter, Measurement.Monitor.Measurement, Force and Compliance Sides, Force and Compliance Sides
TestParameter, Measurement.Timing.Hold, 0
TestParameter, Measurement.Timing.Delay, 0
TestParameter, Measurement.Adc.HighSpeed.Mode, TIME
TestParameter, Measurement.Adc.HighSpeed.Coeff, 9.9999999999999991E-06
TestParameter, Measurement.Adc.HighResolution.AutoZero, OFF
TestParameter, Measurement.Adc.HighResolution.Mode, AUTO
TestParameter, Measurement.Adc.HighResolution.Coeff, 6
TestParameter, Measurement.WaitTime.Source.Coeff, 1
TestParameter, Measurement.WaitTime.Source.Offset, 0
TestParameter, Measurement.WaitTime.Monitor.Coeff, 1
TestParameter, Measurement.WaitTime.Monitor.Offset, 0
TestParameter, Output.Graph.Enabled, true
TestParameter, Output.Graph.AutoScaling, false
TestParameter, Output.Graph.XAxis.Data, VDS
TestParameter, Output.Graph.XAxis.Scale, Linear
TestParameter, Output.Graph.XAxis.Left, -4.8
TestParameter, Output.Graph.XAxis.Right, 1.2
TestParameter, Output.Graph.XAxis.RunTimeAutoScale, false
TestParameter, Output.Graph.YAxis.Data, ID
TestParameter, Output.Graph.YAxis.Scale, Linear
TestParameter, Output.Graph.YAxis.Bottom, -15
TestParameter, Output.Graph.YAxis.Top, 1
TestParameter, Output.Graph.YAxis.Group, 
TestParameter, Output.Graph.YAxis.RunTimeAutoScale, false
TestParameter, Output.List.Data, VDS, ID
TestParameter, AutoAnalysis.Interpolation, false
TestParameter, AutoAnalysis.Line1.Enabled, false
TestParameter, AutoAnalysis.Line1.Type, 1
TestParameter, AutoAnalysis.Line1.Fix, True
TestParameter, AutoAnalysis.Line1.YAxis, 0
TestParameter, AutoAnalysis.Line1.Point1.Type, 0
TestParameter, AutoAnalysis.Line1.Point1.XY.X, 
TestParameter, AutoAnalysis.Line1.Point1.XY.Y, 
TestParameter, AutoAnalysis.Line1.Point1.Data.Var, 
TestParameter, AutoAnalysis.Line1.Point1.Data.Condition, 
TestParameter, AutoAnalysis.Line1.Point1.Data.Start, false
TestParameter, AutoAnalysis.Line1.Point1.Data.StartVar, 
TestParameter, AutoAnalysis.Line1.Point1.Data.StartCondition, 
TestParameter, AutoAnalysis.Line1.Point2.Type, 0
TestParameter, AutoAnalysis.Line1.Point2.XY.X, 
TestParameter, AutoAnalysis.Line1.Point2.XY.Y, 
TestParameter, AutoAnalysis.Line1.Point2.Data.Var, 
TestParameter, AutoAnalysis.Line1.Point2.Data.Condition, 
TestParameter, AutoAnalysis.Line1.Point2.Data.Start, false
TestParameter, AutoAnalysis.Line1.Point2.Data.StartVar, 
TestParameter, AutoAnalysis.Line1.Point2.Data.StartCondition, 
TestParameter, AutoAnalysis.Line1.GradientExpr, 0
TestParameter, AutoAnalysis.Line2.Enabled, false
TestParameter, AutoAnalysis.Line2.Type, 1
TestParameter, AutoAnalysis.Line2.Fix, True
TestParameter, AutoAnalysis.Line2.YAxis, 0
TestParameter, AutoAnalysis.Line2.Point1.Type, 0
TestParameter, AutoAnalysis.Line2.Point1.XY.X, 
TestParameter, AutoAnalysis.Line2.Point1.XY.Y, 
TestParameter, AutoAnalysis.Line2.Point1.Data.Var, 
TestParameter, AutoAnalysis.Line2.Point1.Data.Condition, 
TestParameter, AutoAnalysis.Line2.Point1.Data.Start, false
TestParameter, AutoAnalysis.Line2.Point1.Data.StartVar, 
TestParameter, AutoAnalysis.Line2.Point1.Data.StartCondition, 
TestParameter, AutoAnalysis.Line2.Point2.Type, 0
TestParameter, AutoAnalysis.Line2.Point2.XY.X, 
TestParameter, AutoAnalysis.Line2.Point2.XY.Y, 
TestParameter, AutoAnalysis.Line2.Point2.Data.Var, 
TestParameter, AutoAnalysis.Line2.Point2.Data.Condition, 
TestParameter, AutoAnalysis.Line2.Point2.Data.Start, false
TestParameter, AutoAnalysis.Line2.Point2.Data.StartVar, 
TestParameter, AutoAnalysis.Line2.Point2.Data.StartCondition, 
TestParameter, AutoAnalysis.Line2.GradientExpr, 0
TestParameter, AutoAnalysis.Marker.Enabled, false
TestParameter, AutoAnalysis.Marker.Data.Var, 
TestParameter, AutoAnalysis.Marker.Data.Condition, 
TestParameter, AutoAnalysis.Marker.Data.Start, false
TestParameter, AutoAnalysis.Marker.Data.StartVar, 
TestParameter, AutoAnalysis.Marker.Data.StartCondition, 
MetaData, TestRecord.EntryPoint, true
MetaData, TestRecord.RecordTime, 04/20/2021 08:39:16
MetaData, TestRecord.TestTarget, 
MetaData, TestRecord.IterationIndex, 1
MetaData, TestRecord.Preservation, true
MetaData, TestRecord.Flag, 
MetaData, TestRecord.Remarks, 
MetaData, TestRecord.LinkKey, d99da47a-aa93-43ea-b94d-07cbc1a73f93
Dimension1, 21, 21
Dimension2, 5, 5
DataName, ID, VDS
DataValue, -15.9535, -0.90540000000000009
DataValue, -15.144, -0.86310000000000009
DataValue, -14.3305, -0.8214
DataValue, -13.544, -0.778
DataValue, -12.76, -0.7348
DataValue, -11.945, -0.6923
DataValue, -11.153500000000001, -0.64850000000000008
DataValue, -10.336500000000001, -0.60330000000000006
DataValue, -9.5385, -0.5585
DataValue, -8.7485, -0.51460000000000006
DataValue, -7.9525000000000006, -0.4706
DataValue, -7.1555, -0.4237
DataValue, -6.341, -0.37720000000000004
DataValue, -5.548, -0.33280000000000004
DataValue, -4.7445, -0.2849
DataValue, -3.9545, -0.24000000000000002
DataValue, -3.1655, -0.19140000000000002
DataValue, -2.3955, -0.1457
DataValue, -1.5655000000000001, -0.0961
DataValue, -0.799, -0.048100000000000004
DataValue, -0.007, -0.00060000000000000006
DataValue, -16.2105, -0.8398
DataValue, -15.397, -0.8011
DataValue, -14.5785, -0.76140000000000008
DataValue, -13.778500000000001, -0.7205
DataValue, -12.965, -0.67870000000000008
DataValue, -12.1455, -0.6368
DataValue, -11.367, -0.5963
DataValue, -10.5485, -0.556
DataValue, -9.7195, -0.51440000000000008
DataValue, -8.892, -0.47300000000000003
DataValue, -8.0795, -0.4305
DataValue, -7.2905, -0.38870000000000005
DataValue, -6.4670000000000005, -0.3468
DataValue, -5.658, -0.3019
DataValue, -4.8495, -0.2606
DataValue, -4.038, -0.21860000000000002
DataValue, -3.2345, -0.1766
DataValue, -2.4305, -0.1331
DataValue, -1.6145, -0.087100000000000011
DataValue, -0.81, -0.0432
DataValue, -0.0085, -0.0011
DataValue, -16.411, -0.79070000000000007
DataValue, -15.59, -0.7518
DataValue, -14.7885, -0.7133
DataValue, -13.9765, -0.6763
DataValue, -13.1415, -0.6379
DataValue, -12.324, -0.5987
DataValue, -11.479000000000001, -0.5587
DataValue, -10.672, -0.5214
DataValue, -9.866, -0.48190000000000005
DataValue, -9.0305, -0.4419
DataValue, -8.205, -0.4022
DataValue, -7.396, -0.3638
DataValue, -6.5725, -0.3242
DataValue, -5.768, -0.2851
DataValue, -4.9270000000000005, -0.2426
DataValue, -4.116, -0.2033
DataValue, -3.294, -0.1627
DataValue, -2.471, -0.1231
DataValue, -1.6505, -0.0821
DataValue, -0.8305, -0.0422
DataValue, -0.012, -0.00030000000000000003
DataValue, -16.5745, -0.75240000000000007
DataValue, -15.733, -0.7165
DataValue, -14.906, -0.6813
DataValue, -14.097, -0.6421
DataValue, -13.2845, -0.60630000000000006
DataValue, -12.4395, -0.5684
DataValue, -11.6115, -0.5322
DataValue, -10.778, -0.49500000000000005
DataValue, -9.956, -0.45880000000000004
DataValue, -9.1335, -0.4213
DataValue, -8.3195, -0.3816
DataValue, -7.478, -0.3438
DataValue, -6.654, -0.3068
DataValue, -5.8125, -0.26890000000000003
DataValue, -4.9775, -0.2305
DataValue, -4.134, -0.19310000000000002
DataValue, -3.3065, -0.15460000000000002
DataValue, -2.472, -0.11620000000000001
DataValue, -1.647, -0.0786
DataValue, -0.83200000000000007, -0.04
DataValue, 0.0025, 0.001
DataValue, -16.6765, -0.7245
DataValue, -15.8515, -0.68880000000000008
DataValue, -15.032, -0.65360000000000007
DataValue, -14.2245, -0.6179
DataValue, -13.3755, -0.58090000000000008
DataValue, -12.5345, -0.5469
DataValue, -11.692, -0.5109
DataValue, -10.864, -0.4747
DataValue, -10.022, -0.43910000000000005
DataValue, -9.19, -0.40390000000000004
DataValue, -8.3675, -0.366
DataValue, -7.5225, -0.3301
DataValue, -6.6955, -0.2939
DataValue, -5.8415, -0.25630000000000003
DataValue, -4.998, -0.22080000000000002
DataValue, -4.168, -0.1841
DataValue, -3.357, -0.1462
DataValue, -2.5035, -0.10980000000000001
DataValue, -1.6575, -0.0722
DataValue, -0.8295, -0.0378
DataValue, 0.024, -0.0004