
SetupTitle, Rds-Id
ApplicationTest, Rds-Id, Public
TestParameter, Name, Memo, Scale, HoldTime, PulseBase, PulseAvgCnt, Gate, VgStart, VgStop, VgStep, IgLimit, Source, MeasurementTime, Drain, IdStart, IdStop, IdLinearStep, VdLimit, VdStop, PulsePeriodMode, ManualPulsePeriod, PulseWidth
TestParameter, Value, , LINEAR, 0, 0, 1, SMU2:MC	MCSMU, 15, 5, 1, 0.1, GNDU:GND	GNDU, 1E-05, SMU3:UHC500	UHCU500A, 0.5, 30, 0.2, 2, 0, 0, 0.05, 0.0002
DutParameter, Name, Polarity, Temp, YAxisRdsMin, YAxisRdsMax
DutParameter, Value, 1, 25, 0.001, 1
MetaData, TestRecord.EntryPoint, true
MetaData, TestRecord.RecordTime, 04/20/2021 08:35:42
MetaData, TestRecord.TestTarget, 
MetaData, TestRecord.IterationIndex, 1
MetaData, TestRecord.Preservation, true
MetaData, TestRecord.Flag, 
MetaData, TestRecord.Remarks, 
MetaData, TestRecord.LinkKey, 3f349c6c-3fd7-49ce-acac-1c3a5b2b56b6
Dimension1, 148, 148, 148, 148, 148, 148
Dimension2, 11, 11, 11, 11, 11, 11
DataName, Igate, Vgate, Vdrain, Idrain, Ta, Rds
DataValue, 1.5E-06, 15.000280000000002, 0.0076, 0.1385, 25, 0.054873646209386277
DataValue, -8.0000000000000007E-07, 14.9998, 0.0158, 0.315, 25, 0.050158730158730166
DataValue, -9.0000000000000007E-07, 15.000020000000001, 0.0253, 0.521, 25, 0.048560460652591168
DataValue, -1.6000000000000001E-06, 15.0005, 0.0367, 0.7385, 25, 0.049695328368314154
DataValue, -5.0000000000000008E-07, 14.999580000000002, 0.0466, 0.9485, 25, 0.049130205587770162
DataValue, 2.0000000000000002E-07, 14.999720000000002, 0.0558, 1.178, 25, 0.04736842105263158
DataValue, -1.0000000000000002E-06, 15.000480000000001, 0.0658, 1.3995, 25, 0.047016791711325473
DataValue, -1.2000000000000002E-06, 15.000280000000002, 0.0752, 1.617, 25, 0.046505875077303652
DataValue, 1.0000000000000001E-07, 14.999960000000002, 0.0854, 1.818, 25, 0.046974697469746973
DataValue, -1.7000000000000002E-06, 15.00022, 0.0937, 2.0435, 25, 0.045852703694641554
DataValue, -1.1E-06, 14.999460000000001, 0.1032, 2.225, 25, 0.04638202247191011
DataValue, -1.0000000000000001E-07, 15.000860000000001, 0.11280000000000001, 2.4145, 25, 0.046717746945537389
DataValue, 3.0000000000000004E-07, 15.000160000000001, 0.1203, 2.6355, 25, 0.0456459874786568
DataValue, -7.0000000000000007E-07, 14.999300000000002, 0.1293, 2.8405, 25, 0.045520154902305932
DataValue, -7.0000000000000007E-07, 15.00026, 0.1414, 3.035, 25, 0.04658978583196046
DataValue, -1.0000000000000001E-07, 14.999680000000002, 0.1486, 3.251, 25, 0.04570901261150416
DataValue, -5.0000000000000008E-07, 15.000280000000002, 0.1587, 3.443, 25, 0.0460935230903282
DataValue, -7.0000000000000007E-07, 14.999640000000001, 0.16820000000000002, 3.66, 25, 0.045956284153005469
DataValue, -8.0000000000000007E-07, 15.000000000000002, 0.1757, 3.8495, 25, 0.045642291206650212
DataValue, -8.0000000000000007E-07, 14.999720000000002, 0.1842, 4.0495, 25, 0.045487097172490429
DataValue, 1.0000000000000001E-07, 14.999860000000002, 0.1942, 4.2285, 25, 0.04592645146032872
DataValue, -1.4000000000000002E-06, 15.000200000000001, 0.2026, 4.4445, 25, 0.04558443019462257
DataValue, -8.0000000000000007E-07, 14.999740000000001, 0.21130000000000002, 4.626, 25, 0.045676610462602678
DataValue, -1.0000000000000001E-07, 14.999640000000001, 0.2218, 4.831, 25, 0.045911819499068508
DataValue, -1.0000000000000001E-07, 14.999720000000002, 0.2306, 5.0305, 25, 0.045840373720306131
DataValue, 4.0000000000000003E-07, 15.000440000000001, 0.2379, 5.2255, 25, 0.045526743852262942
DataValue, 1.0000000000000002E-06, 15.000020000000001, 0.2479, 5.404, 25, 0.045873427091043674
DataValue, -1.0000000000000001E-07, 14.999600000000001, 0.2577, 5.603, 25, 0.045993217918971978
DataValue, 8.0000000000000007E-07, 14.999580000000002, 0.2639, 5.807, 25, 0.04544515240227312
DataValue, 5.0000000000000008E-07, 14.99956, 0.2731, 5.9670000000000005, 25, 0.045768392827216356
DataValue, -4.0000000000000003E-07, 15.000020000000001, 0.2803, 6.1395, 25, 0.045655183646876783
DataValue, -9.0000000000000007E-07, 15.0005, 0.2853, 6.2645, 25, 0.045542341767100328
DataValue, -6.0000000000000008E-07, 14.999540000000001, 0.2888, 6.3585, 25, 0.045419517181725245
DataValue, 7.0000000000000007E-07, 14.999920000000001, 0.2921, 6.433, 25, 0.045406497745997206
DataValue, -2.0000000000000002E-07, 14.99928, 0.2947, 6.476, 25, 0.045506485484867208
DataValue, -3.0000000000000004E-07, 14.999900000000002, 0.2963, 6.503, 25, 0.045563586037213596
DataValue, 1.1E-06, 15.000620000000001, 0.2958, 6.5415, 25, 0.045218986470992893
DataValue, -1.4000000000000002E-06, 15.000340000000001, 0.2969, 6.5485, 25, 0.045338627166526688
DataValue, -1.0000000000000001E-07, 14.999880000000001, 0.29710000000000003, 6.5625, 25, 0.04527238095238096
DataValue, -1.3E-06, 15.000200000000001, 0.2979, 6.57, 25, 0.045342465753424654
DataValue, -7.0000000000000007E-07, 15.000340000000001, 0.2988, 6.601, 25, 0.045265868807756404
DataValue, -1.4000000000000002E-06, 14.99966, 0.29860000000000003, 6.5975, 25, 0.045259568018188714
DataValue, -1.1E-06, 14.999780000000001, 0.3004, 6.5920000000000005, 25, 0.04557038834951456
DataValue, 1.8000000000000001E-06, 14.99994, 0.3002, 6.5895, 25, 0.045557326049017376
DataValue, 6.0000000000000008E-07, 14.999880000000001, 0.2987, 6.6105, 25, 0.045185689433477047
DataValue, 1.7000000000000002E-06, 14.99998, 0.2985, 6.6045, 25, 0.04519645696116284
DataValue, -1.0000000000000001E-07, 15.000000000000002, 0.2973, 6.602, 25, 0.0450318085428658
DataValue, 3.0000000000000004E-07, 14.999860000000002, 0.2989, 6.6115, 25, 0.045209105346744306
DataValue, 1.0000000000000002E-06, 15.000020000000001, 0.2978, 6.6155, 25, 0.0450154939158038
DataValue, 2.0000000000000002E-07, 14.999620000000002, 0.2994, 6.597, 25, 0.045384265575261477
DataValue, 2.3E-06, 15.000280000000002, 0.30010000000000003, 6.593, 25, 0.045517973608372522
DataValue, 5.0000000000000008E-07, 14.9997, 0.2994, 6.6045, 25, 0.045332727685668865
DataValue, -4.0000000000000003E-07, 14.999780000000001, 0.29650000000000004, 6.6005, 25, 0.044920839330353762
DataValue, -2.0000000000000003E-06, 15.000140000000002, 0.2995, 6.626, 25, 0.045200724418955625
DataValue, 0, 14.999500000000001, 0.2987, 6.5985000000000005, 25, 0.045267863908464046
DataValue, 7.0000000000000007E-07, 15.00054, 0.2997, 6.5955, 25, 0.045440072776893339
DataValue, -9.0000000000000007E-07, 15.000020000000001, 0.2998, 6.59, 25, 0.045493171471927163
DataValue, 1.7000000000000002E-06, 15.000040000000002, 0.3003, 6.621, 25, 0.045355686452197549
DataValue, 6.0000000000000008E-07, 15.00054, 0.2989, 6.609, 25, 0.0452262066878499
DataValue, 7.0000000000000007E-07, 15.00008, 0.29960000000000003, 6.6160000000000005, 25, 0.045284159613059254
DataValue, 3.0000000000000004E-07, 15.000320000000002, 0.2989, 6.612, 25, 0.045205686630369023
DataValue, -6.0000000000000008E-07, 14.999200000000002, 0.30060000000000003, 6.623, 25, 0.045387286728068854
DataValue, -5.0000000000000008E-07, 14.999480000000002, 0.2994, 6.606, 25, 0.045322434150772029
DataValue, -1.9000000000000002E-06, 15.000000000000002, 0.2989, 6.6240000000000006, 25, 0.0451237922705314
DataValue, -6.0000000000000008E-07, 15.00012, 0.2989, 6.6045, 25, 0.045257021727609967
DataValue, 2.0000000000000002E-07, 15.000020000000001, 0.298, 6.6115, 25, 0.045072978900400809
DataValue, 8.0000000000000007E-07, 15.00092, 0.2979, 6.6265, 25, 0.044955859050780957
DataValue, -5.0000000000000008E-07, 15.000420000000002, 0.3009, 6.6125, 25, 0.045504725897920609
DataValue, -5.0000000000000008E-07, 15.000580000000001, 0.299, 6.589, 25, 0.045378661405372583
DataValue, 1.6000000000000001E-06, 15.000320000000002, 0.2995, 6.6245, 25, 0.045210959317684353
DataValue, 3.0000000000000004E-07, 15.000320000000002, 0.2992, 6.602, 25, 0.045319600121175405
DataValue, -3.1000000000000004E-06, 15.00012, 0.2985, 6.6065000000000005, 25, 0.045182774540225533
DataValue, 1.0000000000000002E-06, 14.999640000000001, 0.2987, 6.619, 25, 0.045127662788940932
DataValue, -1.8000000000000001E-06, 14.999780000000001, 0.2994, 6.618, 25, 0.045240253853127833
DataValue, 2.0000000000000002E-07, 15.00036, 0.30060000000000003, 6.612, 25, 0.045462794918330315
DataValue, -1.0000000000000002E-06, 14.999500000000001, 0.30060000000000003, 6.5935, 25, 0.04559035413664974
DataValue, 1.3E-06, 14.99998, 0.2997, 6.6255, 25, 0.045234321937966948
DataValue, 2.0000000000000002E-07, 15.00012, 0.2999, 6.623, 25, 0.045281594443605612
DataValue, -1.5E-06, 15.00012, 0.2984, 6.6045, 25, 0.045181315769551061
DataValue, 8.0000000000000007E-07, 15.000720000000001, 0.29910000000000003, 6.6175, 25, 0.045198337740838694
DataValue, -1.0000000000000002E-06, 14.999460000000001, 0.29910000000000003, 6.6155, 25, 0.045212002116242163
DataValue, 3.0000000000000004E-07, 15.000420000000002, 0.2975, 6.5885, 25, 0.045154435759277529
DataValue, 4.0000000000000003E-07, 15.0004, 0.2992, 6.607, 25, 0.045285303466020888
DataValue, -4.0000000000000003E-07, 14.999600000000001, 0.2995, 6.6255, 25, 0.045204135536940609
DataValue, 8.0000000000000007E-07, 15.000140000000002, 0.3008, 6.6215, 25, 0.04542777316318055
DataValue, 3.0000000000000004E-07, 14.999680000000002, 0.3007, 6.601, 25, 0.045553703984244812
DataValue, -3.0000000000000004E-07, 14.999600000000001, 0.2997, 6.6285, 25, 0.045213849287169046
DataValue, -1.7000000000000002E-06, 15.000660000000002, 0.301, 6.6085, 25, 0.045547401074373911
DataValue, 4.0000000000000003E-07, 14.999740000000001, 0.299, 6.606, 25, 0.045261883136542537
DataValue, -2.8000000000000003E-06, 14.999900000000002, 0.2982, 6.615, 25, 0.04507936507936508
DataValue, -1.6000000000000001E-06, 14.999200000000002, 0.29910000000000003, 6.6320000000000006, 25, 0.045099517490952958
DataValue, -1.3E-06, 14.999600000000001, 0.30060000000000003, 6.5995, 25, 0.045548905220092438
DataValue, 0, 14.9998, 0.2992, 6.597, 25, 0.045353948764589966
DataValue, 1.1E-06, 14.999680000000002, 0.29910000000000003, 6.62, 25, 0.045181268882175232
DataValue, 3.1000000000000004E-06, 15.000140000000002, 0.3, 6.5945, 25, 0.045492455834407461
DataValue, -1.0000000000000002E-06, 15.00012, 0.3002, 6.623, 25, 0.045326891136947
DataValue, -5.0000000000000008E-07, 15.000200000000001, 0.2989, 6.603, 25, 0.045267302741178253
DataValue, -3.0000000000000004E-07, 15.000340000000001, 0.3002, 6.607, 25, 0.045436658089904651
DataValue, -1.0000000000000001E-07, 14.999640000000001, 0.2995, 6.6305000000000005, 25, 0.045170047507729426
DataValue, -8.0000000000000007E-07, 15.000340000000001, 0.2989, 6.619, 25, 0.045157878833660674
DataValue, -7.0000000000000007E-07, 14.999540000000001, 0.2999, 6.6215, 25, 0.045291852299327945
DataValue, 8.0000000000000007E-07, 15.00026, 0.3018, 6.6185, 25, 0.045599456070106521
DataValue, 6.0000000000000008E-07, 14.99984, 0.3002, 6.6015, 25, 0.0454745133681739
DataValue, 2.0000000000000002E-07, 14.999360000000001, 0.3003, 6.625, 25, 0.045328301886792453
DataValue, -3.0000000000000004E-07, 15.000240000000002, 0.3002, 6.6370000000000005, 25, 0.045231279192406208
DataValue, 3.0000000000000004E-07, 14.999960000000002, 0.3014, 6.6000000000000005, 25, 0.045666666666666661
DataValue, -2.5E-06, 14.999880000000001, 0.29960000000000003, 6.622, 25, 0.0452431289640592
DataValue, -2.5E-06, 14.99994, 0.2995, 6.6335, 25, 0.045149619356297584
DataValue, 0, 14.999760000000002, 0.29860000000000003, 6.6145000000000005, 25, 0.045143245899160939
DataValue, 6.0000000000000008E-07, 14.99956, 0.30110000000000003, 6.607, 25, 0.045572877251400037
DataValue, -2.5E-06, 15.00012, 0.2999, 6.6290000000000004, 25, 0.045240609443354951
DataValue, 2.0000000000000002E-07, 14.999760000000002, 0.2999, 6.622, 25, 0.045288432497734822
DataValue, -1.1E-06, 14.99998, 0.29960000000000003, 6.597, 25, 0.045414582385933
DataValue, -5.0000000000000008E-07, 14.999960000000002, 0.29960000000000003, 6.6155, 25, 0.045287582193333842
DataValue, -7.0000000000000007E-07, 15.00008, 0.2998, 6.6305000000000005, 25, 0.045215292964331494
DataValue, 1.2000000000000002E-06, 15.00078, 0.3, 6.6275, 25, 0.045265937382119953
DataValue, 1.0000000000000001E-07, 14.999900000000002, 0.2994, 6.606, 25, 0.045322434150772029
DataValue, -3.8000000000000005E-06, 14.999820000000002, 0.299, 6.6295, 25, 0.0451014405309601
DataValue, 1.2000000000000002E-06, 15.00026, 0.3002, 6.5895, 25, 0.045557326049017376
DataValue, -1.5E-06, 14.99938, 0.2997, 6.6105, 25, 0.045336963921034722
DataValue, -6.0000000000000008E-07, 14.999900000000002, 0.30010000000000003, 6.6320000000000006, 25, 0.045250301568154405
DataValue, -1.2000000000000002E-06, 14.999960000000002, 0.2998, 6.625, 25, 0.045252830188679247
DataValue, -6.0000000000000008E-07, 14.99952, 0.2999, 6.6175, 25, 0.045319229316207028
DataValue, -8.0000000000000007E-07, 14.99932, 0.2988, 6.602, 25, 0.045259012420478639
DataValue, -1.2000000000000002E-06, 15.00026, 0.2998, 6.6345, 25, 0.045188032255633434
DataValue, -1.0000000000000002E-06, 14.999920000000001, 0.2992, 6.638, 25, 0.045073817414884004
DataValue, 4.0000000000000003E-07, 15.00022, 0.2993, 6.6085, 25, 0.045290156616478776
DataValue, -6.0000000000000008E-07, 14.999860000000002, 0.30010000000000003, 6.6160000000000005, 25, 0.045359733978234583
DataValue, -6.0000000000000008E-07, 15.000480000000001, 0.301, 6.6125, 25, 0.045519848771266538
DataValue, 1.3E-06, 15.000000000000002, 0.2988, 6.6325, 25, 0.04505088578967207
DataValue, -1.1E-06, 14.999120000000001, 0.30060000000000003, 6.6335, 25, 0.045315444335569464
DataValue, 2.4000000000000003E-06, 15.000820000000001, 0.3003, 6.601, 25, 0.045493107104984096
DataValue, -1.0000000000000001E-07, 14.999820000000002, 0.3002, 6.604, 25, 0.045457298606904908
DataValue, 3.0000000000000004E-07, 15.000160000000001, 0.2988, 6.6075, 25, 0.045221339387060161
DataValue, -8.0000000000000007E-07, 14.99966, 0.30060000000000003, 6.617, 25, 0.045428441892096119
DataValue, -8.0000000000000007E-07, 14.99984, 0.2995, 6.6225000000000005, 25, 0.045224613061532651
DataValue, 2.0000000000000002E-07, 14.999360000000001, 0.2999, 6.6075, 25, 0.04538781687476353
DataValue, -1.2000000000000002E-06, 14.999720000000002, 0.2994, 6.609, 25, 0.045301861098502046
DataValue, -1.2000000000000002E-06, 14.999600000000001, 0.2993, 6.6105, 25, 0.045276454126011646
DataValue, -1.8000000000000001E-06, 15.00012, 0.3002, 6.641, 25, 0.045204035536816747
DataValue, -1.1E-06, 14.999640000000001, 0.29960000000000003, 6.6085, 25, 0.0453355526972838
DataValue, 7.0000000000000007E-07, 15.000200000000001, 0.2997, 6.609, 25, 0.045347253744893332
DataValue, 2.0000000000000002E-07, 15.000320000000002, 0.30060000000000003, 6.6315, 25, 0.045329111060845965
DataValue, -1.3E-06, 14.999900000000002, 0.3014, 6.6235, 25, 0.045504642560579754
DataValue, 1.5E-06, 15.00008, 0.3007, 6.627, 25, 0.045374981137769735
DataValue, 0, 15.000040000000002, 0.3002, 6.6245, 25, 0.045316627670012835
DataValue, -3.0000000000000004E-07, 14.999920000000001, 0.3004, 6.618, 25, 0.045391356905409484
DataValue, 2.3E-06, 14.99966, 0.2993, 6.6025, 25, 0.045331313896251418
DataValue, 6.0000000000000008E-07, 14.00022, 0.0068000000000000005, 0.1045, 25, 0.065071770334928239
DataValue, -4.0000000000000003E-07, 13.999400000000001, 0.0161, 0.298, 25, 0.054026845637583892
DataValue, 2.1000000000000002E-06, 14.00008, 0.0267, 0.5365, 25, 0.049767008387698049
DataValue, -2.0000000000000002E-07, 13.99984, 0.038, 0.751, 25, 0.050599201065246339
DataValue, -1.5E-06, 13.99924, 0.0468, 0.98, 25, 0.04775510204081633
DataValue, -1.0000000000000001E-07, 13.999360000000001, 0.0589, 1.1775, 25, 0.050021231422505308
DataValue, 4.0000000000000003E-07, 14.000560000000002, 0.0688, 1.3940000000000001, 25, 0.049354375896700137
DataValue, -1.0000000000000001E-07, 14.000140000000002, 0.0786, 1.615, 25, 0.0486687306501548
DataValue, -5.0000000000000008E-07, 13.999880000000001, 0.0863, 1.8235000000000001, 25, 0.0473265697833836
DataValue, 9.0000000000000007E-07, 13.99984, 0.097, 2.0060000000000002, 25, 0.048354935194416748
DataValue, 1.0000000000000002E-06, 13.999740000000001, 0.10600000000000001, 2.2385, 25, 0.047353138262229172
DataValue, -3.0000000000000004E-07, 14.000560000000002, 0.1169, 2.411, 25, 0.048486105350476982
DataValue, 2.4000000000000003E-06, 13.999920000000001, 0.12610000000000002, 2.6175, 25, 0.04817574021012417
DataValue, -1.0000000000000001E-07, 13.9997, 0.1374, 2.841, 25, 0.048363252375923968
DataValue, -1.6000000000000001E-06, 13.9991, 0.14600000000000002, 3.0295, 25, 0.048192771084337352
DataValue, -1.5E-06, 13.9997, 0.1557, 3.255, 25, 0.047834101382488482
DataValue, 3.1000000000000004E-06, 14.00032, 0.16620000000000001, 3.4405, 25, 0.048306932131957567
DataValue, -1.0000000000000001E-07, 13.99998, 0.1739, 3.6465, 25, 0.047689565336624162
DataValue, -6.0000000000000008E-07, 14.000100000000002, 0.185, 3.846, 25, 0.048101924076963079
DataValue, 5.0000000000000008E-07, 13.999880000000001, 0.19290000000000002, 4.034, 25, 0.047818542389687663
DataValue, 0, 14.000380000000002, 0.20170000000000002, 4.2315000000000005, 25, 0.04766631218244121
DataValue, -1.6000000000000001E-06, 14.000280000000002, 0.21250000000000002, 4.445, 25, 0.047806524184476944
DataValue, -6.0000000000000008E-07, 13.9998, 0.22360000000000002, 4.6290000000000004, 25, 0.048304169367033918
DataValue, -5.0000000000000008E-07, 13.999780000000001, 0.23020000000000002, 4.8475, 25, 0.047488396080453847
DataValue, -2.5E-06, 13.999920000000001, 0.24000000000000002, 5.0145, 25, 0.047861202512713134
DataValue, -8.0000000000000007E-07, 13.999480000000002, 0.2497, 5.2335, 25, 0.047711856310308588
DataValue, -3.0000000000000004E-07, 14.000000000000002, 0.2601, 5.398, 25, 0.048184512782512047
DataValue, -2.4000000000000003E-06, 13.999900000000002, 0.2674, 5.617, 25, 0.047605483354103618
DataValue, -8.0000000000000007E-07, 13.999300000000002, 0.2778, 5.8035000000000005, 25, 0.047867666063582316
DataValue, -8.0000000000000007E-07, 14.00018, 0.2853, 5.9695, 25, 0.047792947483038778
DataValue, -1.3E-06, 13.999860000000002, 0.2919, 6.1185, 25, 0.047707771512625639
DataValue, -1.3E-06, 14.0005, 0.2985, 6.228, 25, 0.047928709055876685
DataValue, -3.0000000000000004E-07, 13.999960000000002, 0.30210000000000004, 6.3425, 25, 0.047631060307449749
DataValue, 4.0000000000000003E-07, 14.00036, 0.3045, 6.3945, 25, 0.047619047619047616
DataValue, 7.0000000000000007E-07, 14.0005, 0.3057, 6.438, 25, 0.047483690587138867
DataValue, -9.0000000000000007E-07, 13.99956, 0.3064, 6.485, 25, 0.047247494217424822
DataValue, -8.0000000000000007E-07, 14.0006, 0.3073, 6.501, 25, 0.047269650822950315
DataValue, 3.0000000000000004E-07, 14.00046, 0.30860000000000004, 6.542, 25, 0.047172118618159592
DataValue, 1.2000000000000002E-06, 14.001000000000001, 0.3085, 6.538, 25, 0.047185683695319669
DataValue, -3.0000000000000004E-07, 14.000060000000001, 0.31010000000000004, 6.5565, 25, 0.047296575917028912
DataValue, -1.2000000000000002E-06, 13.999720000000002, 0.3099, 6.5475, 25, 0.04733104238258877
DataValue, 1.7000000000000002E-06, 14.000380000000002, 0.3113, 6.5600000000000005, 25, 0.047454268292682927
DataValue, 0, 14.000140000000002, 0.30970000000000003, 6.529, 25, 0.047434522897840413
DataValue, 0, 13.99998, 0.3116, 6.5565, 25, 0.047525356516434074
DataValue, -6.0000000000000008E-07, 13.99998, 0.3104, 6.558, 25, 0.047331503507166819
DataValue, -5.0000000000000008E-07, 13.9997, 0.3109, 6.556, 25, 0.0474222086638194
DataValue, 0, 14.000280000000002, 0.30960000000000004, 6.575, 25, 0.047087452471482896
DataValue, -4.0000000000000003E-07, 13.999680000000002, 0.31, 6.5680000000000005, 25, 0.047198538367844087
DataValue, -2.0000000000000003E-06, 13.999600000000001, 0.3109, 6.555, 25, 0.047429443173150274
DataValue, 3.0000000000000004E-07, 14.00064, 0.3114, 6.5760000000000005, 25, 0.047354014598540141
DataValue, 2.5E-06, 14.000160000000001, 0.31170000000000003, 6.582, 25, 0.04735642661804923
DataValue, 0, 14.000300000000001, 0.3111, 6.5525, 25, 0.047478061808470043
