
SetupTitle, ID-VGS
PrimitiveTest, Multi Channel I/V Sweep
TestParameter, Channel.UnitType, SMU, SMU
TestParameter, Channel.Unit, SMU2:MC, SMU3:UHC500
TestParameter, Channel.IName, IG, ID
TestParameter, Channel.VName, VGS, VDS
TestParameter, Channel.Mode, VPULSE, VPULSE
TestParameter, Channel.Func, VAR1, CONST
TestParameter, Channel.Index, 
TestParameter, Channel.Time, 
TestParameter, Measurement.Port.Unit, SMU2:MC, SMU3:UHC500
TestParameter, Measurement.Port.SeriesResistor, NONE, NONE
TestParameter, Measurement.Port.Filter, OFF, OFF
TestParameter, Measurement.Port.OutputVoltageComparison, 0, 0
TestParameter, Measurement.Primary.Start, 0
TestParameter, Measurement.Primary.Stop, 10
TestParameter, Measurement.Primary.Compliance, 0.099999999999999992
TestParameter, Measurement.Primary.PowerCompliance, 0
TestParameter, Measurement.Primary.Locus, Single
TestParameter, Measurement.Primary.Scale, LINEAR
TestParameter, Measurement.Primary.Count, 2001
TestParameter, Measurement.Aborting.Condition, CONTINUE AT ANY
TestParameter, Measurement.PostOutput.Value, START
TestParameter, Measurement.PostOutput.Retention, OFF
TestParameter, Measurement.Bias.Source, 0, 3
TestParameter, Measurement.Bias.Compliance, 0.099999999999999992, 5
TestParameter, Measurement.Pulse.Delay, 0, 9.9999999999999991E-05
TestParameter, Measurement.Pulse.Duration, 0.001, 4.9999999999999996E-05
TestParameter, Measurement.Pulse.Base, 0, 0
TestParameter, Measurement.Pulse.Period, 0
TestParameter, Measurement.Pulse.MeasurementDelay, 0
TestParameter, Measurement.Pulse.AveragingCount, 1
TestParameter, Measurement.Monitor.Unit, SMU2:MC, SMU3:UHC500
TestParameter, Measurement.Monitor.Adc, HS ADC, HS ADC
TestParameter, Measurement.Monitor.Measurement, Force and Compliance Sides, Force and Compliance Sides
TestParameter, Measurement.Timing.Hold, 0
TestParameter, Measurement.Timing.Delay, 0
TestParameter, Measurement.Adc.HighSpeed.Mode, TIME
TestParameter, Measurement.Adc.HighSpeed.Coeff, 9.9999999999999991E-06
TestParameter, Measurement.Adc.HighResolution.AutoZero, OFF
TestParameter, Measurement.Adc.HighResolution.Mode, AUTO
TestParameter, Measurement.Adc.HighResolution.Coeff, 6
TestParameter, Measurement.WaitTime.Source.Coeff, 1
TestParameter, Measurement.WaitTime.Source.Offset, 0
TestParameter, Measurement.WaitTime.Monitor.Coeff, 1
TestParameter, Measurement.WaitTime.Monitor.Offset, 0
TestParameter, Output.Graph.Enabled, true
TestParameter, Output.Graph.AutoScaling, false
TestParameter, Output.Graph.XAxis.Data, VGS
TestParameter, Output.Graph.XAxis.Scale, Linear
TestParameter, Output.Graph.XAxis.Left, -5.4
TestParameter, Output.Graph.XAxis.Right, 12.6
TestParameter, Output.Graph.XAxis.RunTimeAutoScale, false
TestParameter, Output.Graph.YAxis.Data, ID
TestParameter, Output.Graph.YAxis.Scale, Linear
TestParameter, Output.Graph.YAxis.Bottom, 0
TestParameter, Output.Graph.YAxis.Top, 10
TestParameter, Output.Graph.YAxis.Group, 
TestParameter, Output.Graph.YAxis.RunTimeAutoScale, false
TestParameter, Output.List.Data, VGS, ID
TestParameter, AutoAnalysis.Interpolation, false
TestParameter, AutoAnalysis.Line1.Enabled, false
TestParameter, AutoAnalysis.Line1.Type, 1
TestParameter, AutoAnalysis.Line1.Fix, True
TestParameter, AutoAnalysis.Line1.YAxis, 0
TestParameter, AutoAnalysis.Line1.Point1.Type, 0
TestParameter, AutoAnalysis.Line1.Point1.XY.X, 
TestParameter, AutoAnalysis.Line1.Point1.XY.Y, 
TestParameter, AutoAnalysis.Line1.Point1.Data.Var, 
TestParameter, AutoAnalysis.Line1.Point1.Data.Condition, 
TestParameter, AutoAnalysis.Line1.Point1.Data.Start, false
TestParameter, AutoAnalysis.Line1.Point1.Data.StartVar, 
TestParameter, AutoAnalysis.Line1.Point1.Data.StartCondition, 
TestParameter, AutoAnalysis.Line1.Point2.Type, 0
TestParameter, AutoAnalysis.Line1.Point2.XY.X, 
TestParameter, AutoAnalysis.Line1.Point2.XY.Y, 
TestParameter, AutoAnalysis.Line1.Point2.Data.Var, 
TestParameter, AutoAnalysis.Line1.Point2.Data.Condition, 
TestParameter, AutoAnalysis.Line1.Point2.Data.Start, false
TestParameter, AutoAnalysis.Line1.Point2.Data.StartVar, 
TestParameter, AutoAnalysis.Line1.Point2.Data.StartCondition, 
TestParameter, AutoAnalysis.Line1.GradientExpr, 0
TestParameter, AutoAnalysis.Line2.Enabled, false
TestParameter, AutoAnalysis.Line2.Type, 1
TestParameter, AutoAnalysis.Line2.Fix, True
TestParameter, AutoAnalysis.Line2.YAxis, 0
TestParameter, AutoAnalysis.Line2.Point1.Type, 0
TestParameter, AutoAnalysis.Line2.Point1.XY.X, 
TestParameter, AutoAnalysis.Line2.Point1.XY.Y, 
TestParameter, AutoAnalysis.Line2.Point1.Data.Var, 
TestParameter, AutoAnalysis.Line2.Point1.Data.Condition, 
TestParameter, AutoAnalysis.Line2.Point1.Data.Start, false
TestParameter, AutoAnalysis.Line2.Point1.Data.StartVar, 
TestParameter, AutoAnalysis.Line2.Point1.Data.StartCondition, 
TestParameter, AutoAnalysis.Line2.Point2.Type, 0
TestParameter, AutoAnalysis.Line2.Point2.XY.X, 
TestParameter, AutoAnalysis.Line2.Point2.XY.Y, 
TestParameter, AutoAnalysis.Line2.Point2.Data.Var, 
TestParameter, AutoAnalysis.Line2.Point2.Data.Condition, 
TestParameter, AutoAnalysis.Line2.Point2.Data.Start, false
TestParameter, AutoAnalysis.Line2.Point2.Data.StartVar, 
TestParameter, AutoAnalysis.Line2.Point2.Data.StartCondition, 
TestParameter, AutoAnalysis.Line2.GradientExpr, 0
TestParameter, AutoAnalysis.Marker.Enabled, false
TestParameter, AutoAnalysis.Marker.Data.Var, 
TestParameter, AutoAnalysis.Marker.Data.Condition, 
TestParameter, AutoAnalysis.Marker.Data.Start, false
TestParameter, AutoAnalysis.Marker.Data.StartVar, 
TestParameter, AutoAnalysis.Marker.Data.StartCondition, 
MetaData, TestRecord.EntryPoint, true
MetaData, TestRecord.RecordTime, 04/17/2021 13:27:48
MetaData, TestRecord.TestTarget, 
MetaData, TestRecord.IterationIndex, 1
MetaData, TestRecord.Preservation, true
MetaData, TestRecord.Flag, 
MetaData, TestRecord.Remarks, 
MetaData, TestRecord.LinkKey, 6736a36b-44f2-4bd9-945d-e90f8f7411c1
Dimension1, 2001, 2001
Dimension2, 1, 1
DataName, VGS, ID
DataValue, 0.00038, -0.046
DataValue, 0.00532, -0.021500000000000002
DataValue, 0.0094600000000000014, -0.0105
DataValue, 0.014600000000000002, -0.0275
DataValue, 0.01948, -0.036000000000000004
DataValue, 0.024980000000000002, -0.0375
DataValue, 0.030580000000000003, -0.0165
DataValue, 0.03522, -0.014
DataValue, 0.039700000000000006, -0.0475
DataValue, 0.045520000000000005, -0.051000000000000004
DataValue, 0.04986, -0.0425
DataValue, 0.055240000000000004, -0.018000000000000002
DataValue, 0.06038, -0.0265
DataValue, 0.065, -0.0385
DataValue, 0.069780000000000009, -0.035
DataValue, 0.07562, -0.0405
DataValue, 0.07932, -0.016
DataValue, 0.084600000000000009, -0.021500000000000002
DataValue, 0.09024, -0.0185
DataValue, 0.095440000000000011, -0.045
DataValue, 0.10030000000000001, -0.055
DataValue, 0.1053, -0.0165
DataValue, 0.10988, -0.008
DataValue, 0.11508000000000002, -0.03
DataValue, 0.12026, -0.04
DataValue, 0.12478000000000002, -0.0345
DataValue, 0.13010000000000002, -0.019
DataValue, 0.13498000000000002, -0.0165
DataValue, 0.14032, -0.0415
DataValue, 0.14548, -0.0365
DataValue, 0.15024, -0.034
DataValue, 0.15564, -0.016
DataValue, 0.15990000000000001, -0.028
DataValue, 0.16466, -0.043500000000000004
DataValue, 0.1703, -0.0455
DataValue, 0.17548000000000003, -0.015
DataValue, 0.18012, -0.0305
DataValue, 0.18458000000000002, -0.0385
DataValue, 0.19, -0.043500000000000004
DataValue, 0.19532000000000002, -0.0265
DataValue, 0.19968000000000002, -0.0155
DataValue, 0.20496, -0.0305
DataValue, 0.20990000000000003, -0.047
DataValue, 0.21468, -0.037
DataValue, 0.22008000000000003, -0.0175
DataValue, 0.22456, -0.032
DataValue, 0.23048000000000002, -0.036000000000000004
DataValue, 0.23500000000000001, -0.046
DataValue, 0.24074, -0.035
DataValue, 0.24514000000000003, -0.0115
DataValue, 0.24978000000000003, -0.0195
DataValue, 0.25408000000000003, -0.043500000000000004
DataValue, 0.25998000000000004, -0.052000000000000005
DataValue, 0.26476, -0.0115
DataValue, 0.26976, -0.021500000000000002
DataValue, 0.27536000000000005, -0.0235
DataValue, 0.28068000000000004, -0.0455
DataValue, 0.28500000000000003, -0.059000000000000004
DataValue, 0.29032, -0.032
DataValue, 0.29494000000000004, -0.006
DataValue, 0.30024, -0.043000000000000003
DataValue, 0.30474, -0.0415
DataValue, 0.3105, -0.04
DataValue, 0.31528, -0.025
DataValue, 0.31996, -0.0265
DataValue, 0.32466, -0.035
DataValue, 0.32974000000000003, -0.051500000000000004
DataValue, 0.33482, -0.043000000000000003
DataValue, 0.34054, -0.0265
DataValue, 0.34566, -0.029500000000000002
DataValue, 0.3496, -0.043000000000000003
DataValue, 0.35490000000000005, -0.0475
DataValue, 0.36038000000000003, -0.039
DataValue, 0.36486, -0.0305
DataValue, 0.36908, -0.019
DataValue, 0.37538000000000005, -0.0315
DataValue, 0.38, -0.0475
DataValue, 0.38506, -0.031
DataValue, 0.39048000000000005, -0.025500000000000002
DataValue, 0.39520000000000005, -0.023
DataValue, 0.39974000000000004, -0.047
DataValue, 0.40496000000000004, -0.0335
DataValue, 0.4102, -0.029
DataValue, 0.41524000000000005, -0.018000000000000002
DataValue, 0.41950000000000004, -0.0195
DataValue, 0.42524000000000006, -0.052000000000000005
DataValue, 0.43000000000000005, -0.0235
DataValue, 0.43534000000000006, -0.029
DataValue, 0.43996, -0.0145
DataValue, 0.44452, -0.037
DataValue, 0.44924000000000003, -0.042
DataValue, 0.45528, -0.025
DataValue, 0.46012000000000003, -0.0235
DataValue, 0.46472, -0.029
DataValue, 0.46956000000000003, -0.035
DataValue, 0.4751, -0.022
DataValue, 0.48058000000000006, -0.018000000000000002
DataValue, 0.48474000000000006, -0.0345
DataValue, 0.49072000000000005, -0.033
DataValue, 0.49494000000000005, -0.044
DataValue, 0.49950000000000006, -0.02
DataValue, 0.50476, -0.035500000000000004
DataValue, 0.51050000000000006, -0.033
DataValue, 0.51550000000000007, -0.0345
DataValue, 0.5199, -0.0275
DataValue, 0.52518000000000009, -0.035500000000000004
DataValue, 0.52924, -0.039
DataValue, 0.53542, -0.022
DataValue, 0.54096, -0.0135
DataValue, 0.54446, -0.0405
DataValue, 0.55032, -0.0405
DataValue, 0.55536000000000008, -0.0285
DataValue, 0.55972, -0.02
DataValue, 0.56496, -0.029500000000000002
DataValue, 0.57064, -0.053
DataValue, 0.57506, -0.0275
DataValue, 0.5797, -0.0325
DataValue, 0.58472, -0.026000000000000002
DataValue, 0.59114, -0.036000000000000004
DataValue, 0.59500000000000008, -0.044
DataValue, 0.60006, -0.0375
DataValue, 0.60498000000000007, -0.0175
DataValue, 0.6100000000000001, -0.017
DataValue, 0.6147800000000001, -0.021500000000000002
DataValue, 0.61934, -0.0385
DataValue, 0.62542000000000009, -0.031
DataValue, 0.63, -0.019
DataValue, 0.63504, -0.012
DataValue, 0.6401, -0.03
DataValue, 0.64528000000000008, -0.0425
DataValue, 0.64942000000000011, -0.029500000000000002
DataValue, 0.65522, -0.015
DataValue, 0.66008, -0.017
DataValue, 0.66552, -0.042
DataValue, 0.67032, -0.04
DataValue, 0.67378, -0.0065000000000000006
DataValue, 0.67986, -0.0305
DataValue, 0.68458000000000008, -0.038
DataValue, 0.68946000000000007, -0.041
DataValue, 0.69490000000000007, -0.0335
DataValue, 0.69942, -0.0225
DataValue, 0.7044, -0.0385
DataValue, 0.71004, -0.051000000000000004
DataValue, 0.71486, -0.0465
DataValue, 0.7204, -0.0245
DataValue, 0.72528, -0.036000000000000004
DataValue, 0.72964000000000007, -0.0315
DataValue, 0.73510000000000009, -0.042
DataValue, 0.74012000000000011, -0.0315
DataValue, 0.7458800000000001, -0.026000000000000002
DataValue, 0.74958, -0.036000000000000004
DataValue, 0.75558, -0.038
DataValue, 0.7599800000000001, -0.01
DataValue, 0.7652000000000001, -0.028
DataValue, 0.77032000000000012, -0.0425
DataValue, 0.7749, -0.051500000000000004
DataValue, 0.78, -0.047
DataValue, 0.78488, -0.0095
DataValue, 0.7906200000000001, -0.035500000000000004
DataValue, 0.79526000000000008, -0.046
DataValue, 0.79964, -0.0305
DataValue, 0.80464, -0.013000000000000001
DataValue, 0.81, -0.024
DataValue, 0.81496, -0.044
DataValue, 0.8198200000000001, -0.0445
DataValue, 0.82558000000000009, -0.0195
DataValue, 0.82956000000000008, -0.023
DataValue, 0.83560000000000012, -0.034
DataValue, 0.83988000000000007, -0.022
DataValue, 0.84456000000000009, -0.029
DataValue, 0.84956000000000009, -0.0225
DataValue, 0.8551200000000001, -0.0425
DataValue, 0.8605600000000001, -0.04
DataValue, 0.86494, -0.0395
DataValue, 0.8701000000000001, -0.0265
DataValue, 0.8751000000000001, -0.0195
DataValue, 0.87952000000000008, -0.025500000000000002
DataValue, 0.88492, -0.047
DataValue, 0.88984000000000008, -0.028
DataValue, 0.89494000000000007, -0.0325
DataValue, 0.90020000000000011, -0.0345
DataValue, 0.90534, -0.0495
DataValue, 0.91004000000000007, -0.031
DataValue, 0.91538000000000008, -0.028
DataValue, 0.91968, -0.0245
DataValue, 0.92468000000000006, -0.031
DataValue, 0.93032, -0.04
DataValue, 0.93522, -0.025
DataValue, 0.93976, -0.023
DataValue, 0.94508, -0.034
DataValue, 0.94980000000000009, -0.0455
DataValue, 0.95508, -0.0315
DataValue, 0.95962, -0.029500000000000002
DataValue, 0.96500000000000008, -0.025500000000000002
DataValue, 0.9699000000000001, -0.028
DataValue, 0.97526000000000013, -0.0465
DataValue, 0.98032000000000008, -0.032
DataValue, 0.98454000000000008, -0.035
DataValue, 0.99008000000000007, -0.0175
DataValue, 0.99472, -0.0385
DataValue, 1.0000600000000002, -0.023
DataValue, 1.0053800000000002, -0.0485
DataValue, 1.0098, -0.0185
DataValue, 1.01516, -0.0225
DataValue, 1.0205600000000001, -0.01
DataValue, 1.0251000000000001, -0.046
DataValue, 1.02962, -0.0325
DataValue, 1.0350000000000001, -0.0375
DataValue, 1.0403, -0.023
DataValue, 1.04532, -0.028
DataValue, 1.0505600000000002, -0.0315
DataValue, 1.05522, -0.03
DataValue, 1.0603200000000002, -0.011
DataValue, 1.06488, -0.033
DataValue, 1.07014, -0.04
DataValue, 1.07538, -0.0455
DataValue, 1.0799800000000002, -0.022
DataValue, 1.08458, -0.016
DataValue, 1.08922, -0.033
DataValue, 1.09514, -0.036000000000000004
DataValue, 1.09958, -0.021
DataValue, 1.1054000000000002, -0.012
DataValue, 1.1098800000000002, -0.021500000000000002
DataValue, 1.11522, -0.043500000000000004
DataValue, 1.1198000000000001, -0.025500000000000002
DataValue, 1.12494, -0.0265
DataValue, 1.13006, -0.022
DataValue, 1.1353600000000002, -0.034
DataValue, 1.1404, -0.035
DataValue, 1.1454000000000002, -0.0165
DataValue, 1.1505, -0.03
DataValue, 1.1549, -0.0475
DataValue, 1.1601000000000001, -0.05
DataValue, 1.1652, -0.027
DataValue, 1.16982, -0.012
DataValue, 1.1748200000000002, -0.036000000000000004
DataValue, 1.1798600000000001, -0.048
DataValue, 1.1851800000000001, -0.0225
DataValue, 1.18934, -0.0225
DataValue, 1.1952200000000002, -0.0345
DataValue, 1.1992, -0.04
DataValue, 1.20544, -0.035
DataValue, 1.2100600000000001, -0.014
DataValue, 1.21452, -0.029
DataValue, 1.2202000000000002, -0.0365
DataValue, 1.22462, -0.0075
DataValue, 1.2295600000000002, -0.019
DataValue, 1.23594, -0.047
DataValue, 1.2396, -0.0275
DataValue, 1.24536, -0.0245
DataValue, 1.24966, -0.0085
DataValue, 1.2545400000000002, -0.045
DataValue, 1.25994, -0.03
DataValue, 1.26488, -0.024
DataValue, 1.27008, -0.0205
DataValue, 1.27434, -0.0395
DataValue, 1.27932, -0.039
DataValue, 1.2847400000000002, -0.0235
DataValue, 1.2902, -0.0325
DataValue, 1.2958, -0.0485
DataValue, 1.30014, -0.046
DataValue, 1.30434, -0.0165
DataValue, 1.30986, -0.0225
DataValue, 1.31516, -0.0305
DataValue, 1.3204600000000002, -0.026000000000000002
DataValue, 1.3247000000000002, -0.0235
DataValue, 1.3299, -0.019
DataValue, 1.33532, -0.0315
DataValue, 1.3402, -0.035
DataValue, 1.3453000000000002, -0.0275
DataValue, 1.3501200000000002, -0.0145
DataValue, 1.3549000000000002, -0.0315
DataValue, 1.3598400000000002, -0.038
DataValue, 1.3648200000000001, -0.024
DataValue, 1.37094, -0.0275
DataValue, 1.3752600000000002, -0.026000000000000002
DataValue, 1.3793000000000002, -0.0375
DataValue, 1.3849200000000002, -0.0195
DataValue, 1.3903800000000002, -0.01
DataValue, 1.39514, -0.043000000000000003
DataValue, 1.4000800000000002, -0.028
DataValue, 1.4051600000000002, -0.0175
DataValue, 1.4098400000000002, -0.02
DataValue, 1.41456, -0.0285
DataValue, 1.4200000000000002, -0.045
DataValue, 1.4250200000000002, -0.0305
DataValue, 1.4300400000000002, -0.012
DataValue, 1.4353200000000002, -0.0275
DataValue, 1.43992, -0.0335
DataValue, 1.4445800000000002, -0.0195
DataValue, 1.4499600000000001, -0.0155
DataValue, 1.4547800000000002, -0.0305
DataValue, 1.4599000000000002, -0.046
DataValue, 1.4653600000000002, -0.017
DataValue, 1.4699000000000002, -0.0225
DataValue, 1.4752, -0.0285
DataValue, 1.4799000000000002, -0.032
DataValue, 1.48506, -0.028
DataValue, 1.49028, -0.0105
DataValue, 1.4947800000000002, -0.033
DataValue, 1.4997600000000002, -0.037
DataValue, 1.50492, -0.021500000000000002
DataValue, 1.5096200000000002, -0.025500000000000002
DataValue, 1.5149800000000002, -0.036000000000000004
DataValue, 1.5198, -0.044
DataValue, 1.52536, -0.014
DataValue, 1.53052, -0.017
DataValue, 1.5344600000000002, -0.025
DataValue, 1.54018, -0.0365
DataValue, 1.5455400000000001, -0.012
DataValue, 1.5498800000000002, -0.015
DataValue, 1.5551400000000002, -0.015
DataValue, 1.56072, -0.021500000000000002
DataValue, 1.5642600000000002, -0.0275
DataValue, 1.5705200000000001, -0.0125
DataValue, 1.5750400000000002, -0.015
DataValue, 1.5797200000000002, -0.021500000000000002
DataValue, 1.5844, -0.0185
DataValue, 1.59054, -0.026000000000000002
DataValue, 1.596, -0.0090000000000000011
DataValue, 1.5998400000000002, -0.0375
DataValue, 1.6050000000000002, -0.035500000000000004
DataValue, 1.60976, -0.025
DataValue, 1.61416, -0.0185
DataValue, 1.6204600000000002, -0.0105
DataValue, 1.6252000000000002, -0.031
DataValue, 1.6301200000000002, -0.0195
DataValue, 1.63518, -0.034
DataValue, 1.6401800000000002, -0.005
DataValue, 1.6451200000000001, -0.02
DataValue, 1.6496000000000002, -0.0415
DataValue, 1.6546600000000002, -0.0305
DataValue, 1.66016, -0.0085
DataValue, 1.66524, -0.013000000000000001
DataValue, 1.6697400000000002, -0.022
DataValue, 1.6759000000000002, -0.025500000000000002
DataValue, 1.6803000000000001, -0.0145
DataValue, 1.6847, -0.0075
DataValue, 1.6904000000000001, -0.0005
DataValue, 1.6949400000000001, -0.0305
DataValue, 1.69954, -0.025500000000000002
DataValue, 1.70476, -0.0135
DataValue, 1.7096000000000002, -0.0025
DataValue, 1.7149, -0.0205
DataValue, 1.7191600000000002, -0.036000000000000004
DataValue, 1.7246400000000002, -0.007
DataValue, 1.7301400000000002, -0.0075
DataValue, 1.7356200000000002, -0.0235
DataValue, 1.7405000000000002, -0.015
DataValue, 1.7450400000000002, -0.01
DataValue, 1.7498600000000002, 0.0015
DataValue, 1.7551200000000002, -0.0055
DataValue, 1.7595, -0.0305
DataValue, 1.7642200000000001, -0.027
DataValue, 1.77008, 0.001
DataValue, 1.7753200000000002, -0.003
DataValue, 1.7798800000000001, -0.008
DataValue, 1.7855, -0.0065000000000000006
DataValue, 1.78936, -0.0175
DataValue, 1.7954400000000002, -0.008
DataValue, 1.7994200000000002, 0.0175
DataValue, 1.8055200000000002, -0.0090000000000000011
DataValue, 1.81034, -0.0085
DataValue, 1.8146600000000002, -0.0075
DataValue, 1.82004, 0.0135
DataValue, 1.8251000000000002, -0.013000000000000001
DataValue, 1.8301800000000001, -0.0175
DataValue, 1.8351800000000003, -0.011
DataValue, 1.8399200000000002, 0.0105
DataValue, 1.84542, 0.0075
DataValue, 1.8497200000000003, 0.0045000000000000005
DataValue, 1.8552600000000001, -0.0090000000000000011
DataValue, 1.85986, 0.011
DataValue, 1.8652600000000001, 0.015
DataValue, 1.8695000000000002, 0.031
DataValue, 1.8746800000000001, 0.0015
DataValue, 1.8802400000000001, 0
