
SetupTitle, Rds-Id
ApplicationTest, Rds-Id, Public
TestParameter, Name, Memo, Scale, HoldTime, PulseBase, PulseAvgCnt, Gate, VgStart, VgStop, VgStep, IgLimit, Source, MeasurementTime, Drain, IdStart, IdStop, IdLinearStep, VdLimit, VdStop, PulsePeriodMode, ManualPulsePeriod, PulseWidth
TestParameter, Value, , LINEAR, 0, 0, 1, SMU2:MC	MCSMU, 20, 5, 1, 0.1, GNDU:GND	GNDU, 1E-05, SMU3:UHC500	UHCU500A, 0.5, 30, 0.2, 2, 0, 0, 0.05, 0.0002
DutParameter, Name, Polarity, Temp, YAxisRdsMin, YAxisRdsMax
DutParameter, Value, 1, 25, 0.001, 1
MetaData, TestRecord.EntryPoint, true
MetaData, TestRecord.RecordTime, 04/16/2021 15:33:01
MetaData, TestRecord.TestTarget, 
MetaData, TestRecord.IterationIndex, 1
MetaData, TestRecord.Preservation, true
MetaData, TestRecord.Flag, 
MetaData, TestRecord.Remarks, 
MetaData, TestRecord.LinkKey, e06ca3ae-e3e8-43ce-811d-078485b011a4
Dimension1, 148, 148, 148, 148, 148, 148
Dimension2, 16, 16, 16, 16, 16, 16
DataName, Igate, Vgate, Vdrain, Idrain, Ta, Rds
DataValue, -4.4E-06, 19.99924, 0.0032, 0.097, 25, 0.032989690721649485
DataValue, -6.7E-06, 19.99998, 0.0071, 0.266, 25, 0.02669172932330827
DataValue, -2.3E-06, 20.00018, 0.0173, 0.4955, 25, 0.034914228052472247
DataValue, -3.3E-06, 19.999940000000002, 0.0244, 0.7245, 25, 0.033678398895790204
DataValue, -4.2000000000000004E-06, 19.9999, 0.031200000000000002, 0.925, 25, 0.033729729729729728
DataValue, -5E-06, 19.99986, 0.0403, 1.165, 25, 0.034592274678111587
DataValue, -3.3E-06, 19.9998, 0.0466, 1.3475, 25, 0.034582560296846018
DataValue, -4.7000000000000007E-06, 19.99986, 0.0541, 1.591, 25, 0.03400377121307354
DataValue, -5.5000000000000007E-06, 20.00028, 0.0608, 1.7895, 25, 0.033975970941603796
DataValue, -2.2E-06, 20.000320000000002, 0.067600000000000007, 1.988, 25, 0.034004024144869222
DataValue, -4.1000000000000006E-06, 20.00008, 0.073000000000000009, 2.204, 25, 0.033121597096188747
DataValue, -3.4000000000000005E-06, 20.000220000000002, 0.080800000000000011, 2.412, 25, 0.033499170812603653
DataValue, -3E-06, 20.00016, 0.0882, 2.5915, 25, 0.034034343044568781
DataValue, -2.0000000000000003E-06, 19.9995, 0.095700000000000007, 2.8245, 25, 0.033882103027084443
DataValue, -9.0000000000000007E-07, 20.000020000000003, 0.1008, 3.02, 25, 0.033377483443708611
DataValue, -4.7000000000000007E-06, 19.999660000000002, 0.1087, 3.222, 25, 0.033736809435133457
DataValue, -4.2000000000000004E-06, 19.9995, 0.11320000000000001, 3.3935, 25, 0.033357890083984092
DataValue, -9.0000000000000007E-07, 19.9999, 0.12090000000000001, 3.617, 25, 0.033425490738180817
DataValue, -5E-06, 20.00008, 0.1287, 3.8205, 25, 0.0336866902237927
DataValue, -2.9E-06, 20.000100000000003, 0.1346, 4.0015, 25, 0.0336373859802574
DataValue, -3.3E-06, 19.999760000000002, 0.14170000000000002, 4.195, 25, 0.033778307508939218
DataValue, -4.4E-06, 19.9998, 0.1479, 4.4125000000000005, 25, 0.033518413597733707
DataValue, -3.9E-06, 19.99922, 0.1545, 4.601, 25, 0.033579656596392088
DataValue, -5.9E-06, 19.99932, 0.161, 4.797, 25, 0.033562643318740884
DataValue, -6.0000000000000008E-07, 20.000220000000002, 0.16870000000000002, 4.9955, 25, 0.033770393354018623
DataValue, -7.7E-06, 19.9994, 0.17470000000000002, 5.2090000000000005, 25, 0.033538107122288351
DataValue, -2.1000000000000002E-06, 20.000980000000002, 0.1809, 5.4085, 25, 0.033447351391328463
DataValue, -1.9000000000000002E-06, 20.000200000000003, 0.1884, 5.5895, 25, 0.033706055997853118
DataValue, -2.7000000000000004E-06, 19.999460000000003, 0.194, 5.7635000000000005, 25, 0.033660102368352561
DataValue, -3E-06, 20.000040000000002, 0.2016, 5.9425, 25, 0.0339251156920488
DataValue, -4.0000000000000007E-06, 19.999480000000002, 0.2026, 6.1115, 25, 0.03315061768796531
DataValue, -4.4E-06, 20.000040000000002, 0.21050000000000002, 6.222, 25, 0.03383156541305047
DataValue, -1.3E-06, 19.9997, 0.21030000000000002, 6.309, 25, 0.033333333333333333
DataValue, -3.1000000000000004E-06, 19.999740000000003, 0.21430000000000002, 6.3955, 25, 0.033507935266984604
DataValue, -9.0000000000000007E-07, 19.999840000000003, 0.21400000000000002, 6.4545, 25, 0.033155163064528627
DataValue, -2.8000000000000003E-06, 20.000480000000003, 0.21610000000000001, 6.4910000000000005, 25, 0.0332922508088122
DataValue, -2.2E-06, 19.99996, 0.21610000000000001, 6.506, 25, 0.033215493390716264
DataValue, -4.6E-06, 20.00008, 0.21730000000000002, 6.5275, 25, 0.033289927230946
DataValue, -3.6000000000000003E-06, 19.99972, 0.21810000000000002, 6.534, 25, 0.033379247015610652
DataValue, -4.5E-06, 20.000100000000003, 0.218, 6.522, 25, 0.033425329653480523
DataValue, -3.3E-06, 19.99962, 0.2174, 6.54, 25, 0.033241590214067279
DataValue, -3.6000000000000003E-06, 20.000320000000002, 0.21780000000000002, 6.5685, 25, 0.033158255309431381
DataValue, -6E-06, 19.999820000000003, 0.2185, 6.58, 25, 0.033206686930091184
DataValue, -2.5E-06, 20.00028, 0.21760000000000002, 6.58, 25, 0.033069908814589669
DataValue, -1.7000000000000002E-06, 19.999560000000002, 0.2184, 6.5825000000000005, 25, 0.0331788834029624
DataValue, -7.0000000000000007E-07, 19.999920000000003, 0.21780000000000002, 6.5915, 25, 0.033042554805431244
DataValue, -4.6E-06, 19.99996, 0.21660000000000002, 6.58, 25, 0.032917933130699087
DataValue, -1.9000000000000002E-06, 19.999820000000003, 0.2185, 6.5705, 25, 0.033254699033559092
DataValue, -3E-06, 20.00006, 0.2179, 6.5680000000000005, 25, 0.033176004872107187
DataValue, -2.0000000000000003E-06, 20.000040000000002, 0.21880000000000002, 6.5760000000000005, 25, 0.033272506082725063
DataValue, -1.6000000000000001E-06, 20.000600000000002, 0.2172, 6.5645, 25, 0.033087059181963592
DataValue, -4.4E-06, 19.999480000000002, 0.21760000000000002, 6.5775000000000006, 25, 0.03308247814519194
DataValue, -2.2E-06, 19.999540000000003, 0.2182, 6.5795, 25, 0.033163614256402463
DataValue, -4.3E-06, 19.9996, 0.21630000000000002, 6.589, 25, 0.032827439672180908
DataValue, -2.3E-06, 20.00034, 0.21830000000000002, 6.5955, 25, 0.033098324615267988
DataValue, -4.0000000000000007E-06, 19.99922, 0.21760000000000002, 6.59, 25, 0.033019726858877087
DataValue, -6.0000000000000008E-07, 20.00016, 0.2164, 6.5825000000000005, 25, 0.032875047474363844
DataValue, -4.1000000000000006E-06, 20.00008, 0.2179, 6.571, 25, 0.033160858316846752
DataValue, -4.1000000000000006E-06, 19.999920000000003, 0.2179, 6.591, 25, 0.033060233651949628
DataValue, -3.1000000000000004E-06, 19.999760000000002, 0.2184, 6.578, 25, 0.033201581027667987
DataValue, -1.4000000000000002E-06, 20.000220000000002, 0.2182, 6.558, 25, 0.033272339127782866
DataValue, -2.8000000000000003E-06, 19.999460000000003, 0.21780000000000002, 6.5760000000000005, 25, 0.033120437956204382
DataValue, -2.7000000000000004E-06, 19.99998, 0.2192, 6.5885, 25, 0.03327009182666768
DataValue, 0, 20.000880000000002, 0.21760000000000002, 6.5845, 25, 0.033047308071987247
DataValue, -4.2000000000000004E-06, 19.999660000000002, 0.21910000000000002, 6.596, 25, 0.03321710127349909
DataValue, -4.7000000000000007E-06, 19.99996, 0.21910000000000002, 6.6075, 25, 0.033159288687098
DataValue, -4.1000000000000006E-06, 20.00006, 0.21860000000000002, 6.588, 25, 0.033181542197935641
DataValue, -3.9E-06, 19.999940000000002, 0.2172, 6.579, 25, 0.033014135886912904
DataValue, -1.8000000000000001E-06, 20.000320000000002, 0.21780000000000002, 6.5935, 25, 0.033032532039129453
DataValue, -2.1000000000000002E-06, 19.99944, 0.2185, 6.5920000000000005, 25, 0.033146237864077666
DataValue, -3.8000000000000005E-06, 20.00028, 0.2199, 6.59, 25, 0.033368740515933235
DataValue, -2.6E-06, 20.00024, 0.2174, 6.5680000000000005, 25, 0.03309987819732034
DataValue, -2.3E-06, 19.999180000000003, 0.2195, 6.572, 25, 0.033399269628727933
DataValue, -2.6E-06, 19.99934, 0.2185, 6.5935, 25, 0.033138697201789642
DataValue, -2.1000000000000002E-06, 19.99988, 0.2195, 6.5995, 25, 0.033260095461777404
DataValue, -1.6000000000000001E-06, 20.00024, 0.2184, 6.5935, 25, 0.033123530749981048
DataValue, -3E-06, 19.999460000000003, 0.218, 6.6000000000000005, 25, 0.033030303030303028
DataValue, -1.5E-06, 20.000320000000002, 0.2199, 6.6000000000000005, 25, 0.033318181818181816
DataValue, -3.8000000000000005E-06, 20.00008, 0.21980000000000002, 6.5920000000000005, 25, 0.033343446601941745
DataValue, -3.9E-06, 20.000040000000002, 0.21980000000000002, 6.571, 25, 0.033450007609191909
DataValue, -4.5E-06, 20.000300000000003, 0.219, 6.571, 25, 0.033328260538730788
DataValue, -5.8E-06, 20.000220000000002, 0.21880000000000002, 6.5675, 25, 0.033315569090216983
DataValue, -3.9E-06, 20.000220000000002, 0.218, 6.579, 25, 0.033135734914120689
DataValue, -4.4E-06, 20.00016, 0.2185, 6.5885, 25, 0.033163846095469379
DataValue, -4.0000000000000007E-06, 19.9996, 0.219, 6.593, 25, 0.033217048384650387
DataValue, -1.3E-06, 20.00052, 0.21860000000000002, 6.5845, 25, 0.033199179892171006
DataValue, -6.6E-06, 19.999740000000003, 0.21710000000000002, 6.597, 25, 0.032908897983932088
DataValue, -2.0000000000000003E-06, 19.999640000000003, 0.21930000000000002, 6.599, 25, 0.033232307925443252
DataValue, -2.7000000000000004E-06, 20.000120000000003, 0.2189, 6.5915, 25, 0.033209436395357658
DataValue, -3.4000000000000005E-06, 19.999260000000003, 0.21880000000000002, 6.5825000000000005, 25, 0.033239650588682113
DataValue, -5.6000000000000006E-06, 19.99972, 0.21730000000000002, 6.583, 25, 0.03300926629196415
DataValue, -4.5E-06, 20.000300000000003, 0.2177, 6.5680000000000005, 25, 0.033145554202192444
DataValue, -1.8000000000000001E-06, 19.99998, 0.2179, 6.565, 25, 0.033191165270373191
DataValue, -2.5E-06, 19.9999, 0.2182, 6.5705, 25, 0.033209040407883722
DataValue, -1.4000000000000002E-06, 19.999380000000002, 0.2167, 6.574, 25, 0.032963188317614849
DataValue, -2.3E-06, 20.000120000000003, 0.2179, 6.581, 25, 0.033110469533505549
DataValue, -3E-06, 20.000500000000002, 0.2185, 6.5805, 25, 0.033204163817339108
DataValue, -3.9E-06, 20.00044, 0.219, 6.594, 25, 0.033212010919017286
DataValue, -2.9E-06, 20.000040000000002, 0.218, 6.6005, 25, 0.033027800924172408
DataValue, -5.1E-06, 20.00008, 0.2177, 6.605, 25, 0.032959878879636639
DataValue, -3.4000000000000005E-06, 20.000500000000002, 0.2184, 6.6025, 25, 0.033078379401741763
DataValue, -3.1000000000000004E-06, 19.99978, 0.2179, 6.599, 25, 0.033020154568874076
DataValue, -2.8000000000000003E-06, 20.00016, 0.21930000000000002, 6.606, 25, 0.033197093551316989
DataValue, -4.1000000000000006E-06, 20.000220000000002, 0.2184, 6.612, 25, 0.033030852994555354
DataValue, -3.5000000000000004E-06, 19.999840000000003, 0.2185, 6.6035, 25, 0.033088513666994772
DataValue, -1.3E-06, 20.000220000000002, 0.21810000000000002, 6.585, 25, 0.033120728929384967
DataValue, -2.0000000000000003E-06, 19.99934, 0.2175, 6.606, 25, 0.032924613987284287
DataValue, -1.0000000000000002E-06, 20.00008, 0.22, 6.603, 25, 0.0333181887021051
DataValue, -2.7000000000000004E-06, 19.999920000000003, 0.21860000000000002, 6.603, 25, 0.033106163864909895
DataValue, -2.5E-06, 20.000780000000002, 0.22010000000000002, 6.5825000000000005, 25, 0.033437143942271173
DataValue, -2.9E-06, 20.00036, 0.2199, 6.5785, 25, 0.033427073040966787
DataValue, -4.9000000000000005E-06, 19.999840000000003, 0.21880000000000002, 6.5785, 25, 0.0332598616705936
DataValue, -2.4000000000000003E-06, 20.000580000000003, 0.2175, 6.5945, 25, 0.032982030479945405
DataValue, -3.2000000000000003E-06, 20, 0.21830000000000002, 6.596, 25, 0.033095815645845968
DataValue, -2.2E-06, 19.99922, 0.21780000000000002, 6.596, 25, 0.033020012128562766
DataValue, -3.6000000000000003E-06, 20.000220000000002, 0.2182, 6.589, 25, 0.03311579905903779
DataValue, -1.6000000000000001E-06, 20.000220000000002, 0.22010000000000002, 6.5920000000000005, 25, 0.033388956310679611
DataValue, -3.0000000000000004E-07, 20.00066, 0.2202, 6.5635, 25, 0.033549173459282391
DataValue, -2.0000000000000003E-06, 19.999840000000003, 0.21980000000000002, 6.5655, 25, 0.033478029091462955
DataValue, -1.8000000000000001E-06, 20.00092, 0.218, 6.585, 25, 0.033105542900531512
DataValue, -2.4000000000000003E-06, 19.99988, 0.21810000000000002, 6.5905000000000005, 25, 0.033093088536529855
DataValue, -2.6E-06, 19.99996, 0.2182, 6.5855000000000006, 25, 0.033133399134462074
DataValue, -1.0000000000000002E-06, 20.00028, 0.2185, 6.5885, 25, 0.033163846095469379
DataValue, -8.0000000000000007E-07, 20.000320000000002, 0.21860000000000002, 6.5915, 25, 0.033163923234468637
DataValue, -1.5E-06, 19.999540000000003, 0.2199, 6.6045, 25, 0.033295480354303887
DataValue, -3.4000000000000005E-06, 19.999480000000002, 0.2202, 6.6005, 25, 0.033361109006893416
DataValue, -2.0000000000000003E-06, 20, 0.21930000000000002, 6.6035, 25, 0.03320966154312107
DataValue, -1.8000000000000001E-06, 20.00016, 0.2187, 6.61, 25, 0.033086232980332829
DataValue, -3.8000000000000005E-06, 20.000040000000002, 0.2187, 6.594, 25, 0.03316651501364877
DataValue, -3.5000000000000004E-06, 19.999760000000002, 0.21810000000000002, 6.587, 25, 0.03311067253681494
DataValue, -2.7000000000000004E-06, 20.00074, 0.2182, 6.5805, 25, 0.033158574576399973
DataValue, -3E-06, 19.9993, 0.2189, 6.577, 25, 0.033282651664892811
DataValue, 4.0000000000000003E-07, 20.000400000000003, 0.21860000000000002, 6.5775000000000006, 25, 0.033234511592550357
DataValue, -3E-06, 20, 0.21880000000000002, 6.589, 25, 0.033206859918045228
DataValue, -8.0000000000000007E-07, 20.000040000000002, 0.2189, 6.593, 25, 0.033201880782648262
DataValue, -9.0000000000000007E-07, 20.00026, 0.21930000000000002, 6.59, 25, 0.033277693474962067
DataValue, -1.9000000000000002E-06, 20.000040000000002, 0.21960000000000002, 6.5995, 25, 0.033275248124857944
DataValue, -2.1000000000000002E-06, 20.000760000000003, 0.21880000000000002, 6.583, 25, 0.03323712593042686
DataValue, -4.2000000000000004E-06, 20.000100000000003, 0.2184, 6.579, 25, 0.033196534427724578
DataValue, -3.4000000000000005E-06, 20.00026, 0.2175, 6.599, 25, 0.032959539324140023
DataValue, -4.9000000000000005E-06, 19.999560000000002, 0.21730000000000002, 6.588, 25, 0.032984213721918641
DataValue, -1.9000000000000002E-06, 19.9999, 0.21710000000000002, 6.585, 25, 0.03296886864085042
DataValue, -2.4000000000000003E-06, 19.99968, 0.21830000000000002, 6.5745000000000005, 25, 0.033204045935052093
DataValue, -5E-06, 20.000320000000002, 0.2187, 6.579, 25, 0.033242134062927496
DataValue, -3.6000000000000003E-06, 19.999540000000003, 0.21780000000000002, 6.578, 25, 0.03311036789297659
DataValue, -5.2E-06, 20, 0.21810000000000002, 6.5865, 25, 0.033113186062400365
DataValue, 1.0000000000000001E-07, 20.00046, 0.2194, 6.582, 25, 0.033333333333333333
DataValue, -5.9E-06, 19.999940000000002, 0.2187, 6.5875, 25, 0.033199240986717268
DataValue, -2.4000000000000003E-06, 19.00016, 0.0025, 0.0985, 25, 0.025380710659898477
DataValue, -4.0000000000000007E-06, 19.00006, 0.0095, 0.262, 25, 0.036259541984732822
DataValue, -8.0000000000000007E-07, 19.00008, 0.0178, 0.4825, 25, 0.036891191709844562
DataValue, -2.2E-06, 19, 0.0256, 0.707, 25, 0.036209335219236215
DataValue, -4.3E-06, 18.99958, 0.0335, 0.923, 25, 0.036294691224268691
DataValue, -3.4000000000000005E-06, 18.9998, 0.0422, 1.1515, 25, 0.036647850629613551
DataValue, -3.1000000000000004E-06, 19.000200000000003, 0.0461, 1.349, 25, 0.034173461823573018
DataValue, -3.7E-06, 18.999460000000003, 0.053500000000000006, 1.562, 25, 0.034250960307298337
DataValue, -4.2000000000000004E-06, 18.999560000000002, 0.060500000000000005, 1.7825, 25, 0.033941093969144465
DataValue, -5.4000000000000008E-06, 19.000220000000002, 0.0694, 1.9775, 25, 0.035094816687737042
DataValue, -3.1000000000000004E-06, 18.999660000000002, 0.0763, 2.214, 25, 0.034462511291779588
DataValue, 6.0000000000000008E-07, 19.00046, 0.084600000000000009, 2.403, 25, 0.0352059925093633
DataValue, -5.9E-06, 18.99996, 0.0908, 2.6105, 25, 0.034782608695652174
DataValue, -3E-06, 18.9994, 0.0971, 2.8105, 25, 0.034549012631204412
DataValue, -3.5000000000000004E-06, 18.99998, 0.1039, 3.031, 25, 0.034279115803365227
DataValue, -2.1000000000000002E-06, 19.000200000000003, 0.10830000000000001, 3.212, 25, 0.0337173100871731
DataValue, -2.5E-06, 18.99916, 0.11720000000000001, 3.4170000000000003, 25, 0.034299092771436931
DataValue, -4.0000000000000007E-06, 18.9998, 0.1253, 3.6305, 25, 0.034513152458339066
DataValue, -1.9000000000000002E-06, 18.99972, 0.1315, 3.8195, 25, 0.034428590129598112
DataValue, -4.5E-06, 18.9998, 0.138, 4.026, 25, 0.034277198211624449
DataValue, -3.7E-06, 18.9997, 0.1461, 4.202, 25, 0.034769157544026659
DataValue, -1.8000000000000001E-06, 18.99952, 0.15030000000000002, 4.4110000000000005, 25, 0.034073906143731583
DataValue, -5E-06, 18.9996, 0.1578, 4.609, 25, 0.0342373616836624
DataValue, -3.4000000000000005E-06, 18.998820000000002, 0.16590000000000002, 4.8125, 25, 0.03447272727272728
DataValue, -5.8E-06, 18.99932, 0.1709, 5.009, 25, 0.0341185865442204
DataValue, -5.3E-06, 18.999360000000003, 0.1801, 5.2195, 25, 0.034505220806590672
DataValue, -1.4000000000000002E-06, 19.000320000000002, 0.1869, 5.394, 25, 0.0346496106785317
DataValue, -4.4E-06, 19.00018, 0.1923, 5.591, 25, 0.034394562690037558
DataValue, -1.5E-06, 19.000020000000003, 0.1975, 5.76, 25, 0.034288194444444448
DataValue, -3.3E-06, 18.999820000000003, 0.2033, 5.9325, 25, 0.034268857985672148
DataValue, -3.0000000000000004E-07, 19.00038, 0.21000000000000002, 6.0935, 25, 0.03446295232624929
DataValue, -3.1000000000000004E-06, 18.99986, 0.21400000000000002, 6.2135, 25, 0.034441136235616
DataValue, -3.2000000000000003E-06, 18.99958, 0.2152, 6.317, 25, 0.034066803862593004
DataValue, -7.0000000000000007E-07, 19.000760000000003, 0.2175, 6.3985, 25, 0.033992341955145736
DataValue, -7.0000000000000007E-07, 19.00016, 0.2194, 6.4510000000000005, 25, 0.034010230971942335
DataValue, -5.0000000000000008E-07, 19.00056, 0.2184, 6.4755, 25, 0.033727125318508223
DataValue, -1.9000000000000002E-06, 19.000320000000002, 0.2214, 6.503, 25, 0.034045825003844378
DataValue, -1.5E-06, 18.99996, 0.2214, 6.5175, 25, 0.033970080552359033
DataValue, -2.9E-06, 19.000400000000003, 0.2218, 6.5255, 25, 0.033989732587541184
DataValue, -2.3E-06, 19.00024, 0.2209, 6.5465, 25, 0.03374322156877721
DataValue, -2.0000000000000003E-06, 18.9997, 0.2207, 6.539, 25, 0.033751338125095585
DataValue, -2.3E-06, 19.000200000000003, 0.2212, 6.5525, 25, 0.033758107592521937
DataValue, -2.0000000000000003E-06, 19.00062, 0.2238, 6.549, 25, 0.034173156207054509
DataValue, -2.8000000000000003E-06, 19.000120000000003, 0.22360000000000002, 6.5345, 25, 0.034218379371030685
DataValue, -5.7000000000000005E-06, 19.000020000000003, 0.2227, 6.5715, 25, 0.033888762078673057
DataValue, -2.2E-06, 18.99944, 0.2222, 6.5625, 25, 0.033859047619047622
DataValue, -3.5000000000000004E-06, 19, 0.2222, 6.5615000000000006, 25, 0.033864207879295893
DataValue, -4.0000000000000007E-06, 18.999480000000002, 0.22240000000000001, 6.5565, 25, 0.033920536871806607
DataValue, -4.5E-06, 19.000960000000003, 0.2233, 6.566, 25, 0.03400852878464819
DataValue, -5.9E-06, 18.9998, 0.22260000000000002, 6.563, 25, 0.033917415815937837
DataValue, -5.5000000000000007E-06, 18.99986, 0.2237, 6.5495, 25, 0.034155279028933505
DataValue, -5.1E-06, 19.00052, 0.2232, 6.5615000000000006, 25, 0.034016612055170307
DataValue, -4.3E-06, 19.00008, 0.22290000000000002, 6.566, 25, 0.033947608894303996
DataValue, -3.6000000000000003E-06, 18.99996, 0.223, 6.5665000000000004, 25, 0.033960252798294371
DataValue, -2.7000000000000004E-06, 18.9999, 0.2222, 6.5575, 25, 0.03388486465878765
DataValue, -2.9E-06, 18.999540000000003, 0.2214, 6.537, 25, 0.0338687471317118
DataValue, -5.0000000000000008E-07, 19.00054, 0.22260000000000002, 6.5535000000000005, 25, 0.033966582742046232
DataValue, -3E-06, 19.000300000000003, 0.2222, 6.566, 25, 0.033840999086201647
