
SetupTitle, ID-VGS
PrimitiveTest, Multi Channel I/V Sweep
TestParameter, Channel.UnitType, SMU, SMU
TestParameter, Channel.Unit, SMU2:MC, SMU3:UHC500
TestParameter, Channel.IName, IG, ID
TestParameter, Channel.VName, VGS, VDS
TestParameter, Channel.Mode, VPULSE, VPULSE
TestParameter, Channel.Func, VAR1, CONST
TestParameter, Channel.Index, 
TestParameter, Channel.Time, 
TestParameter, Measurement.Port.Unit, SMU2:MC, SMU3:UHC500
TestParameter, Measurement.Port.SeriesResistor, NONE, NONE
TestParameter, Measurement.Port.Filter, OFF, OFF
TestParameter, Measurement.Port.OutputVoltageComparison, 0, 0
TestParameter, Measurement.Primary.Start, 0
TestParameter, Measurement.Primary.Stop, 10
TestParameter, Measurement.Primary.Compliance, 0.099999999999999992
TestParameter, Measurement.Primary.PowerCompliance, 0
TestParameter, Measurement.Primary.Locus, Single
TestParameter, Measurement.Primary.Scale, LINEAR
TestParameter, Measurement.Primary.Count, 2001
TestParameter, Measurement.Aborting.Condition, CONTINUE AT ANY
TestParameter, Measurement.PostOutput.Value, START
TestParameter, Measurement.PostOutput.Retention, OFF
TestParameter, Measurement.Bias.Source, 0, 3
TestParameter, Measurement.Bias.Compliance, 0.099999999999999992, 5
TestParameter, Measurement.Pulse.Delay, 0, 9.9999999999999991E-05
TestParameter, Measurement.Pulse.Duration, 0.001, 4.9999999999999996E-05
TestParameter, Measurement.Pulse.Base, 0, 0
TestParameter, Measurement.Pulse.Period, 0
TestParameter, Measurement.Pulse.MeasurementDelay, 0
TestParameter, Measurement.Pulse.AveragingCount, 1
TestParameter, Measurement.Monitor.Unit, SMU2:MC, SMU3:UHC500
TestParameter, Measurement.Monitor.Adc, HS ADC, HS ADC
TestParameter, Measurement.Monitor.Measurement, Force and Compliance Sides, Force and Compliance Sides
TestParameter, Measurement.Timing.Hold, 0
TestParameter, Measurement.Timing.Delay, 0
TestParameter, Measurement.Adc.HighSpeed.Mode, TIME
TestParameter, Measurement.Adc.HighSpeed.Coeff, 9.9999999999999991E-06
TestParameter, Measurement.Adc.HighResolution.AutoZero, OFF
TestParameter, Measurement.Adc.HighResolution.Mode, AUTO
TestParameter, Measurement.Adc.HighResolution.Coeff, 6
TestParameter, Measurement.WaitTime.Source.Coeff, 1
TestParameter, Measurement.WaitTime.Source.Offset, 0
TestParameter, Measurement.WaitTime.Monitor.Coeff, 1
TestParameter, Measurement.WaitTime.Monitor.Offset, 0
TestParameter, Output.Graph.Enabled, true
TestParameter, Output.Graph.AutoScaling, false
TestParameter, Output.Graph.XAxis.Data, VGS
TestParameter, Output.Graph.XAxis.Scale, Linear
TestParameter, Output.Graph.XAxis.Left, -5.4
TestParameter, Output.Graph.XAxis.Right, 12.6
TestParameter, Output.Graph.XAxis.RunTimeAutoScale, false
TestParameter, Output.Graph.YAxis.Data, ID
TestParameter, Output.Graph.YAxis.Scale, Linear
TestParameter, Output.Graph.YAxis.Bottom, 0
TestParameter, Output.Graph.YAxis.Top, 10
TestParameter, Output.Graph.YAxis.Group, 
TestParameter, Output.Graph.YAxis.RunTimeAutoScale, false
TestParameter, Output.List.Data, VGS, ID
TestParameter, AutoAnalysis.Interpolation, false
TestParameter, AutoAnalysis.Line1.Enabled, false
TestParameter, AutoAnalysis.Line1.Type, 1
TestParameter, AutoAnalysis.Line1.Fix, True
TestParameter, AutoAnalysis.Line1.YAxis, 0
TestParameter, AutoAnalysis.Line1.Point1.Type, 0
TestParameter, AutoAnalysis.Line1.Point1.XY.X, 
TestParameter, AutoAnalysis.Line1.Point1.XY.Y, 
TestParameter, AutoAnalysis.Line1.Point1.Data.Var, 
TestParameter, AutoAnalysis.Line1.Point1.Data.Condition, 
TestParameter, AutoAnalysis.Line1.Point1.Data.Start, false
TestParameter, AutoAnalysis.Line1.Point1.Data.StartVar, 
TestParameter, AutoAnalysis.Line1.Point1.Data.StartCondition, 
TestParameter, AutoAnalysis.Line1.Point2.Type, 0
TestParameter, AutoAnalysis.Line1.Point2.XY.X, 
TestParameter, AutoAnalysis.Line1.Point2.XY.Y, 
TestParameter, AutoAnalysis.Line1.Point2.Data.Var, 
TestParameter, AutoAnalysis.Line1.Point2.Data.Condition, 
TestParameter, AutoAnalysis.Line1.Point2.Data.Start, false
TestParameter, AutoAnalysis.Line1.Point2.Data.StartVar, 
TestParameter, AutoAnalysis.Line1.Point2.Data.StartCondition, 
TestParameter, AutoAnalysis.Line1.GradientExpr, 0
TestParameter, AutoAnalysis.Line2.Enabled, false
TestParameter, AutoAnalysis.Line2.Type, 1
TestParameter, AutoAnalysis.Line2.Fix, True
TestParameter, AutoAnalysis.Line2.YAxis, 0
TestParameter, AutoAnalysis.Line2.Point1.Type, 0
TestParameter, AutoAnalysis.Line2.Point1.XY.X, 
TestParameter, AutoAnalysis.Line2.Point1.XY.Y, 
TestParameter, AutoAnalysis.Line2.Point1.Data.Var, 
TestParameter, AutoAnalysis.Line2.Point1.Data.Condition, 
TestParameter, AutoAnalysis.Line2.Point1.Data.Start, false
TestParameter, AutoAnalysis.Line2.Point1.Data.StartVar, 
TestParameter, AutoAnalysis.Line2.Point1.Data.StartCondition, 
TestParameter, AutoAnalysis.Line2.Point2.Type, 0
TestParameter, AutoAnalysis.Line2.Point2.XY.X, 
TestParameter, AutoAnalysis.Line2.Point2.XY.Y, 
TestParameter, AutoAnalysis.Line2.Point2.Data.Var, 
TestParameter, AutoAnalysis.Line2.Point2.Data.Condition, 
TestParameter, AutoAnalysis.Line2.Point2.Data.Start, false
TestParameter, AutoAnalysis.Line2.Point2.Data.StartVar, 
TestParameter, AutoAnalysis.Line2.Point2.Data.StartCondition, 
TestParameter, AutoAnalysis.Line2.GradientExpr, 0
TestParameter, AutoAnalysis.Marker.Enabled, false
TestParameter, AutoAnalysis.Marker.Data.Var, 
TestParameter, AutoAnalysis.Marker.Data.Condition, 
TestParameter, AutoAnalysis.Marker.Data.Start, false
TestParameter, AutoAnalysis.Marker.Data.StartVar, 
TestParameter, AutoAnalysis.Marker.Data.StartCondition, 
MetaData, TestRecord.EntryPoint, true
MetaData, TestRecord.RecordTime, 04/19/2021 15:26:57
MetaData, TestRecord.TestTarget, 
MetaData, TestRecord.IterationIndex, 1
MetaData, TestRecord.Preservation, true
MetaData, TestRecord.Flag, 
MetaData, TestRecord.Remarks, 
MetaData, TestRecord.LinkKey, d4d7760c-ecee-4e13-bc83-b1da6bfdd611
Dimension1, 2001, 2001
Dimension2, 1, 1
DataName, VGS, ID
DataValue, -0.00014000000000000002, -0.034
DataValue, 0.00476, -0.0115
DataValue, 0.0098400000000000015, -0.048
DataValue, 0.015360000000000002, 0.001
DataValue, 0.020220000000000002, -0.0195
DataValue, 0.02542, -0.016
DataValue, 0.029540000000000004, -0.026000000000000002
DataValue, 0.03522, -0.0185
DataValue, 0.040240000000000005, -0.0405
DataValue, 0.045200000000000004, -0.015
DataValue, 0.050620000000000005, -0.042
DataValue, 0.055000000000000007, -0.0105
DataValue, 0.059280000000000006, -0.035
DataValue, 0.06474, -0.0145
DataValue, 0.06998, -0.0375
DataValue, 0.07484, -0.008
DataValue, 0.079900000000000013, -0.047
DataValue, 0.085160000000000013, -0.017
DataValue, 0.089600000000000013, -0.0465
DataValue, 0.09532, -0.0185
DataValue, 0.09908, -0.031
DataValue, 0.10522000000000001, -0.0085
DataValue, 0.11008000000000001, -0.0305
DataValue, 0.11486, -0.014
DataValue, 0.12042000000000001, -0.035
DataValue, 0.12516000000000002, -0.029500000000000002
DataValue, 0.13004000000000002, -0.019
DataValue, 0.135, -0.0075
DataValue, 0.14070000000000002, -0.017
DataValue, 0.14512, -0.028
DataValue, 0.14980000000000002, -0.0235
DataValue, 0.15598, -0.032
DataValue, 0.16026, -0.026000000000000002
DataValue, 0.1647, -0.046
DataValue, 0.17044, -0.023
DataValue, 0.1753, -0.0425
DataValue, 0.17974, -0.011
DataValue, 0.18524000000000002, -0.031
DataValue, 0.18982000000000002, -0.013000000000000001
DataValue, 0.19504000000000002, -0.039
DataValue, 0.19992000000000001, -0.023
DataValue, 0.20476000000000003, -0.0285
DataValue, 0.20978000000000002, -0.013000000000000001
DataValue, 0.21514000000000003, -0.035500000000000004
DataValue, 0.22024000000000002, -0.0305
DataValue, 0.22464, -0.028
DataValue, 0.23006000000000001, -0.043500000000000004
DataValue, 0.23484000000000002, -0.0035
DataValue, 0.23950000000000002, -0.0455
DataValue, 0.24486000000000002, -0.03
DataValue, 0.25012, -0.046
DataValue, 0.25546, -0.0225
DataValue, 0.25970000000000004, -0.029
DataValue, 0.26452000000000003, -0.0090000000000000011
DataValue, 0.26994, -0.028
DataValue, 0.27486000000000005, -0.022
DataValue, 0.27980000000000005, -0.0185
DataValue, 0.28496000000000005, -0.041
DataValue, 0.28968000000000005, -0.008
DataValue, 0.29426, -0.0335
DataValue, 0.2997, -0.025
DataValue, 0.30516000000000004, -0.025500000000000002
DataValue, 0.3103, -0.0205
DataValue, 0.31462, -0.025500000000000002
DataValue, 0.32036000000000003, -0.0495
DataValue, 0.3244, -0.0135
DataValue, 0.3299, -0.0415
DataValue, 0.33556, -0.01
DataValue, 0.34032, -0.0345
DataValue, 0.34434000000000003, -0.0145
DataValue, 0.34984000000000004, -0.013000000000000001
DataValue, 0.35552, -0.0185
DataValue, 0.35978000000000004, -0.0135
DataValue, 0.36552, -0.0305
DataValue, 0.37050000000000005, 0.004
DataValue, 0.37462, -0.0385
DataValue, 0.37994000000000006, -0.021
DataValue, 0.38466000000000006, -0.04
DataValue, 0.39024000000000003, -0.0235
DataValue, 0.39498000000000005, -0.012
DataValue, 0.40026000000000006, -0.0375
DataValue, 0.40518000000000004, -0.0135
DataValue, 0.41012000000000004, -0.025
DataValue, 0.41558000000000006, -0.0005
DataValue, 0.42044000000000004, -0.0415
DataValue, 0.42548, -0.017
DataValue, 0.42996, -0.026000000000000002
DataValue, 0.43486, -0.016
DataValue, 0.44120000000000004, -0.02
DataValue, 0.44562, -0.047
DataValue, 0.44966000000000006, -0.031
DataValue, 0.45468000000000003, -0.036000000000000004
DataValue, 0.45938, -0.013000000000000001
DataValue, 0.46482, -0.0485
DataValue, 0.47052000000000005, -0.023
DataValue, 0.47514000000000006, -0.0385
DataValue, 0.48014000000000007, -0.015
DataValue, 0.48514, -0.027
DataValue, 0.48996000000000006, -0.0425
DataValue, 0.49534000000000006, -0.0225
DataValue, 0.50026, -0.025
DataValue, 0.50544, -0.0235
DataValue, 0.50936, -0.0415
DataValue, 0.51484000000000008, -0.012
DataValue, 0.51944, -0.0125
DataValue, 0.52544, -0.046
DataValue, 0.53014000000000006, -0.023
DataValue, 0.53554, -0.019
DataValue, 0.54008, -0.024
DataValue, 0.54518, -0.032
DataValue, 0.5502, -0.017
DataValue, 0.55524000000000007, -0.0275
DataValue, 0.55954, -0.037
DataValue, 0.5653, -0.0105
DataValue, 0.5697000000000001, -0.0475
DataValue, 0.57572, -0.021
DataValue, 0.58000000000000007, -0.037
DataValue, 0.58532000000000006, -0.029500000000000002
DataValue, 0.5902400000000001, -0.026000000000000002
DataValue, 0.5953, -0.045
DataValue, 0.60106, -0.0205
DataValue, 0.60542000000000007, -0.049
DataValue, 0.60932000000000008, -0.0065000000000000006
DataValue, 0.61440000000000006, -0.04
DataValue, 0.62040000000000006, -0.0195
DataValue, 0.62538, -0.033
DataValue, 0.62936, -0.0315
DataValue, 0.6349800000000001, -0.021
DataValue, 0.64014, -0.0365
DataValue, 0.6451, -0.019
DataValue, 0.65018000000000009, -0.033
DataValue, 0.65458, -0.025
DataValue, 0.65972000000000008, -0.017
DataValue, 0.66464, -0.0465
DataValue, 0.6702, -0.0205
DataValue, 0.67546000000000006, -0.0335
DataValue, 0.6799400000000001, -0.017
DataValue, 0.68528000000000011, -0.047
DataValue, 0.68992000000000009, -0.0185
DataValue, 0.69512000000000007, -0.043000000000000003
DataValue, 0.7003, -0.0205
DataValue, 0.70508, -0.0365
DataValue, 0.70992000000000011, -0.03
DataValue, 0.7144600000000001, -0.028
DataValue, 0.71986, -0.033
DataValue, 0.72480000000000011, -0.0235
DataValue, 0.73046000000000011, -0.039
DataValue, 0.73474000000000006, 0
DataValue, 0.74006, -0.043500000000000004
DataValue, 0.74472, -0.0185
DataValue, 0.74936, -0.039
DataValue, 0.75558, -0.0285
DataValue, 0.76014, -0.029
DataValue, 0.76518000000000008, -0.029
DataValue, 0.77016000000000007, -0.021500000000000002
DataValue, 0.77498000000000011, -0.051000000000000004
DataValue, 0.78032, -0.025
DataValue, 0.785, -0.038
DataValue, 0.78982000000000008, -0.0195
DataValue, 0.79448000000000008, -0.031
DataValue, 0.80096000000000012, -0.0365
DataValue, 0.80518000000000012, -0.0175
DataValue, 0.80976, -0.021500000000000002
DataValue, 0.81488, -0.0175
DataValue, 0.82000000000000006, -0.033
DataValue, 0.82518, -0.0045000000000000005
DataValue, 0.82966000000000006, -0.0345
DataValue, 0.83526000000000011, -0.015
DataValue, 0.83990000000000009, -0.043500000000000004
DataValue, 0.84488000000000008, -0.0185
DataValue, 0.85010000000000008, -0.035500000000000004
DataValue, 0.85524000000000011, -0.0195
DataValue, 0.86012000000000011, -0.0155
DataValue, 0.86492, -0.035
DataValue, 0.86976000000000009, -0.01
DataValue, 0.87474000000000007, -0.0315
DataValue, 0.87968, -0.024
DataValue, 0.88404, -0.022
DataValue, 0.89030000000000009, -0.0205
DataValue, 0.89532000000000012, -0.012
DataValue, 0.8998600000000001, -0.0345
DataValue, 0.90458, -0.016
DataValue, 0.90994000000000008, -0.021
DataValue, 0.91524, -0.008
DataValue, 0.91966, -0.0285
DataValue, 0.92484000000000011, -0.0425
DataValue, 0.92940000000000011, -0.0125
DataValue, 0.9348200000000001, -0.034
DataValue, 0.9402, -0.016
DataValue, 0.94452, -0.029
DataValue, 0.9499200000000001, -0.0225
DataValue, 0.95554000000000006, -0.0195
DataValue, 0.95992000000000011, -0.0385
DataValue, 0.96526000000000012, -0.0065000000000000006
DataValue, 0.96982000000000013, -0.039
DataValue, 0.97498000000000007, -0.017
DataValue, 0.97966000000000009, -0.03
DataValue, 0.98510000000000009, -0.025500000000000002
DataValue, 0.98976000000000008, -0.0235
DataValue, 0.99564000000000008, -0.03
DataValue, 1.00078, -0.0195
DataValue, 1.00566, -0.028
DataValue, 1.0099, -0.0265
DataValue, 1.01482, -0.034
DataValue, 1.02058, -0.0125
DataValue, 1.02518, -0.029
DataValue, 1.0301600000000002, -0.031
DataValue, 1.03488, -0.0135
DataValue, 1.0393800000000002, -0.049
DataValue, 1.04496, -0.027
DataValue, 1.04938, -0.0345
DataValue, 1.0548600000000001, -0.0385
DataValue, 1.0603200000000002, -0.039
DataValue, 1.06522, -0.0305
DataValue, 1.0698400000000001, -0.0305
DataValue, 1.07458, -0.0335
DataValue, 1.0800400000000001, -0.014
DataValue, 1.0845200000000002, -0.042
DataValue, 1.0897000000000001, -0.0175
DataValue, 1.09546, -0.036000000000000004
DataValue, 1.09946, -0.0205
DataValue, 1.10512, -0.0405
DataValue, 1.1103, -0.0205
DataValue, 1.11524, -0.0345
DataValue, 1.1201800000000002, -0.0385
DataValue, 1.1251600000000002, -0.0185
DataValue, 1.12976, -0.029500000000000002
DataValue, 1.13524, -0.0105
DataValue, 1.1402, -0.034
DataValue, 1.14548, -0.01
DataValue, 1.14968, -0.0455
DataValue, 1.1545800000000002, -0.034
DataValue, 1.15954, -0.026000000000000002
DataValue, 1.1647200000000002, -0.0245
DataValue, 1.17018, -0.036000000000000004
DataValue, 1.1749200000000002, -0.042
DataValue, 1.17964, -0.021500000000000002
DataValue, 1.18472, -0.043000000000000003
DataValue, 1.1899000000000002, -0.011
DataValue, 1.19486, -0.0345
DataValue, 1.19994, -0.013000000000000001
DataValue, 1.20486, -0.029
DataValue, 1.21014, -0.0205
DataValue, 1.21472, -0.018000000000000002
DataValue, 1.21958, -0.0185
DataValue, 1.22452, -0.019
DataValue, 1.23012, -0.023
DataValue, 1.23506, -0.014
DataValue, 1.2396800000000001, -0.045
DataValue, 1.24522, -0.028
DataValue, 1.25, -0.023
DataValue, 1.2553200000000002, -0.0305
DataValue, 1.26018, -0.025
DataValue, 1.2657, -0.043000000000000003
DataValue, 1.2701200000000001, -0.0155
DataValue, 1.27492, -0.0335
DataValue, 1.28058, -0.0145
DataValue, 1.28492, -0.024
DataValue, 1.2902, -0.018000000000000002
DataValue, 1.29522, -0.037
DataValue, 1.3004600000000002, -0.014
DataValue, 1.30512, -0.043500000000000004
DataValue, 1.3102600000000002, -0.0325
DataValue, 1.3144600000000002, -0.032
DataValue, 1.31986, -0.034
DataValue, 1.3256800000000002, -0.013000000000000001
DataValue, 1.3300800000000002, -0.036000000000000004
DataValue, 1.33528, -0.0185
DataValue, 1.3404600000000002, -0.0425
DataValue, 1.3449600000000002, -0.0125
DataValue, 1.3500400000000001, -0.033
DataValue, 1.3544800000000001, -0.0315
DataValue, 1.3603, -0.0195
DataValue, 1.3654600000000001, -0.025
DataValue, 1.3703, -0.0085
DataValue, 1.3753600000000001, -0.0315
DataValue, 1.3795400000000002, -0.014
DataValue, 1.38508, -0.0315
DataValue, 1.3898000000000002, -0.0205
DataValue, 1.3945200000000002, -0.028
DataValue, 1.3994600000000002, -0.029
DataValue, 1.4049600000000002, -0.0265
DataValue, 1.4096000000000002, -0.025500000000000002
DataValue, 1.41514, -0.0115
DataValue, 1.4197000000000002, -0.032
DataValue, 1.425, -0.0385
DataValue, 1.43022, -0.018000000000000002
DataValue, 1.4352800000000001, -0.0275
DataValue, 1.4401000000000002, -0.0165
DataValue, 1.4441400000000002, -0.0375
DataValue, 1.4501400000000002, -0.0065000000000000006
DataValue, 1.4550200000000002, -0.0315
DataValue, 1.45992, -0.007
DataValue, 1.4640000000000002, -0.016
DataValue, 1.47086, -0.036000000000000004
DataValue, 1.47524, 0.002
DataValue, 1.48046, -0.032
DataValue, 1.48476, -0.0075
DataValue, 1.49008, -0.042
DataValue, 1.4953, -0.0095
DataValue, 1.49954, -0.042
DataValue, 1.5047000000000002, -0.025500000000000002
DataValue, 1.5097600000000002, -0.012
DataValue, 1.51502, -0.038
DataValue, 1.5202000000000002, -0.0265
DataValue, 1.5249000000000001, -0.034
DataValue, 1.53044, -0.0015
DataValue, 1.53448, -0.033
DataValue, 1.5399200000000002, -0.0155
DataValue, 1.5450400000000002, -0.008
DataValue, 1.5496400000000001, -0.023
DataValue, 1.5548400000000002, -0.0235
DataValue, 1.56024, -0.035500000000000004
DataValue, 1.56472, -0.016
DataValue, 1.5700600000000002, -0.0395
DataValue, 1.5753000000000001, -0.012
DataValue, 1.5798400000000001, -0.0395
DataValue, 1.5849600000000002, -0.027
DataValue, 1.5899400000000001, -0.0195
DataValue, 1.5954000000000002, -0.039
DataValue, 1.60006, -0.0175
DataValue, 1.6056000000000001, -0.0445
DataValue, 1.6100200000000002, -0.0225
DataValue, 1.6142800000000002, -0.0285
DataValue, 1.62006, -0.0135
DataValue, 1.62484, -0.0225
DataValue, 1.6297400000000002, -0.025
DataValue, 1.63542, -0.0175
DataValue, 1.6402800000000002, -0.042
DataValue, 1.6454600000000001, -0.0265
DataValue, 1.64938, -0.0235
DataValue, 1.6554200000000001, -0.0335
DataValue, 1.6594000000000002, -0.037
DataValue, 1.66514, -0.036000000000000004
DataValue, 1.67026, -0.0135
DataValue, 1.67504, -0.0345
DataValue, 1.6800000000000002, -0.0175
DataValue, 1.6846800000000002, -0.0205
DataValue, 1.68948, -0.02
DataValue, 1.6948, -0.0245
DataValue, 1.7006200000000002, -0.0485
DataValue, 1.7051200000000002, -0.0145
DataValue, 1.70992, -0.0415
DataValue, 1.7151, -0.01
DataValue, 1.71998, -0.029500000000000002
DataValue, 1.7251400000000001, -0.013000000000000001
DataValue, 1.73018, -0.027
DataValue, 1.7347800000000002, -0.0325
DataValue, 1.7392400000000001, -0.005
DataValue, 1.7448400000000002, -0.033
DataValue, 1.7503600000000001, -0.0175
DataValue, 1.7546400000000002, -0.043000000000000003
DataValue, 1.7598000000000003, -0.0395
DataValue, 1.7647000000000002, -0.0195
DataValue, 1.7700200000000002, -0.026000000000000002
DataValue, 1.7749800000000002, -0.0105
DataValue, 1.7799, -0.036000000000000004
DataValue, 1.78458, -0.016
DataValue, 1.7897, -0.035
DataValue, 1.79512, -0.0145
DataValue, 1.80004, -0.0405
DataValue, 1.80506, -0.022
DataValue, 1.8104000000000002, -0.0185
DataValue, 1.8150000000000002, -0.0315
DataValue, 1.8201, -0.012
DataValue, 1.8246600000000002, -0.035
DataValue, 1.8302, -0.0065000000000000006
DataValue, 1.83542, -0.0275
DataValue, 1.8395800000000002, -0.011
DataValue, 1.84508, -0.0365
DataValue, 1.8501600000000003, -0.01
DataValue, 1.8555000000000002, -0.019
DataValue, 1.8600200000000002, -0.0135
DataValue, 1.8653400000000002, -0.0065000000000000006
DataValue, 1.8709600000000002, -0.019
DataValue, 1.8750600000000002, 0.0045000000000000005
DataValue, 1.8795000000000002, -0.049
