
SetupTitle, ID-VDS-3rd
PrimitiveTest, Multi Channel I/V Sweep
TestParameter, Channel.UnitType, SMU, SMU
TestParameter, Channel.Unit, SMU2:MC, SMU3:UHC500
TestParameter, Channel.IName, IG, ID
TestParameter, Channel.VName, VGS, VDS
TestParameter, Channel.Mode, VPULSE, VPULSE
TestParameter, Channel.Func, VAR2, VAR1
TestParameter, Channel.Index, 
TestParameter, Channel.Time, 
TestParameter, Measurement.Port.Unit, SMU2:MC, SMU3:UHC500
TestParameter, Measurement.Port.SeriesResistor, NONE, NONE
TestParameter, Measurement.Port.Filter, OFF, OFF
TestParameter, Measurement.Port.OutputVoltageComparison, 0, 0
TestParameter, Measurement.Primary.Start, -5
TestParameter, Measurement.Primary.Stop, 0
TestParameter, Measurement.Primary.Compliance, 2
TestParameter, Measurement.Primary.PowerCompliance, 0
TestParameter, Measurement.Primary.Locus, Single
TestParameter, Measurement.Primary.Scale, LINEAR
TestParameter, Measurement.Primary.Count, 21
TestParameter, Measurement.Aborting.Condition, CONTINUE AT ANY
TestParameter, Measurement.PostOutput.Value, START
TestParameter, Measurement.PostOutput.Retention, OFF
TestParameter, Measurement.Secondary.Start, 15.000000000000002
TestParameter, Measurement.Secondary.Count, 5
TestParameter, Measurement.Secondary.Step, 1.25
TestParameter, Measurement.Secondary.Compliance, 0.099999999999999992
TestParameter, Measurement.Secondary.PowerCompliance, 0
TestParameter, Measurement.Bias.Source, 0, 0
TestParameter, Measurement.Bias.Compliance, 0.099999999999999992, 0
TestParameter, Measurement.Pulse.Delay, 0, 9.9999999999999991E-05
TestParameter, Measurement.Pulse.Duration, 0.001, 0.00019999999999999998
TestParameter, Measurement.Pulse.Base, 0, 0
TestParameter, Measurement.Pulse.Period, 0
TestParameter, Measurement.Pulse.MeasurementDelay, 0
TestParameter, Measurement.Pulse.AveragingCount, 1
TestParameter, Measurement.Monitor.Unit, SMU2:MC, SMU3:UHC500
TestParameter, Measurement.Monitor.Adc, HS ADC, HS ADC
TestParameter, Measurement.Monitor.Measurement, Force and Compliance Sides, Force and Compliance Sides
TestParameter, Measurement.Timing.Hold, 0
TestParameter, Measurement.Timing.Delay, 0
TestParameter, Measurement.Adc.HighSpeed.Mode, TIME
TestParameter, Measurement.Adc.HighSpeed.Coeff, 9.9999999999999991E-06
TestParameter, Measurement.Adc.HighResolution.AutoZero, OFF
TestParameter, Measurement.Adc.HighResolution.Mode, AUTO
TestParameter, Measurement.Adc.HighResolution.Coeff, 6
TestParameter, Measurement.WaitTime.Source.Coeff, 1
TestParameter, Measurement.WaitTime.Source.Offset, 0
TestParameter, Measurement.WaitTime.Monitor.Coeff, 1
TestParameter, Measurement.WaitTime.Monitor.Offset, 0
TestParameter, Output.Graph.Enabled, true
TestParameter, Output.Graph.AutoScaling, false
TestParameter, Output.Graph.XAxis.Data, VDS
TestParameter, Output.Graph.XAxis.Scale, Linear
TestParameter, Output.Graph.XAxis.Left, -4.8
TestParameter, Output.Graph.XAxis.Right, 1.2
TestParameter, Output.Graph.XAxis.RunTimeAutoScale, false
TestParameter, Output.Graph.YAxis.Data, ID
TestParameter, Output.Graph.YAxis.Scale, Linear
TestParameter, Output.Graph.YAxis.Bottom, -15
TestParameter, Output.Graph.YAxis.Top, 1
TestParameter, Output.Graph.YAxis.Group, 
TestParameter, Output.Graph.YAxis.RunTimeAutoScale, false
TestParameter, Output.List.Data, VDS, ID
TestParameter, AutoAnalysis.Interpolation, false
TestParameter, AutoAnalysis.Line1.Enabled, false
TestParameter, AutoAnalysis.Line1.Type, 1
TestParameter, AutoAnalysis.Line1.Fix, True
TestParameter, AutoAnalysis.Line1.YAxis, 0
TestParameter, AutoAnalysis.Line1.Point1.Type, 0
TestParameter, AutoAnalysis.Line1.Point1.XY.X, 
TestParameter, AutoAnalysis.Line1.Point1.XY.Y, 
TestParameter, AutoAnalysis.Line1.Point1.Data.Var, 
TestParameter, AutoAnalysis.Line1.Point1.Data.Condition, 
TestParameter, AutoAnalysis.Line1.Point1.Data.Start, false
TestParameter, AutoAnalysis.Line1.Point1.Data.StartVar, 
TestParameter, AutoAnalysis.Line1.Point1.Data.StartCondition, 
TestParameter, AutoAnalysis.Line1.Point2.Type, 0
TestParameter, AutoAnalysis.Line1.Point2.XY.X, 
TestParameter, AutoAnalysis.Line1.Point2.XY.Y, 
TestParameter, AutoAnalysis.Line1.Point2.Data.Var, 
TestParameter, AutoAnalysis.Line1.Point2.Data.Condition, 
TestParameter, AutoAnalysis.Line1.Point2.Data.Start, false
TestParameter, AutoAnalysis.Line1.Point2.Data.StartVar, 
TestParameter, AutoAnalysis.Line1.Point2.Data.StartCondition, 
TestParameter, AutoAnalysis.Line1.GradientExpr, 0
TestParameter, AutoAnalysis.Line2.Enabled, false
TestParameter, AutoAnalysis.Line2.Type, 1
TestParameter, AutoAnalysis.Line2.Fix, True
TestParameter, AutoAnalysis.Line2.YAxis, 0
TestParameter, AutoAnalysis.Line2.Point1.Type, 0
TestParameter, AutoAnalysis.Line2.Point1.XY.X, 
TestParameter, AutoAnalysis.Line2.Point1.XY.Y, 
TestParameter, AutoAnalysis.Line2.Point1.Data.Var, 
TestParameter, AutoAnalysis.Line2.Point1.Data.Condition, 
TestParameter, AutoAnalysis.Line2.Point1.Data.Start, false
TestParameter, AutoAnalysis.Line2.Point1.Data.StartVar, 
TestParameter, AutoAnalysis.Line2.Point1.Data.StartCondition, 
TestParameter, AutoAnalysis.Line2.Point2.Type, 0
TestParameter, AutoAnalysis.Line2.Point2.XY.X, 
TestParameter, AutoAnalysis.Line2.Point2.XY.Y, 
TestParameter, AutoAnalysis.Line2.Point2.Data.Var, 
TestParameter, AutoAnalysis.Line2.Point2.Data.Condition, 
TestParameter, AutoAnalysis.Line2.Point2.Data.Start, false
TestParameter, AutoAnalysis.Line2.Point2.Data.StartVar, 
TestParameter, AutoAnalysis.Line2.Point2.Data.StartCondition, 
TestParameter, AutoAnalysis.Line2.GradientExpr, 0
TestParameter, AutoAnalysis.Marker.Enabled, false
TestParameter, AutoAnalysis.Marker.Data.Var, 
TestParameter, AutoAnalysis.Marker.Data.Condition, 
TestParameter, AutoAnalysis.Marker.Data.Start, false
TestParameter, AutoAnalysis.Marker.Data.StartVar, 
TestParameter, AutoAnalysis.Marker.Data.StartCondition, 
MetaData, TestRecord.EntryPoint, true
MetaData, TestRecord.RecordTime, 04/19/2021 15:29:15
MetaData, TestRecord.TestTarget, 
MetaData, TestRecord.IterationIndex, 1
MetaData, TestRecord.Preservation, true
MetaData, TestRecord.Flag, 
MetaData, TestRecord.Remarks, 
MetaData, TestRecord.LinkKey, 23d31519-ea84-49eb-99b1-df91f5ba695e
Dimension1, 21, 21
Dimension2, 5, 5
DataName, ID, VDS
DataValue, -16.976, -0.6528
DataValue, -16.166, -0.6241
DataValue, -15.320500000000001, -0.59200000000000008
DataValue, -14.4715, -0.5596
DataValue, -13.624, -0.5273
DataValue, -12.7835, -0.49570000000000003
DataValue, -11.932500000000001, -0.46330000000000005
DataValue, -11.082, -0.4328
DataValue, -10.2255, -0.3977
DataValue, -9.3855, -0.3657
DataValue, -8.536, -0.333
DataValue, -7.6885, -0.301
DataValue, -6.798, -0.268
DataValue, -5.9385, -0.2335
DataValue, -5.1075, -0.2026
DataValue, -4.2665, -0.1673
DataValue, -3.4165, -0.1342
DataValue, -2.5425, -0.099700000000000011
DataValue, -1.698, -0.0658
DataValue, -0.8295, -0.0334
DataValue, 0.0265, 0.0001
DataValue, -17.129, -0.6259
DataValue, -16.286, -0.5948
DataValue, -15.42, -0.5644
DataValue, -14.5805, -0.5341
DataValue, -13.7325, -0.5023
DataValue, -12.8595, -0.4716
DataValue, -12.0355, -0.4414
DataValue, -11.1845, -0.4106
DataValue, -10.328, -0.37820000000000004
DataValue, -9.448500000000001, -0.3478
DataValue, -8.599, -0.31770000000000004
DataValue, -7.7465, -0.2856
DataValue, -6.8950000000000005, -0.25520000000000004
DataValue, -6.001, -0.2223
DataValue, -5.1315, -0.19140000000000002
DataValue, -4.2935, -0.1593
DataValue, -3.4435000000000002, -0.12890000000000002
DataValue, -2.5685000000000002, -0.0956
DataValue, -1.6915, -0.0625
DataValue, -0.8235, -0.0303
DataValue, 0.014, 0.001
DataValue, -17.2185, -0.6005
DataValue, -16.397000000000002, -0.5701
DataValue, -15.539, -0.5425
DataValue, -14.658, -0.5127
DataValue, -13.8335, -0.48350000000000004
DataValue, -12.965, -0.4524
DataValue, -12.102500000000001, -0.4243
DataValue, -11.254, -0.3947
DataValue, -10.3825, -0.36210000000000003
DataValue, -9.5035, -0.3336
DataValue, -8.6685, -0.30560000000000004
DataValue, -7.7875000000000005, -0.2731
DataValue, -6.9135, -0.24400000000000002
DataValue, -6.0495, -0.21400000000000002
DataValue, -5.1985, -0.1837
DataValue, -4.331, -0.1527
DataValue, -3.4315, -0.12090000000000001
DataValue, -2.572, -0.0902
DataValue, -1.7035, -0.061000000000000006
DataValue, -0.883, -0.029500000000000002
DataValue, 0.0455, 0.0023
DataValue, -17.2915, -0.57900000000000007
DataValue, -16.457, -0.5513
DataValue, -15.5875, -0.5242
DataValue, -14.737, -0.4963
DataValue, -13.8885, -0.4662
DataValue, -13.0305, -0.439
DataValue, -12.187, -0.4092
DataValue, -11.315, -0.3793
DataValue, -10.4335, -0.3507
DataValue, -9.558, -0.3214
DataValue, -8.698500000000001, -0.2936
DataValue, -7.845, -0.2639
DataValue, -6.936, -0.2361
DataValue, -6.0945, -0.2054
DataValue, -5.2255, -0.17600000000000002
DataValue, -4.3545, -0.1472
DataValue, -3.471, -0.11560000000000001
DataValue, -2.5865, -0.0884
DataValue, -1.7185000000000001, -0.0565
DataValue, -0.8575, -0.0284
DataValue, 0.014, 0.002
DataValue, -17.378, -0.5651
DataValue, -16.5085, -0.5379
DataValue, -15.66, -0.5076
DataValue, -14.8095, -0.48090000000000005
DataValue, -13.927, -0.4539
DataValue, -13.077, -0.4253
DataValue, -12.2295, -0.39790000000000003
DataValue, -11.344, -0.3683
DataValue, -10.465, -0.3427
DataValue, -9.623, -0.3133
DataValue, -8.738, -0.2842
DataValue, -7.848, -0.2581
DataValue, -6.9910000000000005, -0.22870000000000001
DataValue, -6.122, -0.20020000000000002
DataValue, -5.2315000000000005, -0.1713
DataValue, -4.34, -0.1431
DataValue, -3.4785, -0.1144
DataValue, -2.6075, -0.084600000000000009
DataValue, -1.735, -0.0553
DataValue, -0.848, -0.0269
DataValue, 0.0415, 0.0019