
SetupTitle, Rds-Id
ApplicationTest, Rds-Id, Public
TestParameter, Name, Memo, Scale, HoldTime, PulseBase, PulseAvgCnt, Gate, VgStart, VgStop, VgStep, IgLimit, Source, MeasurementTime, Drain, IdStart, IdStop, IdLinearStep, VdLimit, VdStop, PulsePeriodMode, ManualPulsePeriod, PulseWidth
TestParameter, Value, , LINEAR, 0, 0, 1, SMU2:MC	MCSMU, 15, 5, 1, 0.1, GNDU:GND	GNDU, 1E-05, SMU3:UHC500	UHCU500A, 0.5, 30, 0.2, 2, 0, 0, 0.05, 0.0002
DutParameter, Name, Polarity, Temp, YAxisRdsMin, YAxisRdsMax
DutParameter, Value, 1, 25, 0.001, 1
MetaData, TestRecord.EntryPoint, true
MetaData, TestRecord.RecordTime, 04/19/2021 15:25:41
MetaData, TestRecord.TestTarget, 
MetaData, TestRecord.IterationIndex, 1
MetaData, TestRecord.Preservation, true
MetaData, TestRecord.Flag, 
MetaData, TestRecord.Remarks, 
MetaData, TestRecord.LinkKey, 9fefd437-daeb-44aa-b92b-9ac34c1450aa
Dimension1, 148, 148, 148, 148, 148, 148
Dimension2, 11, 11, 11, 11, 11, 11
DataName, Igate, Vgate, Vdrain, Idrain, Ta, Rds
DataValue, -1.8000000000000001E-06, 14.99956, 0.0055000000000000005, 0.109, 25, 0.050458715596330278
DataValue, 1.1E-06, 15.000300000000001, 0.012700000000000001, 0.27, 25, 0.047037037037037037
DataValue, -1.0000000000000001E-07, 14.999920000000001, 0.023, 0.50050000000000006, 25, 0.045954045954045945
DataValue, -4.0000000000000003E-07, 14.998940000000001, 0.0334, 0.725, 25, 0.046068965517241378
DataValue, -1.7000000000000002E-06, 15.000000000000002, 0.039400000000000004, 0.9685, 25, 0.040681466184821893
DataValue, -7.0000000000000007E-07, 14.99998, 0.0489, 1.183, 25, 0.041335587489433639
DataValue, 1.0000000000000002E-06, 15.0004, 0.0604, 1.3645, 25, 0.044265298644192014
DataValue, -4.0000000000000003E-07, 15.00008, 0.067, 1.5965, 25, 0.041966802380206704
DataValue, -1.6000000000000001E-06, 14.999760000000002, 0.0752, 1.82, 25, 0.04131868131868132
DataValue, -2.0000000000000002E-07, 14.999600000000001, 0.0828, 1.9965, 25, 0.041472577009767093
DataValue, -1.1E-06, 15.000240000000002, 0.092, 2.226, 25, 0.041329739442946989
DataValue, -8.0000000000000007E-07, 14.99994, 0.099600000000000008, 2.4235, 25, 0.041097586135754073
DataValue, -1.3E-06, 14.999740000000001, 0.10840000000000001, 2.6215, 25, 0.041350371924470726
DataValue, -7.0000000000000007E-07, 15.0004, 0.1165, 2.841, 25, 0.041006687785990849
DataValue, 1.1E-06, 15.000140000000002, 0.1245, 3.0260000000000002, 25, 0.041143423661599468
DataValue, -2.0000000000000002E-07, 14.999820000000002, 0.13390000000000002, 3.236, 25, 0.041378244746600748
DataValue, 6.0000000000000008E-07, 14.999860000000002, 0.1399, 3.446, 25, 0.0405977945443993
DataValue, 1.4000000000000002E-06, 15.000020000000001, 0.1505, 3.65, 25, 0.041232876712328767
DataValue, -1.4000000000000002E-06, 14.999680000000002, 0.1569, 3.8335, 25, 0.040928655275857574
DataValue, 4.0000000000000003E-07, 14.999880000000001, 0.16540000000000002, 4.042, 25, 0.0409203364670955
DataValue, -1.0000000000000001E-07, 14.99966, 0.1733, 4.2425, 25, 0.040848556275780795
DataValue, 1.7000000000000002E-06, 15.000240000000002, 0.18080000000000002, 4.4485, 25, 0.040642913341575812
DataValue, -6.0000000000000008E-07, 14.999880000000001, 0.18960000000000002, 4.633, 25, 0.040923807468163181
DataValue, -6.0000000000000008E-07, 14.9997, 0.1985, 4.8445, 25, 0.040974300753431732
DataValue, 7.0000000000000007E-07, 15.000100000000002, 0.2058, 5.0405, 25, 0.040829282809245117
DataValue, -5.0000000000000008E-07, 14.99998, 0.2152, 5.2305, 25, 0.041143294140139564
DataValue, 1.9000000000000002E-06, 14.999760000000002, 0.2212, 5.4385, 25, 0.040672979681897578
DataValue, -2.0000000000000002E-07, 14.999760000000002, 0.2295, 5.6025, 25, 0.040963855421686748
DataValue, -8.0000000000000007E-07, 14.99966, 0.2383, 5.8185, 25, 0.040955572742115663
DataValue, -5.0000000000000008E-07, 14.999020000000002, 0.24500000000000002, 5.9825, 25, 0.040952778938570834
DataValue, 1.0000000000000002E-06, 15.00046, 0.2528, 6.166, 25, 0.040999026921829392
DataValue, 0, 15.00022, 0.257, 6.297, 25, 0.040813085596315711
DataValue, -8.0000000000000007E-07, 14.999860000000002, 0.2639, 6.436, 25, 0.041003729024238662
DataValue, 1.4000000000000002E-06, 15.000040000000002, 0.266, 6.5275, 25, 0.040750670241286868
DataValue, 0, 14.999880000000001, 0.2672, 6.5815, 25, 0.040598647724682822
DataValue, -7.0000000000000007E-07, 15.000040000000002, 0.2701, 6.628, 25, 0.040751357875678941
DataValue, -1.8000000000000001E-06, 14.999680000000002, 0.27140000000000003, 6.6545000000000005, 25, 0.040784431587647454
DataValue, 2.7000000000000004E-06, 14.999960000000002, 0.2707, 6.6975, 25, 0.0404180664427025
DataValue, -1.0000000000000002E-06, 14.9997, 0.27190000000000003, 6.6855, 25, 0.040670106947872264
DataValue, 0, 14.99994, 0.271, 6.736, 25, 0.040231591448931119
DataValue, 2.0000000000000002E-07, 15.00026, 0.2715, 6.72, 25, 0.040401785714285716
DataValue, 1.4000000000000002E-06, 14.999860000000002, 0.2717, 6.7475000000000005, 25, 0.0402667654686921
DataValue, 2.0000000000000002E-07, 15.000320000000002, 0.2725, 6.7285, 25, 0.040499368358475146
DataValue, 7.0000000000000007E-07, 14.999960000000002, 0.272, 6.7395000000000005, 25, 0.040359077082869649
DataValue, -1.3E-06, 15.000180000000002, 0.2732, 6.746, 25, 0.040498072932107915
DataValue, -4.0000000000000003E-07, 14.99984, 0.2735, 6.743, 25, 0.0405605813436156
DataValue, -1.1E-06, 14.999580000000002, 0.2725, 6.756, 25, 0.040334517465956191
DataValue, 6.0000000000000008E-07, 15.000320000000002, 0.27290000000000003, 6.7345, 25, 0.04052268171356449
DataValue, -7.0000000000000007E-07, 15.000000000000002, 0.27440000000000003, 6.7525, 25, 0.040636801184746392
DataValue, 3.0000000000000004E-07, 15.000340000000001, 0.2731, 6.739, 25, 0.0405253004896869
DataValue, 1.9000000000000002E-06, 15.000300000000001, 0.272, 6.7575, 25, 0.040251572327044023
DataValue, 5.0000000000000008E-07, 15.0004, 0.2727, 6.7485, 25, 0.040408979773282949
DataValue, -2.9E-06, 14.999680000000002, 0.27290000000000003, 6.7415, 25, 0.040480605206556407
DataValue, -7.0000000000000007E-07, 14.999880000000001, 0.27440000000000003, 6.7475000000000005, 25, 0.040666913671730275
DataValue, -1.3E-06, 15.000060000000001, 0.2735, 6.7465, 25, 0.040539539020232718
DataValue, -1.6000000000000001E-06, 15.000340000000001, 0.2753, 6.7625, 25, 0.040709796672828091
DataValue, -1.4000000000000002E-06, 14.999400000000001, 0.2733, 6.745, 25, 0.040518902891030391
DataValue, 8.0000000000000007E-07, 15.000240000000002, 0.2751, 6.771, 25, 0.040629153743907846
DataValue, 1.3E-06, 15.000520000000002, 0.2738, 6.753, 25, 0.04054494298830149
DataValue, 2.7000000000000004E-06, 15.00022, 0.2733, 6.7485, 25, 0.040497888419648811
DataValue, -1.2000000000000002E-06, 14.99994, 0.2748, 6.7425, 25, 0.040756395995550615
DataValue, 1.0000000000000001E-07, 14.9998, 0.2712, 6.7595, 25, 0.040121310747836376
DataValue, 1.0000000000000002E-06, 15.000000000000002, 0.2737, 6.7540000000000004, 25, 0.040524133846609411
DataValue, 4.0000000000000003E-07, 14.99984, 0.2743, 6.753, 25, 0.040618984155190281
DataValue, -1.6000000000000001E-06, 14.99984, 0.2748, 6.769, 25, 0.0405968385285862
DataValue, -1.0000000000000001E-07, 15.000620000000001, 0.27340000000000003, 6.743, 25, 0.040545751149340059
DataValue, -3.0000000000000004E-07, 14.9997, 0.2721, 6.7575, 25, 0.040266370699223085
DataValue, -1.2000000000000002E-06, 15.000100000000002, 0.2723, 6.759, 25, 0.040287024707797006
DataValue, 7.0000000000000007E-07, 14.999880000000001, 0.2721, 6.737, 25, 0.040388897135223395
DataValue, 6.0000000000000008E-07, 14.999860000000002, 0.274, 6.7525, 25, 0.040577563865235096
DataValue, 1.7000000000000002E-06, 15.000860000000001, 0.2747, 6.766, 25, 0.040600059119125037
DataValue, 1.7000000000000002E-06, 15.000000000000002, 0.274, 6.742, 25, 0.040640759418570163
DataValue, 0, 14.99942, 0.2727, 6.774, 25, 0.04025686448184234
DataValue, 1.8000000000000001E-06, 15.000340000000001, 0.2732, 6.7285, 25, 0.040603403433157464
DataValue, 1.1E-06, 15.000140000000002, 0.2726, 6.747, 25, 0.040403142137246183
DataValue, 2.2E-06, 15.000480000000001, 0.27340000000000003, 6.7655, 25, 0.040410908284679629
DataValue, -5.0000000000000008E-07, 15.000200000000001, 0.2722, 6.731, 25, 0.040439756351210818
DataValue, 1.4000000000000002E-06, 15.000660000000002, 0.2742, 6.78, 25, 0.040442477876106192
DataValue, 1.6000000000000001E-06, 14.999620000000002, 0.2741, 6.7625, 25, 0.04053234750462107
DataValue, 1.0000000000000002E-06, 14.99966, 0.2712, 6.744, 25, 0.0402135231316726
DataValue, 1.1E-06, 14.999260000000001, 0.2735, 6.7505, 25, 0.040515517369083778
DataValue, -4.1000000000000006E-06, 14.999600000000001, 0.2738, 6.7565, 25, 0.040523939909716568
DataValue, -1.0000000000000002E-06, 14.999740000000001, 0.27390000000000003, 6.7385, 25, 0.04064702827038659
DataValue, 6.0000000000000008E-07, 14.99952, 0.27340000000000003, 6.7700000000000005, 25, 0.040384047267355984
DataValue, 4.0000000000000003E-07, 14.999820000000002, 0.2732, 6.7705, 25, 0.040351524998153754
DataValue, 4.0000000000000003E-07, 14.999900000000002, 0.27440000000000003, 6.735, 25, 0.040742390497401637
DataValue, -1.2000000000000002E-06, 14.999480000000002, 0.2738, 6.748, 25, 0.040574985180794304
DataValue, -6.0000000000000008E-07, 15.000060000000001, 0.275, 6.7735, 25, 0.040599394699933566
DataValue, 6.0000000000000008E-07, 14.999100000000002, 0.2738, 6.7625, 25, 0.040487985212569313
DataValue, 1.0000000000000001E-07, 14.999860000000002, 0.273, 6.7515, 25, 0.040435458786936239
DataValue, 4.0000000000000003E-07, 14.999780000000001, 0.2736, 6.771, 25, 0.040407620735489591
DataValue, -2.0000000000000002E-07, 15.000320000000002, 0.2737, 6.764, 25, 0.0404642223536369
DataValue, -3.0000000000000004E-07, 14.999900000000002, 0.27340000000000003, 6.745, 25, 0.040533728687916978
DataValue, 1.9000000000000002E-06, 15.000420000000002, 0.2732, 6.745, 25, 0.04050407709414381
DataValue, 3.0000000000000004E-07, 15.000380000000002, 0.27240000000000003, 6.7785, 25, 0.040185881832263778
DataValue, -2.0000000000000002E-07, 14.99984, 0.2748, 6.7540000000000004, 25, 0.040687000296120816
DataValue, -1.0000000000000002E-06, 15.000200000000001, 0.2731, 6.7695, 25, 0.040342713642071058
DataValue, 5.0000000000000008E-07, 15.00022, 0.2736, 6.7810000000000006, 25, 0.040348031263825392
DataValue, 1.0000000000000002E-06, 15.00078, 0.274, 6.7715000000000005, 25, 0.040463708188732184
DataValue, 2.0000000000000003E-06, 14.999720000000002, 0.2738, 6.753, 25, 0.04054494298830149
DataValue, 1.3E-06, 15.000440000000001, 0.2746, 6.7635000000000005, 25, 0.0406002809196422
DataValue, -3.0000000000000004E-07, 14.99966, 0.274, 6.751, 25, 0.0405865797659606
DataValue, 2.3E-06, 15.000240000000002, 0.2743, 6.7535, 25, 0.04061597690086622
DataValue, 1.0000000000000002E-06, 14.9998, 0.2745, 6.7535, 25, 0.04064559117494633
DataValue, -6.0000000000000008E-07, 15.000060000000001, 0.273, 6.771, 25, 0.040319007532122288
DataValue, -2.0000000000000002E-07, 14.99942, 0.2735, 6.7645, 25, 0.040431665311552963
DataValue, 1.8000000000000001E-06, 15.000060000000001, 0.2745, 6.74, 25, 0.040727002967359052
DataValue, -1.1E-06, 14.9998, 0.27340000000000003, 6.7395000000000005, 25, 0.040566807626678539
DataValue, 5.0000000000000008E-07, 15.000200000000001, 0.27390000000000003, 6.759, 25, 0.040523746116289394
DataValue, -1.0000000000000002E-06, 15.000480000000001, 0.2753, 6.7645, 25, 0.040697760366619852
DataValue, 1.3E-06, 15.000200000000001, 0.2745, 6.7810000000000006, 25, 0.040480755050877448
DataValue, 3.0000000000000004E-07, 15.00026, 0.27440000000000003, 6.7595, 25, 0.040594718544271033
DataValue, -2.0000000000000003E-06, 14.999860000000002, 0.27390000000000003, 6.7525, 25, 0.040562754535357279
DataValue, -7.0000000000000007E-07, 14.9998, 0.2745, 6.7685, 25, 0.040555514515771593
DataValue, 5.0000000000000008E-07, 14.9998, 0.2723, 6.739, 25, 0.040406588514616412
DataValue, 3.0000000000000004E-07, 14.999820000000002, 0.2741, 6.7645, 25, 0.040520363663241923
DataValue, -6.0000000000000008E-07, 15.000180000000002, 0.27340000000000003, 6.7745, 25, 0.040357221935198175
DataValue, 1.0000000000000001E-07, 15.000060000000001, 0.2728, 6.764, 25, 0.040331164991129508
DataValue, 4.0000000000000003E-07, 14.99994, 0.2737, 6.772, 25, 0.040416420555227407
DataValue, 1.0000000000000002E-06, 15.000280000000002, 0.2743, 6.7545, 25, 0.040609963727885112
DataValue, 9.0000000000000007E-07, 15.000420000000002, 0.273, 6.7540000000000004, 25, 0.040420491560556708
DataValue, -1.2000000000000002E-06, 14.999820000000002, 0.2733, 6.761, 25, 0.04042301434699009
DataValue, -2.0000000000000002E-07, 14.999780000000001, 0.27440000000000003, 6.7635000000000005, 25, 0.040570710430989872
DataValue, 4.0000000000000003E-07, 15.000180000000002, 0.2742, 6.776, 25, 0.040466351829988194
DataValue, 1.0000000000000001E-07, 14.99984, 0.27440000000000003, 6.7605, 25, 0.0405887138525257
DataValue, 1.3E-06, 14.999600000000001, 0.2753, 6.758, 25, 0.040736904409588631
DataValue, -1.1E-06, 15.000000000000002, 0.2732, 6.7545, 25, 0.040447109334517728
DataValue, 1.6000000000000001E-06, 15.00036, 0.2732, 6.7645, 25, 0.040387316135708479
DataValue, -1.5E-06, 15.000060000000001, 0.2751, 6.7525, 25, 0.040740466493891153
DataValue, -1.1E-06, 14.999260000000001, 0.2725, 6.7415, 25, 0.04042127123043833
DataValue, 1.3E-06, 15.00008, 0.275, 6.7575, 25, 0.040695523492415835
DataValue, -5.0000000000000008E-07, 15.00012, 0.27440000000000003, 6.7505, 25, 0.040648840826605442
DataValue, 2.0000000000000002E-07, 14.999760000000002, 0.2735, 6.759, 25, 0.0404645657641663
DataValue, 1.2000000000000002E-06, 15.000160000000001, 0.2755, 6.7795000000000005, 25, 0.040637215133859428
DataValue, -3.0000000000000004E-07, 15.00022, 0.2718, 6.7505, 25, 0.04026368417154285
DataValue, 1.0000000000000002E-06, 14.999580000000002, 0.2756, 6.7605, 25, 0.0407662155166038
DataValue, -1.5E-06, 14.99998, 0.2735, 6.761, 25, 0.040452595769856534
DataValue, -2.0000000000000002E-07, 14.999780000000001, 0.27190000000000003, 6.7535, 25, 0.040260605611904941
DataValue, -1.5E-06, 14.999680000000002, 0.2713, 6.7525, 25, 0.040177711958533875
DataValue, -1.3E-06, 15.00008, 0.2733, 6.768, 25, 0.040381205673758865
DataValue, 3.0000000000000004E-07, 14.99952, 0.2735, 6.7665, 25, 0.04041971477129979
DataValue, 8.0000000000000007E-07, 15.000140000000002, 0.2736, 6.7565, 25, 0.04049433878487383
DataValue, 3.0000000000000004E-07, 15.000380000000002, 0.273, 6.761, 25, 0.040378642212690434
DataValue, -2.0000000000000002E-07, 15.00022, 0.2736, 6.742, 25, 0.040581429842776628
DataValue, -5.0000000000000008E-07, 14.999300000000002, 0.27390000000000003, 6.7735, 25, 0.040436997121133834
DataValue, 3.0000000000000004E-07, 14.999880000000001, 0.2748, 6.7570000000000006, 25, 0.040668935918306934
DataValue, -8.0000000000000007E-07, 15.00026, 0.27390000000000003, 6.782, 25, 0.040386316720731355
DataValue, -1.2000000000000002E-06, 14.999500000000001, 0.2741, 6.7700000000000005, 25, 0.040487444608567208
DataValue, -7.0000000000000007E-07, 14.00012, 0.0051, 0.1085, 25, 0.047004608294930882
DataValue, 0, 13.999360000000001, 0.0131, 0.3115, 25, 0.0420545746388443
DataValue, -1.4000000000000002E-06, 13.999460000000001, 0.0224, 0.51, 25, 0.043921568627450981
DataValue, 1.1E-06, 13.999860000000002, 0.0335, 0.7385, 25, 0.045362220717670952
DataValue, -8.0000000000000007E-07, 13.9997, 0.0422, 0.9635, 25, 0.043798650752464974
DataValue, -2.9E-06, 13.999740000000001, 0.053500000000000006, 1.174, 25, 0.045570698466780246
DataValue, -2.7000000000000004E-06, 14.000240000000002, 0.0627, 1.3875, 25, 0.0451891891891892
DataValue, 1.1E-06, 13.9998, 0.0714, 1.587, 25, 0.044990548204158792
DataValue, 9.0000000000000007E-07, 13.999620000000002, 0.0804, 1.7955, 25, 0.044778613199665827
DataValue, 7.0000000000000007E-07, 13.99998, 0.087500000000000008, 1.99, 25, 0.043969849246231159
DataValue, -7.0000000000000007E-07, 14.000100000000002, 0.098600000000000007, 2.198, 25, 0.0448589626933576
DataValue, 1.2000000000000002E-06, 14.0005, 0.10500000000000001, 2.4225, 25, 0.043343653250774
DataValue, -1.2000000000000002E-06, 13.999640000000001, 0.1145, 2.6405, 25, 0.043362999431925779
DataValue, -1.2000000000000002E-06, 14.000300000000001, 0.1242, 2.826, 25, 0.043949044585987265
DataValue, 3.1000000000000004E-06, 14.000520000000002, 0.13190000000000002, 3.0235, 25, 0.04362493798577808
DataValue, -1.2000000000000002E-06, 14.00026, 0.1422, 3.216, 25, 0.04421641791044776
DataValue, -3.0000000000000004E-07, 14.00032, 0.1501, 3.4345, 25, 0.043703595865482607
DataValue, 2.0000000000000002E-07, 14.000340000000001, 0.1589, 3.638, 25, 0.04367784496976361
DataValue, -9.0000000000000007E-07, 14.000580000000001, 0.16620000000000001, 3.8325, 25, 0.043365949119373783
DataValue, -1.0000000000000002E-06, 14.000520000000002, 0.1762, 4.0155, 25, 0.043879965135101479
DataValue, -7.0000000000000007E-07, 14.000340000000001, 0.1847, 4.2525, 25, 0.043433274544385655
DataValue, -7.0000000000000007E-07, 14.000280000000002, 0.1938, 4.422, 25, 0.043826322930800549
DataValue, 0, 13.999780000000001, 0.2028, 4.618, 25, 0.043915114768297965
DataValue, 2.4000000000000003E-06, 14.000980000000002, 0.20950000000000002, 4.804, 25, 0.043609492089925067
DataValue, 2.0000000000000002E-07, 13.999360000000001, 0.21780000000000002, 5.0265, 25, 0.043330349149507612
DataValue, 0, 14.000160000000001, 0.2281, 5.218, 25, 0.043714066692219243
DataValue, 5.0000000000000008E-07, 14.00064, 0.2369, 5.4275, 25, 0.0436480884385076
DataValue, 1.0000000000000001E-07, 14.00026, 0.24530000000000002, 5.6465000000000005, 25, 0.043442840697777381
DataValue, -4.0000000000000003E-07, 14.0004, 0.25320000000000004, 5.813, 25, 0.043557543437123696
DataValue, -2.0000000000000002E-07, 14.000480000000001, 0.2615, 5.979, 25, 0.043736410771031943
DataValue, 0, 13.99966, 0.26890000000000003, 6.143, 25, 0.043773400618590273
DataValue, 2.0000000000000002E-07, 13.999920000000001, 0.274, 6.301, 25, 0.043485161085541978
DataValue, 7.0000000000000007E-07, 13.999960000000002, 0.2795, 6.4055, 25, 0.043634376707516985
DataValue, -1.9000000000000002E-06, 13.999900000000002, 0.2826, 6.4775, 25, 0.043627942879197225
DataValue, -1.1E-06, 13.999860000000002, 0.2851, 6.5345, 25, 0.0436299640370342
DataValue, -1.7000000000000002E-06, 13.999580000000002, 0.2869, 6.5975, 25, 0.043486169003410381
DataValue, -2.0000000000000003E-06, 13.999960000000002, 0.28500000000000003, 6.5935, 25, 0.043224387654508235
DataValue, 1.2000000000000002E-06, 14.00032, 0.28650000000000003, 6.633, 25, 0.043193125282677526
DataValue, 3.0000000000000004E-07, 14.000380000000002, 0.2877, 6.634, 25, 0.0433675007536931
DataValue, -1.7000000000000002E-06, 13.999480000000002, 0.28800000000000003, 6.6595, 25, 0.043246489976724985
DataValue, -1.9000000000000002E-06, 13.999200000000002, 0.28900000000000003, 6.6855, 25, 0.043227881235509691
DataValue, -7.0000000000000007E-07, 13.999760000000002, 0.2892, 6.676, 25, 0.043319352905931696
DataValue, -5.0000000000000008E-07, 13.999580000000002, 0.28800000000000003, 6.6805, 25, 0.043110545617842978
DataValue, 1.8000000000000001E-06, 13.9997, 0.2896, 6.674, 25, 0.043392268504644893
DataValue, 1.3E-06, 13.999960000000002, 0.28900000000000003, 6.6705000000000005, 25, 0.043325088074357247
DataValue, 7.0000000000000007E-07, 14.000000000000002, 0.2887, 6.678, 25, 0.043231506439053609
DataValue, 2.1000000000000002E-06, 14.00078, 0.2894, 6.6805, 25, 0.04332011077015193
DataValue, 6.0000000000000008E-07, 13.999900000000002, 0.2894, 6.7005, 25, 0.043190806656219681
DataValue, 8.0000000000000007E-07, 13.999620000000002, 0.2901, 6.6925, 25, 0.043347030257751218
DataValue, 3.0000000000000004E-07, 14.000380000000002, 0.2897, 6.6775, 25, 0.043384500187195807
DataValue, 3.3E-06, 14.000680000000001, 0.2913, 6.6905, 25, 0.043539346835064642
