
SetupTitle, Rds-Id
ApplicationTest, Rds-Id, Public
TestParameter, Name, Memo, Scale, HoldTime, PulseBase, PulseAvgCnt, Gate, VgStart, VgStop, VgStep, IgLimit, Source, MeasurementTime, Drain, IdStart, IdStop, IdLinearStep, VdLimit, VdStop, PulsePeriodMode, ManualPulsePeriod, PulseWidth
TestParameter, Value, , LINEAR, 0, 0, 1, SMU2:MC	MCSMU, 15, 5, 1, 0.1, GNDU:GND	GNDU, 1E-05, SMU3:UHC500	UHCU500A, 0.5, 30, 0.2, 2, 0, 0, 0.05, 0.0002
DutParameter, Name, Polarity, Temp, YAxisRdsMin, YAxisRdsMax
DutParameter, Value, 1, 25, 0.001, 1
MetaData, TestRecord.EntryPoint, true
MetaData, TestRecord.RecordTime, 04/30/2021 11:27:47
MetaData, TestRecord.TestTarget, 
MetaData, TestRecord.IterationIndex, 1
MetaData, TestRecord.Preservation, true
MetaData, TestRecord.Flag, 
MetaData, TestRecord.Remarks, 
MetaData, TestRecord.LinkKey, 9276b9de-5035-4492-bc50-4b49d39db88d
Dimension1, 148, 148, 148, 148, 148, 148
Dimension2, 11, 11, 11, 11, 11, 11
DataName, Igate, Vgate, Vdrain, Idrain, Ta, Rds
DataValue, 6.0000000000000008E-07, 15.000240000000002, 0.0092, 0.10200000000000001, 25, 0.090196078431372548
DataValue, 1.0000000000000002E-06, 14.99984, 0.026500000000000003, 0.2965, 25, 0.08937605396290052
DataValue, 1.0000000000000002E-06, 15.000000000000002, 0.0426, 0.51150000000000007, 25, 0.083284457478005849
DataValue, 1.0000000000000002E-06, 15.000300000000001, 0.057, 0.7025, 25, 0.081138790035587188
DataValue, -1.0000000000000002E-06, 15.000100000000002, 0.077, 0.9125, 25, 0.08438356164383562
DataValue, -8.0000000000000007E-07, 15.00026, 0.0954, 1.1380000000000001, 25, 0.083831282952548325
DataValue, 6.0000000000000008E-07, 14.99932, 0.11030000000000001, 1.3565, 25, 0.081312200516033911
DataValue, 1.1E-06, 14.999740000000001, 0.12710000000000002, 1.5455, 25, 0.082238757683597549
DataValue, 2.0000000000000002E-07, 14.99924, 0.14250000000000002, 1.7445, 25, 0.081685296646603622
DataValue, 2.1000000000000002E-06, 14.999920000000001, 0.15940000000000001, 1.951, 25, 0.081701691440287036
DataValue, -3.0000000000000004E-07, 14.999900000000002, 0.1738, 2.1555, 25, 0.080630944096497334
DataValue, -2.0000000000000002E-07, 14.999600000000001, 0.1897, 2.3735, 25, 0.079924162629028864
DataValue, 3.0000000000000004E-07, 14.99998, 0.20370000000000002, 2.5500000000000003, 25, 0.079882352941176474
DataValue, 9.0000000000000007E-07, 14.999960000000002, 0.2228, 2.754, 25, 0.080900508351488737
DataValue, 4.0000000000000003E-07, 15.00116, 0.23770000000000002, 2.95, 25, 0.080576271186440687
DataValue, 1.1E-06, 15.00046, 0.2541, 3.1645, 25, 0.08029704534681624
DataValue, -1.5E-06, 14.999760000000002, 0.2697, 3.3685, 25, 0.080065310969274162
DataValue, 1.4000000000000002E-06, 14.999820000000002, 0.2856, 3.5655, 25, 0.080100967606226342
DataValue, -3.0000000000000004E-07, 15.00064, 0.3015, 3.7435, 25, 0.080539601976759717
DataValue, -1.0000000000000002E-06, 15.0006, 0.3161, 3.9325, 25, 0.0803814367450731
DataValue, 1.1E-06, 15.000340000000001, 0.33230000000000004, 4.1485, 25, 0.080101241412558755
DataValue, 1.8000000000000001E-06, 15.0006, 0.34800000000000003, 4.344, 25, 0.080110497237569064
DataValue, -1.0000000000000002E-06, 15.000160000000001, 0.3619, 4.5485, 25, 0.0795646916565901
DataValue, -6.0000000000000008E-07, 15.000900000000002, 0.37770000000000004, 4.7295, 25, 0.079860450364732008
DataValue, -7.0000000000000007E-07, 14.99994, 0.39440000000000003, 4.9165, 25, 0.080219668463337751
DataValue, 8.0000000000000007E-07, 15.000380000000002, 0.40900000000000003, 5.1095, 25, 0.08004697132791859
DataValue, 1.0000000000000001E-07, 15.000040000000002, 0.4232, 5.2745, 25, 0.080235093373779515
DataValue, -1.0000000000000001E-07, 14.999440000000002, 0.43660000000000004, 5.4555, 25, 0.080029328200898184
DataValue, 0, 14.99984, 0.4456, 5.597, 25, 0.079614078970877244
DataValue, -8.0000000000000007E-07, 15.000000000000002, 0.453, 5.695, 25, 0.079543459174714656
DataValue, 9.0000000000000007E-07, 15.00022, 0.4595, 5.7875000000000005, 25, 0.079395248380129582
DataValue, 1.3E-06, 15.000160000000001, 0.46090000000000003, 5.838, 25, 0.078948269955464209
DataValue, 1.1E-06, 14.999760000000002, 0.46340000000000003, 5.881, 25, 0.078796123108314908
DataValue, -1.8000000000000001E-06, 14.999740000000001, 0.4657, 5.896, 25, 0.078985753052917232
DataValue, 2.2E-06, 15.000560000000002, 0.4655, 5.8835, 25, 0.079119571683521725
DataValue, -1.8000000000000001E-06, 15.000900000000002, 0.46730000000000005, 5.8925, 25, 0.079304200254560892
DataValue, 1.5E-06, 15.00036, 0.46780000000000005, 5.9195, 25, 0.079026944843314476
DataValue, 1.5E-06, 14.99994, 0.46730000000000005, 5.913, 25, 0.07902925756807036
DataValue, 2.0000000000000002E-07, 15.00026, 0.4685, 5.938, 25, 0.0788986190636578
DataValue, 1.3E-06, 15.000340000000001, 0.4687, 5.93, 25, 0.079038785834738626
DataValue, -1.5E-06, 15.000040000000002, 0.46730000000000005, 5.947, 25, 0.078577434000336316
DataValue, 5.0000000000000008E-07, 14.999960000000002, 0.4702, 5.9555, 25, 0.078952229031987245
DataValue, -3.0000000000000004E-07, 14.999780000000001, 0.468, 5.968, 25, 0.078418230563002692
DataValue, -1.3E-06, 14.999540000000001, 0.46680000000000005, 5.9605, 25, 0.078315577552218782
DataValue, 2.2E-06, 15.000940000000002, 0.46680000000000005, 5.9585, 25, 0.078341864563229016
DataValue, -4.0000000000000003E-07, 14.999440000000002, 0.4681, 5.9675, 25, 0.078441558441558437
DataValue, -1.0000000000000001E-07, 15.000340000000001, 0.4675, 5.9545, 25, 0.078512049710303136
DataValue, 1.5E-06, 14.99942, 0.46990000000000004, 5.9615, 25, 0.078822444015767851
DataValue, 9.0000000000000007E-07, 14.999640000000001, 0.4677, 5.952, 25, 0.078578629032258068
DataValue, 1.6000000000000001E-06, 15.000440000000001, 0.4671, 5.961, 25, 0.078359335681932554
DataValue, 1.2000000000000002E-06, 14.999920000000001, 0.4682, 5.9435, 25, 0.078775132497686542
DataValue, -7.0000000000000007E-07, 15.000040000000002, 0.4698, 5.9305, 25, 0.079217603911980433
DataValue, -1.0000000000000002E-06, 15.000440000000001, 0.46880000000000005, 5.9425, 25, 0.078889356331510313
DataValue, 4.0000000000000003E-07, 14.999500000000001, 0.46880000000000005, 5.9335, 25, 0.079009016600657289
DataValue, -1.0000000000000001E-07, 14.999360000000001, 0.46790000000000004, 5.9405, 25, 0.078764413769884689
DataValue, 1.9000000000000002E-06, 14.999860000000002, 0.46840000000000004, 5.9485, 25, 0.078742540136168784
DataValue, 7.0000000000000007E-07, 15.000180000000002, 0.4685, 5.934, 25, 0.078951803168183357
DataValue, -4.0000000000000003E-07, 15.000300000000001, 0.4691, 5.9505, 25, 0.078833711452819089
DataValue, 5.0000000000000008E-07, 14.999540000000001, 0.4692, 5.947, 25, 0.078896922818227674
DataValue, 1.1E-06, 14.999600000000001, 0.4685, 5.9535, 25, 0.078693205677332664
DataValue, 1.5E-06, 14.999760000000002, 0.47040000000000004, 5.9670000000000005, 25, 0.078833584715937655
DataValue, 2.6E-06, 14.99984, 0.46990000000000004, 5.9785, 25, 0.07859831061303002
DataValue, 4.0000000000000003E-07, 14.999440000000002, 0.4676, 5.9765, 25, 0.078239772442064759
DataValue, -2.0000000000000002E-07, 15.000720000000001, 0.4692, 5.963, 25, 0.078685225557605237
DataValue, 1.2000000000000002E-06, 15.000240000000002, 0.4697, 5.9555, 25, 0.078868273024934932
DataValue, 2.0000000000000002E-07, 14.999480000000002, 0.4693, 5.9665, 25, 0.078655828375094272
DataValue, 7.0000000000000007E-07, 14.99994, 0.46950000000000003, 5.96, 25, 0.0787751677852349
DataValue, -4.0000000000000003E-07, 15.000040000000002, 0.4703, 5.948, 25, 0.079068594485541349
DataValue, 1.8000000000000001E-06, 14.99956, 0.46780000000000005, 5.94, 25, 0.078754208754208757
DataValue, 4.0000000000000003E-07, 15.000040000000002, 0.4693, 5.9445000000000006, 25, 0.078946925729666065
DataValue, 5.0000000000000008E-07, 15.00026, 0.46890000000000004, 5.933, 25, 0.0790325299174111
DataValue, -5.0000000000000008E-07, 15.000280000000002, 0.46780000000000005, 5.9455, 25, 0.078681355647128082
DataValue, -1.0000000000000002E-06, 14.999680000000002, 0.468, 5.9505, 25, 0.078648853037559877
DataValue, 1.6000000000000001E-06, 15.000180000000002, 0.4682, 5.9665, 25, 0.07847146568339898
DataValue, 3.0000000000000004E-07, 14.999220000000001, 0.4685, 5.964, 25, 0.07855466130114018
DataValue, -1.0000000000000001E-07, 15.000580000000001, 0.46790000000000004, 5.958, 25, 0.078533064786841231
DataValue, 1.1E-06, 14.999880000000001, 0.4693, 5.9590000000000005, 25, 0.078754824635005868
DataValue, 6.0000000000000008E-07, 14.999960000000002, 0.4686, 5.9495000000000005, 25, 0.078762921253886883
DataValue, 8.0000000000000007E-07, 14.99928, 0.4691, 5.9505, 25, 0.078833711452819089
DataValue, 5.0000000000000008E-07, 15.00008, 0.46890000000000004, 5.952, 25, 0.078780241935483872
DataValue, 1.0000000000000002E-06, 14.999360000000001, 0.4681, 5.9535, 25, 0.078626018308557991
DataValue, 6.0000000000000008E-07, 15.000200000000001, 0.4697, 5.965, 25, 0.078742665549036042
DataValue, 1.7000000000000002E-06, 15.000100000000002, 0.47050000000000003, 5.9545, 25, 0.079015870350155351
DataValue, 9.0000000000000007E-07, 15.00022, 0.47100000000000003, 5.954, 25, 0.07910648303661405
DataValue, 1.3E-06, 15.000060000000001, 0.46880000000000005, 5.933, 25, 0.079015675037923491
DataValue, -1.8000000000000001E-06, 14.999460000000001, 0.4681, 5.9285000000000005, 25, 0.078957577802142187
DataValue, 1.3E-06, 14.99998, 0.47050000000000003, 5.9365000000000006, 25, 0.079255453550071589
DataValue, 3.0000000000000004E-07, 15.000060000000001, 0.46830000000000005, 5.9575000000000005, 25, 0.078606798153587912
DataValue, -2.0000000000000003E-06, 14.999600000000001, 0.46780000000000005, 5.9590000000000005, 25, 0.078503104547742911
DataValue, -1.0000000000000001E-07, 14.999920000000001, 0.4691, 5.9725, 25, 0.078543323566345746
DataValue, 1.7000000000000002E-06, 15.000300000000001, 0.46950000000000003, 5.9475, 25, 0.0789407313997478
DataValue, -8.0000000000000007E-07, 14.999080000000001, 0.46940000000000004, 5.9435, 25, 0.078977033734331625
DataValue, 2.2E-06, 15.000140000000002, 0.46990000000000004, 5.9515, 25, 0.078954885323027815
DataValue, 1.1E-06, 15.00008, 0.46880000000000005, 5.953, 25, 0.078750209978162275
DataValue, 4.0000000000000003E-07, 15.000020000000001, 0.4693, 5.9350000000000005, 25, 0.079073294018534107
DataValue, -6.0000000000000008E-07, 15.000140000000002, 0.4693, 5.957, 25, 0.078781265737787473
DataValue, 4.0000000000000003E-07, 14.99984, 0.4676, 5.968, 25, 0.078351206434316353
DataValue, -1.0000000000000001E-07, 14.999720000000002, 0.46690000000000004, 5.972, 25, 0.078181513730743474
DataValue, 5.0000000000000008E-07, 15.00008, 0.4672, 5.9745, 25, 0.078199012469662738
DataValue, 3.0000000000000004E-07, 15.000160000000001, 0.46890000000000004, 5.974, 25, 0.07849012387010379
DataValue, 2.1000000000000002E-06, 15.000160000000001, 0.46890000000000004, 5.948, 25, 0.078833221250840621
DataValue, 1.6000000000000001E-06, 15.0004, 0.4686, 5.937, 25, 0.078928751894896412
DataValue, 2.9E-06, 14.999400000000001, 0.4681, 5.9415000000000004, 25, 0.078784818648489435
DataValue, -4.0000000000000003E-07, 14.999220000000001, 0.468, 5.9675, 25, 0.078424801005446174
DataValue, 1.3E-06, 14.999900000000002, 0.4685, 5.968, 25, 0.0785020107238606
DataValue, -1.7000000000000002E-06, 14.99932, 0.47100000000000003, 5.9595, 25, 0.079033475962748553
DataValue, 1.5E-06, 14.999440000000002, 0.46840000000000004, 5.952, 25, 0.078696236559139793
DataValue, -1.0000000000000002E-06, 15.000820000000001, 0.4692, 5.9430000000000005, 25, 0.078950025239777885
DataValue, 0, 14.999960000000002, 0.4686, 5.939, 25, 0.078902172082842226
DataValue, 1.0000000000000001E-07, 14.99966, 0.4702, 5.9430000000000005, 25, 0.079118290425710919
DataValue, 9.0000000000000007E-07, 15.00054, 0.4685, 5.9505, 25, 0.078732879589950427
DataValue, 1.4000000000000002E-06, 15.000020000000001, 0.4702, 5.9685, 25, 0.078780263047666929
DataValue, -1.0000000000000001E-07, 15.00026, 0.46990000000000004, 5.957, 25, 0.078881987577639756
DataValue, 2.0000000000000003E-06, 15.000520000000002, 0.4702, 5.9565, 25, 0.078938974229832953
DataValue, 1.1E-06, 15.000320000000002, 0.46890000000000004, 5.9415000000000004, 25, 0.0789194647816208
DataValue, -9.0000000000000007E-07, 15.000140000000002, 0.4687, 5.9430000000000005, 25, 0.078865892646811375
DataValue, -2.0000000000000002E-07, 14.99918, 0.4717, 5.9365000000000006, 25, 0.079457592857744452
DataValue, -1.0000000000000001E-07, 14.999460000000001, 0.4686, 5.9375, 25, 0.078922105263157891
DataValue, 6.0000000000000008E-07, 15.000340000000001, 0.4703, 5.9455, 25, 0.079101841729038766
DataValue, 2.0000000000000002E-07, 14.999820000000002, 0.468, 5.957, 25, 0.078563035084774219
DataValue, 8.0000000000000007E-07, 15.000440000000001, 0.46950000000000003, 5.945, 25, 0.078973927670311181
DataValue, -1.1E-06, 15.00022, 0.4698, 5.936, 25, 0.079144204851752026
DataValue, 6.0000000000000008E-07, 15.000040000000002, 0.46880000000000005, 5.931, 25, 0.07904232001348846
DataValue, -1.2000000000000002E-06, 15.00036, 0.46900000000000003, 5.9535, 25, 0.078777189888301
DataValue, -2.6E-06, 14.999820000000002, 0.4696, 5.9350000000000005, 25, 0.079123841617523158
DataValue, -2.4000000000000003E-06, 14.999620000000002, 0.4682, 5.942, 25, 0.078795018512285431
DataValue, 4.0000000000000003E-07, 15.000520000000002, 0.4692, 5.94, 25, 0.078989898989898985
DataValue, 3.0000000000000004E-07, 14.99998, 0.4703, 5.9545, 25, 0.078982282307498528
DataValue, -2.4000000000000003E-06, 14.99952, 0.4682, 5.934, 25, 0.078901247050893158
DataValue, 1.3E-06, 14.999340000000002, 0.46890000000000004, 5.966, 25, 0.078595373784780431
DataValue, -7.0000000000000007E-07, 15.0004, 0.4686, 5.965, 25, 0.078558256496228
DataValue, 1.0000000000000002E-06, 14.999540000000001, 0.4693, 5.963, 25, 0.07870199563977863
DataValue, 7.0000000000000007E-07, 14.9998, 0.46690000000000004, 5.9625, 25, 0.078306079664570233
DataValue, -1.2000000000000002E-06, 14.99966, 0.4696, 5.9635, 25, 0.07874570302674605
DataValue, 7.0000000000000007E-07, 15.000420000000002, 0.4687, 5.968, 25, 0.078535522788203749
DataValue, 1.2000000000000002E-06, 15.000200000000001, 0.4697, 5.9495000000000005, 25, 0.078947810740398347
DataValue, 5.0000000000000008E-07, 15.00026, 0.4685, 5.9430000000000005, 25, 0.078832239609624766
DataValue, 5.0000000000000008E-07, 15.000520000000002, 0.4696, 5.962, 25, 0.078765514927876562
DataValue, 2.0000000000000002E-07, 14.999740000000001, 0.46940000000000004, 5.9425, 25, 0.078990323937736653
DataValue, -1.1E-06, 15.00074, 0.46950000000000003, 5.95, 25, 0.078907563025210084
DataValue, 2.0000000000000002E-07, 14.9997, 0.4681, 5.9505, 25, 0.078665658348037987
DataValue, 4.0000000000000003E-07, 15.000000000000002, 0.4707, 5.949, 25, 0.079122541603630872
DataValue, -1.0000000000000001E-07, 14.9997, 0.4701, 5.947, 25, 0.079048259626702547
DataValue, -1.7000000000000002E-06, 14.99984, 0.4707, 5.945, 25, 0.0791757779646762
DataValue, 1.2000000000000002E-06, 14.99984, 0.4707, 5.9435, 25, 0.079195760074030452
DataValue, -1.4000000000000002E-06, 14.999060000000002, 0.46940000000000004, 5.944, 25, 0.078970390309555868
DataValue, 2.0000000000000003E-06, 14.999740000000001, 0.4697, 5.9615, 25, 0.078788895412228471
DataValue, 5.0000000000000008E-07, 14.999820000000002, 0.4685, 5.966, 25, 0.078528327187395247
DataValue, -3.0000000000000004E-07, 13.99998, 0.0088, 0.1115, 25, 0.0789237668161435
DataValue, -1.0000000000000001E-07, 14.000420000000002, 0.0262, 0.2525, 25, 0.10376237623762377
DataValue, -1.2000000000000002E-06, 14.000280000000002, 0.0438, 0.515, 25, 0.085048543689320383
DataValue, -2.0000000000000002E-07, 13.999600000000001, 0.060000000000000005, 0.7035, 25, 0.085287846481876331
DataValue, 1.1E-06, 14.00008, 0.078800000000000009, 0.914, 25, 0.086214442013129111
DataValue, 2.0000000000000002E-07, 13.99994, 0.0956, 1.119, 25, 0.085433422698838246
DataValue, 5.0000000000000008E-07, 14.000100000000002, 0.1136, 1.3215000000000001, 25, 0.085962920923193339
DataValue, 9.0000000000000007E-07, 13.999600000000001, 0.13090000000000002, 1.537, 25, 0.085165907612231639
DataValue, 1.1E-06, 13.999760000000002, 0.1453, 1.745, 25, 0.083266475644699148
DataValue, 2.0000000000000003E-06, 14.00018, 0.1615, 1.9635, 25, 0.082251082251082255
DataValue, -3.0000000000000004E-07, 14.00008, 0.1781, 2.122, 25, 0.083930254476908592
DataValue, -1.0000000000000001E-07, 13.99952, 0.19490000000000002, 2.355, 25, 0.082760084925690036
DataValue, 7.0000000000000007E-07, 13.99994, 0.2124, 2.5575, 25, 0.083049853372434021
DataValue, -1.7000000000000002E-06, 14.00032, 0.22560000000000002, 2.7520000000000002, 25, 0.081976744186046516
DataValue, -1.0000000000000002E-06, 14.000160000000001, 0.24480000000000002, 2.9575, 25, 0.082772612003381235
DataValue, 8.0000000000000007E-07, 13.999860000000002, 0.2614, 3.1585, 25, 0.082760804179199
DataValue, -1.0000000000000001E-07, 14.000580000000001, 0.2761, 3.3305000000000002, 25, 0.082900465395586251
DataValue, 4.0000000000000003E-07, 14.0006, 0.29460000000000003, 3.549, 25, 0.083009298393913786
DataValue, -1.1E-06, 13.999820000000002, 0.3098, 3.767, 25, 0.08224050968940802
DataValue, 8.0000000000000007E-07, 13.999820000000002, 0.325, 3.9285, 25, 0.082728776886852484
DataValue, 1.1E-06, 13.999580000000002, 0.3428, 4.148, 25, 0.082642237222757958
DataValue, -2.0000000000000002E-07, 13.9997, 0.35650000000000004, 4.3325000000000005, 25, 0.082285054818234282
DataValue, -1.0000000000000001E-07, 13.999820000000002, 0.37410000000000004, 4.533, 25, 0.082528127068166784
DataValue, -1.1E-06, 13.999640000000001, 0.391, 4.73, 25, 0.082663847780126851
DataValue, 1.2000000000000002E-06, 14.00036, 0.4056, 4.9165, 25, 0.082497711786840233
DataValue, -5.0000000000000008E-07, 14.000620000000001, 0.4218, 5.1295, 25, 0.082230236865191542
DataValue, -1.4000000000000002E-06, 14.000860000000001, 0.4354, 5.2595, 25, 0.082783534556516783
DataValue, 5.0000000000000008E-07, 14.000680000000001, 0.44880000000000003, 5.4295, 25, 0.082659545077815644
DataValue, 5.0000000000000008E-07, 13.999460000000001, 0.4572, 5.5875, 25, 0.0818255033557047
DataValue, 8.0000000000000007E-07, 13.999960000000002, 0.4651, 5.6825, 25, 0.081847778266608009
DataValue, -1.4000000000000002E-06, 14.000240000000002, 0.4713, 5.728, 25, 0.0822800279329609
DataValue, 1.3E-06, 14.00018, 0.4728, 5.791, 25, 0.081643930236573986
DataValue, 6.0000000000000008E-07, 14.000340000000001, 0.4757, 5.8265, 25, 0.081644211790955115
DataValue, 1.0000000000000002E-06, 14.000860000000001, 0.4766, 5.838, 25, 0.081637547105173014
DataValue, 1.5E-06, 13.99952, 0.4788, 5.8585, 25, 0.081727404625757449
DataValue, -2.0000000000000002E-07, 13.99932, 0.47790000000000005, 5.868, 25, 0.081441717791411045
DataValue, 2.0000000000000002E-07, 14.000580000000001, 0.47840000000000005, 5.889, 25, 0.081236203090507733
DataValue, -2.0000000000000002E-07, 13.999760000000002, 0.4768, 5.876, 25, 0.081143635125936
DataValue, 3.6000000000000003E-06, 13.99932, 0.47990000000000005, 5.9035, 25, 0.081290759718810876
DataValue, 3.0000000000000004E-07, 14.000300000000001, 0.47940000000000005, 5.8790000000000004, 25, 0.081544480353801671
DataValue, 1.9000000000000002E-06, 14.00004, 0.47990000000000005, 5.899, 25, 0.081352771656212922
DataValue, -2.6E-06, 14.000020000000001, 0.47900000000000004, 5.9055, 25, 0.081110828888324452
DataValue, 1.3E-06, 13.999220000000001, 0.4798, 5.9025, 25, 0.0812875900042355
DataValue, -1.0000000000000002E-06, 14.00012, 0.4793, 5.9155, 25, 0.081024427351872208
DataValue, -1.0000000000000001E-07, 14.000380000000002, 0.47890000000000005, 5.9075, 25, 0.081066440964875169
DataValue, -1.1E-06, 13.999860000000002, 0.4792, 5.9085, 25, 0.0811034949648811
DataValue, -4.0000000000000003E-07, 13.999880000000001, 0.48160000000000003, 5.9255, 25, 0.081275841701122273
DataValue, -3.0000000000000004E-07, 13.99938, 0.4807, 5.917, 25, 0.081240493493324323
