
SetupTitle, IG-VGS-VDS_0
PrimitiveTest, Multi Channel I/V Sweep
TestParameter, Channel.UnitType, SMU, SMU
TestParameter, Channel.Unit, SMU2:MC, SMU5:HC
TestParameter, Channel.IName, IG, ID
TestParameter, Channel.VName, VGS, VDS
TestParameter, Channel.Mode, VPULSE, VPULSE
TestParameter, Channel.Func, VAR1, CONST
TestParameter, Channel.Index, 
TestParameter, Channel.Time, 
TestParameter, Measurement.Port.Unit, SMU2:MC, SMU5:HC
TestParameter, Measurement.Port.SeriesResistor, NONE, NONE
TestParameter, Measurement.Port.Filter, OFF, OFF
TestParameter, Measurement.Port.OutputVoltageComparison, 0, 0
TestParameter, Measurement.Primary.Start, 0
TestParameter, Measurement.Primary.Stop, 15.000000000000002
TestParameter, Measurement.Primary.Compliance, 0.099999999999999992
TestParameter, Measurement.Primary.PowerCompliance, 0
TestParameter, Measurement.Primary.Locus, Single
TestParameter, Measurement.Primary.Scale, LINEAR
TestParameter, Measurement.Primary.Count, 101
TestParameter, Measurement.Aborting.Condition, CONTINUE AT ANY
TestParameter, Measurement.PostOutput.Value, START
TestParameter, Measurement.PostOutput.Retention, OFF
TestParameter, Measurement.Bias.Source, 0, 0
TestParameter, Measurement.Bias.Compliance, 0.099999999999999992, 20
TestParameter, Measurement.Pulse.Delay, 0, 0
TestParameter, Measurement.Pulse.Duration, 0.001, 0.00019999999999999998
TestParameter, Measurement.Pulse.Base, 0, 0
TestParameter, Measurement.Pulse.Period, 0
TestParameter, Measurement.Pulse.MeasurementDelay, 0
TestParameter, Measurement.Pulse.AveragingCount, 1
TestParameter, Measurement.Monitor.Unit, SMU2:MC, SMU5:HC
TestParameter, Measurement.Monitor.Adc, HS ADC, HS ADC
TestParameter, Measurement.Monitor.Measurement, Force and Compliance Sides, Force and Compliance Sides
TestParameter, Measurement.Timing.Hold, 0
TestParameter, Measurement.Timing.Delay, 0
TestParameter, Measurement.Adc.HighSpeed.Mode, TIME
TestParameter, Measurement.Adc.HighSpeed.Coeff, 4.9999999999999996E-05
TestParameter, Measurement.Adc.HighResolution.AutoZero, OFF
TestParameter, Measurement.Adc.HighResolution.Mode, AUTO
TestParameter, Measurement.Adc.HighResolution.Coeff, 6
TestParameter, Measurement.WaitTime.Source.Coeff, 1
TestParameter, Measurement.WaitTime.Source.Offset, 0
TestParameter, Measurement.WaitTime.Monitor.Coeff, 1
TestParameter, Measurement.WaitTime.Monitor.Offset, 0
TestParameter, Output.Graph.Enabled, true
TestParameter, Output.Graph.AutoScaling, false
TestParameter, Output.Graph.XAxis.Data, VGS
TestParameter, Output.Graph.XAxis.Scale, Linear
TestParameter, Output.Graph.XAxis.Left, -5
TestParameter, Output.Graph.XAxis.Right, 20
TestParameter, Output.Graph.XAxis.RunTimeAutoScale, false
TestParameter, Output.Graph.YAxis.Data, IG
TestParameter, Output.Graph.YAxis.Scale, Linear
TestParameter, Output.Graph.YAxis.Bottom, -2E-06
TestParameter, Output.Graph.YAxis.Top, 2E-06
TestParameter, Output.Graph.YAxis.Group, 
TestParameter, Output.Graph.YAxis.RunTimeAutoScale, false
TestParameter, Output.List.Data, VGS, IG
TestParameter, AutoAnalysis.Interpolation, false
TestParameter, AutoAnalysis.Line1.Enabled, false
TestParameter, AutoAnalysis.Line1.Type, 1
TestParameter, AutoAnalysis.Line1.Fix, True
TestParameter, AutoAnalysis.Line1.YAxis, 0
TestParameter, AutoAnalysis.Line1.Point1.Type, 0
TestParameter, AutoAnalysis.Line1.Point1.XY.X, 
TestParameter, AutoAnalysis.Line1.Point1.XY.Y, 
TestParameter, AutoAnalysis.Line1.Point1.Data.Var, 
TestParameter, AutoAnalysis.Line1.Point1.Data.Condition, 
TestParameter, AutoAnalysis.Line1.Point1.Data.Start, false
TestParameter, AutoAnalysis.Line1.Point1.Data.StartVar, 
TestParameter, AutoAnalysis.Line1.Point1.Data.StartCondition, 
TestParameter, AutoAnalysis.Line1.Point2.Type, 0
TestParameter, AutoAnalysis.Line1.Point2.XY.X, 
TestParameter, AutoAnalysis.Line1.Point2.XY.Y, 
TestParameter, AutoAnalysis.Line1.Point2.Data.Var, 
TestParameter, AutoAnalysis.Line1.Point2.Data.Condition, 
TestParameter, AutoAnalysis.Line1.Point2.Data.Start, false
TestParameter, AutoAnalysis.Line1.Point2.Data.StartVar, 
TestParameter, AutoAnalysis.Line1.Point2.Data.StartCondition, 
TestParameter, AutoAnalysis.Line1.GradientExpr, 0
TestParameter, AutoAnalysis.Line2.Enabled, false
TestParameter, AutoAnalysis.Line2.Type, 1
TestParameter, AutoAnalysis.Line2.Fix, True
TestParameter, AutoAnalysis.Line2.YAxis, 0
TestParameter, AutoAnalysis.Line2.Point1.Type, 0
TestParameter, AutoAnalysis.Line2.Point1.XY.X, 
TestParameter, AutoAnalysis.Line2.Point1.XY.Y, 
TestParameter, AutoAnalysis.Line2.Point1.Data.Var, 
TestParameter, AutoAnalysis.Line2.Point1.Data.Condition, 
TestParameter, AutoAnalysis.Line2.Point1.Data.Start, false
TestParameter, AutoAnalysis.Line2.Point1.Data.StartVar, 
TestParameter, AutoAnalysis.Line2.Point1.Data.StartCondition, 
TestParameter, AutoAnalysis.Line2.Point2.Type, 0
TestParameter, AutoAnalysis.Line2.Point2.XY.X, 
TestParameter, AutoAnalysis.Line2.Point2.XY.Y, 
TestParameter, AutoAnalysis.Line2.Point2.Data.Var, 
TestParameter, AutoAnalysis.Line2.Point2.Data.Condition, 
TestParameter, AutoAnalysis.Line2.Point2.Data.Start, false
TestParameter, AutoAnalysis.Line2.Point2.Data.StartVar, 
TestParameter, AutoAnalysis.Line2.Point2.Data.StartCondition, 
TestParameter, AutoAnalysis.Line2.GradientExpr, 0
TestParameter, AutoAnalysis.Marker.Enabled, false
TestParameter, AutoAnalysis.Marker.Data.Var, 
TestParameter, AutoAnalysis.Marker.Data.Condition, 
TestParameter, AutoAnalysis.Marker.Data.Start, false
TestParameter, AutoAnalysis.Marker.Data.StartVar, 
TestParameter, AutoAnalysis.Marker.Data.StartCondition, 
MetaData, TestRecord.EntryPoint, true
MetaData, TestRecord.RecordTime, 04/30/2021 11:41:18
MetaData, TestRecord.TestTarget, 
MetaData, TestRecord.IterationIndex, 1
MetaData, TestRecord.Preservation, true
MetaData, TestRecord.Flag, 
MetaData, TestRecord.Remarks, 
MetaData, TestRecord.LinkKey, ede8ee64-de89-49f6-a2fe-a10381bfe073
Dimension1, 101, 101
Dimension2, 1, 1
DataName, IG, VGS
DataValue, 9.0000000000000007E-07, 6.0000000000000008E-05
DataValue, 9.0000000000000007E-07, 0.15002000000000001
DataValue, 1.1E-06, 0.30002
DataValue, 9.0000000000000007E-07, 0.45006
DataValue, 6.0000000000000008E-07, 0.60000000000000009
DataValue, 1.4000000000000002E-06, 0.75002
DataValue, 1.5E-06, 0.89998000000000011
DataValue, 1.0000000000000002E-06, 1.0499200000000002
DataValue, 5.0000000000000008E-07, 1.20002
DataValue, 4.0000000000000003E-07, 1.35
DataValue, 9.0000000000000007E-07, 1.5000200000000001
DataValue, 1.6000000000000001E-06, 1.6501000000000001
DataValue, 6.0000000000000008E-07, 1.7999800000000001
DataValue, 1.1E-06, 1.9500400000000002
DataValue, 8.0000000000000007E-07, 2.1
DataValue, 2.1000000000000002E-06, 2.24996
DataValue, 9.0000000000000007E-07, 2.3999400000000004
DataValue, 1.1E-06, 2.55006
DataValue, 7.0000000000000007E-07, 2.7000200000000003
DataValue, 6.0000000000000008E-07, 2.84994
DataValue, 8.0000000000000007E-07, 3.00008
DataValue, 1.1E-06, 3.14996
DataValue, 7.0000000000000007E-07, 3.30006
DataValue, 9.0000000000000007E-07, 3.4500400000000004
DataValue, 5.0000000000000008E-07, 3.5999800000000004
DataValue, 5.0000000000000008E-07, 3.7499200000000004
DataValue, 7.0000000000000007E-07, 3.9001200000000003
DataValue, 3.0000000000000004E-07, 4.05006
DataValue, 5.0000000000000008E-07, 4.2
DataValue, 7.0000000000000007E-07, 4.35008
DataValue, 1.3E-06, 4.5001000000000007
DataValue, 4.0000000000000003E-07, 4.6500200000000005
DataValue, 8.0000000000000007E-07, 4.7999800000000006
DataValue, 6.0000000000000008E-07, 4.94998
DataValue, 7.0000000000000007E-07, 5.10008
DataValue, 1.4000000000000002E-06, 5.25
DataValue, 6.0000000000000008E-07, 5.4000400000000006
DataValue, 8.0000000000000007E-07, 5.5499600000000004
DataValue, 6.0000000000000008E-07, 5.70002
DataValue, 7.0000000000000007E-07, 5.8501400000000006
DataValue, 9.0000000000000007E-07, 6.00004
DataValue, 1.0000000000000002E-06, 6.1500400000000006
DataValue, 7.0000000000000007E-07, 6.3000200000000008
DataValue, 7.0000000000000007E-07, 6.45004
DataValue, 1.0000000000000001E-07, 6.60008
DataValue, 9.0000000000000007E-07, 6.74992
DataValue, 6.0000000000000008E-07, 6.9000800000000009
DataValue, 4.0000000000000003E-07, 7.0501200000000006
DataValue, 1.2000000000000002E-06, 7.20002
DataValue, 8.0000000000000007E-07, 7.3500000000000005
DataValue, 4.0000000000000003E-07, 7.49992
DataValue, 6.0000000000000008E-07, 7.6500400000000006
DataValue, 8.0000000000000007E-07, 7.8001200000000006
DataValue, 4.0000000000000003E-07, 7.94988
DataValue, 9.0000000000000007E-07, 8.0999600000000012
DataValue, 8.0000000000000007E-07, 8.2501000000000015
DataValue, 8.0000000000000007E-07, 8.4001
DataValue, 6.0000000000000008E-07, 8.55006
DataValue, 5.0000000000000008E-07, 8.6999400000000016
DataValue, 9.0000000000000007E-07, 8.8499600000000012
DataValue, 1.0000000000000002E-06, 8.9999
DataValue, 7.0000000000000007E-07, 9.1500600000000016
DataValue, 3.0000000000000004E-07, 9.300040000000001
DataValue, 2.0000000000000002E-07, 9.449860000000001
DataValue, 0, 9.59988
DataValue, 3.0000000000000004E-07, 9.75004
DataValue, 8.0000000000000007E-07, 9.9000600000000016
DataValue, 4.0000000000000003E-07, 10.05006
DataValue, 2.0000000000000002E-07, 10.2001
DataValue, -4.0000000000000003E-07, 10.34998
DataValue, 4.0000000000000003E-07, 10.49998
DataValue, 4.0000000000000003E-07, 10.64996
DataValue, 1.0000000000000001E-07, 10.79996
DataValue, 3.0000000000000004E-07, 10.94988
DataValue, 4.0000000000000003E-07, 11.099960000000001
DataValue, 4.0000000000000003E-07, 11.25004
DataValue, 6.0000000000000008E-07, 11.399980000000001
DataValue, 6.0000000000000008E-07, 11.54996
DataValue, 1.2000000000000002E-06, 11.699980000000002
DataValue, 8.0000000000000007E-07, 11.84998
DataValue, 5.0000000000000008E-07, 12.000060000000001
DataValue, 5.0000000000000008E-07, 12.15
DataValue, 8.0000000000000007E-07, 12.300040000000001
DataValue, 3.0000000000000004E-07, 12.450000000000001
DataValue, 4.0000000000000003E-07, 12.600000000000001
DataValue, 2.0000000000000002E-07, 12.750100000000002
DataValue, 1.0000000000000002E-06, 12.899920000000002
DataValue, 6.0000000000000008E-07, 13.0501
DataValue, 6.0000000000000008E-07, 13.200120000000002
DataValue, 4.0000000000000003E-07, 13.349860000000001
DataValue, 2.0000000000000002E-07, 13.499920000000001
DataValue, 2.0000000000000002E-07, 13.649980000000001
DataValue, 5.0000000000000008E-07, 13.799940000000001
DataValue, 2.0000000000000002E-07, 13.950040000000001
DataValue, 3.0000000000000004E-07, 14.100100000000001
DataValue, -1.0000000000000001E-07, 14.250100000000002
DataValue, 3.0000000000000004E-07, 14.400120000000001
DataValue, 0, 14.54996
DataValue, -5.0000000000000008E-07, 14.699840000000002
DataValue, 4.0000000000000003E-07, 14.850000000000001
DataValue, 0, 14.99998