
SetupTitle, Rds-Id
ApplicationTest, Rds-Id, Public
TestParameter, Name, Memo, Scale, HoldTime, PulseBase, PulseAvgCnt, Gate, VgStart, VgStop, VgStep, IgLimit, Source, MeasurementTime, Drain, IdStart, IdStop, IdLinearStep, VdLimit, VdStop, PulsePeriodMode, ManualPulsePeriod, PulseWidth
TestParameter, Value, , LINEAR, 0, 0, 1, SMU2:MC	MCSMU, 20, 5, 1, 0.1, GNDU:GND	GNDU, 1E-05, SMU3:UHC500	UHCU500A, 0.5, 30, 0.2, 2, 0, 0, 0.05, 0.0002
DutParameter, Name, Polarity, Temp, YAxisRdsMin, YAxisRdsMax
DutParameter, Value, 1, 25, 0.001, 1
MetaData, TestRecord.EntryPoint, true
MetaData, TestRecord.RecordTime, 04/17/2021 14:19:02
MetaData, TestRecord.TestTarget, 
MetaData, TestRecord.IterationIndex, 1
MetaData, TestRecord.Preservation, true
MetaData, TestRecord.Flag, 
MetaData, TestRecord.Remarks, 
MetaData, TestRecord.LinkKey, 3de16b9c-6e35-4e55-b4b1-fa3290face22
Dimension1, 148, 148, 148, 148, 148, 148
Dimension2, 16, 16, 16, 16, 16, 16
DataName, Igate, Vgate, Vdrain, Idrain, Ta, Rds
DataValue, -7.1000000000000006E-06, 19.999660000000002, 0.0045000000000000005, 0.0735, 25, 0.06122448979591838
DataValue, -2.7000000000000004E-06, 20.000400000000003, 0.012700000000000001, 0.27, 25, 0.047037037037037037
DataValue, -5E-06, 19.999460000000003, 0.0218, 0.50050000000000006, 25, 0.043556443556443551
DataValue, -1.1E-06, 20.00072, 0.033600000000000005, 0.713, 25, 0.047124824684431986
DataValue, -2.5E-06, 20.000120000000003, 0.0456, 0.9835, 25, 0.046365022877478394
DataValue, -4.0000000000000007E-06, 19.99986, 0.0557, 1.194, 25, 0.0466499162479062
DataValue, -3.5000000000000004E-06, 19.999920000000003, 0.06430000000000001, 1.4075, 25, 0.045683836589698053
DataValue, -2.6E-06, 19.999660000000002, 0.0757, 1.6125, 25, 0.046945736434108529
DataValue, -5.5000000000000007E-06, 19.9997, 0.08270000000000001, 1.798, 25, 0.045995550611790885
DataValue, -5.8E-06, 19.9996, 0.0927, 2.0220000000000002, 25, 0.04584569732937685
DataValue, -6.1000000000000009E-06, 19.999760000000002, 0.10160000000000001, 2.2335000000000003, 25, 0.04548914260129841
DataValue, -2.3E-06, 20.00036, 0.11120000000000001, 2.445, 25, 0.045480572597137017
DataValue, -5.4000000000000008E-06, 20.00006, 0.1222, 2.6455, 25, 0.046191646191646188
DataValue, -1.9000000000000002E-06, 19.999460000000003, 0.1312, 2.8545000000000003, 25, 0.045962515326677174
DataValue, -3.3E-06, 20.000140000000002, 0.13970000000000002, 3.057, 25, 0.045698397121360819
DataValue, -4.1000000000000006E-06, 20.00006, 0.15, 3.248, 25, 0.046182266009852209
DataValue, -6.800000000000001E-06, 20.00024, 0.1592, 3.4645, 25, 0.045951796796074473
DataValue, -3.4000000000000005E-06, 20.00024, 0.1678, 3.6555, 25, 0.045903433182875118
DataValue, -4.2000000000000004E-06, 20.000220000000002, 0.1759, 3.852, 25, 0.045664589823468327
DataValue, -5.3E-06, 19.99934, 0.18610000000000002, 4.0385, 25, 0.046081465890801046
DataValue, -3.6000000000000003E-06, 20.00034, 0.1938, 4.2485, 25, 0.045616099799929387
DataValue, -3.6000000000000003E-06, 19.999260000000003, 0.2044, 4.4615, 25, 0.045814188053345285
DataValue, -1.9000000000000002E-06, 19.999460000000003, 0.2141, 4.6605, 25, 0.04593927690162
DataValue, -2.2E-06, 20.00034, 0.22410000000000002, 4.853, 25, 0.046177622089429222
DataValue, -5.5000000000000007E-06, 19.999380000000002, 0.2316, 5.05, 25, 0.04586138613861386
DataValue, -1.5E-06, 20.00044, 0.2422, 5.244, 25, 0.046186117467582
DataValue, -3E-06, 20.000220000000002, 0.251, 5.4625, 25, 0.045949656750572082
DataValue, -2.0000000000000003E-06, 20.00018, 0.2584, 5.6535, 25, 0.045706199699301321
DataValue, -2.6E-06, 19.999920000000003, 0.26880000000000004, 5.8515, 25, 0.0459369392463471
DataValue, -4.7000000000000007E-06, 19.99998, 0.279, 6.0255, 25, 0.046303211351755046
DataValue, -3.4000000000000005E-06, 20.000500000000002, 0.2851, 6.2025000000000006, 25, 0.045965336557839583
DataValue, -4.5E-06, 20.00008, 0.2939, 6.372, 25, 0.046123666038920277
DataValue, -6.3000000000000007E-06, 19.999200000000002, 0.30010000000000003, 6.5070000000000006, 25, 0.046119563546949439
DataValue, -4.9000000000000005E-06, 20.000140000000002, 0.3048, 6.615, 25, 0.046077097505668935
DataValue, -1.8000000000000001E-06, 20.00006, 0.3093, 6.714, 25, 0.046067917783735479
DataValue, -2.7000000000000004E-06, 19.9997, 0.31120000000000003, 6.784, 25, 0.045872641509433966
DataValue, -9.0000000000000007E-07, 19.999640000000003, 0.314, 6.839, 25, 0.045913145196666179
DataValue, -1.2000000000000002E-06, 20.000860000000003, 0.3159, 6.8735, 25, 0.04595911835309522
DataValue, -3.4000000000000005E-06, 20.00008, 0.3163, 6.894, 25, 0.045880475776037134
DataValue, -3.3E-06, 20.00054, 0.317, 6.914, 25, 0.045849002024877065
DataValue, -6E-06, 20.000400000000003, 0.3171, 6.922, 25, 0.045810459404796305
DataValue, -9.0000000000000007E-07, 20.000320000000002, 0.3166, 6.933, 25, 0.045665657002740515
DataValue, -3.2000000000000003E-06, 20.00008, 0.3189, 6.9385, 25, 0.045960942566837214
DataValue, -7.0000000000000007E-07, 20.00028, 0.3184, 6.9270000000000005, 25, 0.04596506424137433
DataValue, 2.0000000000000002E-07, 20.000420000000002, 0.3164, 6.9365000000000006, 25, 0.045613782166798816
DataValue, -5.7000000000000005E-06, 19.999840000000003, 0.3176, 6.9270000000000005, 25, 0.045849574130215093
DataValue, 1.1E-06, 20.00084, 0.3168, 6.9245, 25, 0.045750595710881657
DataValue, -4.4E-06, 19.998980000000003, 0.3178, 6.9325, 25, 0.04584204832311576
DataValue, -2.2E-06, 20.000020000000003, 0.318, 6.948, 25, 0.045768566493955096
DataValue, -3.1000000000000004E-06, 19.99958, 0.3166, 6.939, 25, 0.045626170917999712
DataValue, -2.1000000000000002E-06, 20.00034, 0.31930000000000003, 6.9485, 25, 0.0459523638195294
DataValue, -3.2000000000000003E-06, 19.999460000000003, 0.3174, 6.94, 25, 0.045734870317002879
DataValue, -3E-06, 20.000200000000003, 0.3169, 6.9485, 25, 0.045606965532129236
DataValue, -2.9E-06, 19.99996, 0.3173, 6.9375, 25, 0.045736936936936944
DataValue, -2.7000000000000004E-06, 19.99958, 0.3161, 6.9505, 25, 0.045478742536508167
DataValue, 7.0000000000000007E-07, 20.00034, 0.31930000000000003, 6.9465, 25, 0.0459655941841215
DataValue, -3.6000000000000003E-06, 19.99924, 0.3204, 6.944, 25, 0.046140552995391708
DataValue, -8.0000000000000007E-07, 20.000200000000003, 0.3183, 6.9515, 25, 0.045788678702438322
DataValue, -1.4000000000000002E-06, 20.00006, 0.3179, 6.9375, 25, 0.045823423423423423
DataValue, -4.0000000000000007E-06, 20.000480000000003, 0.31980000000000003, 6.9430000000000005, 25, 0.046060780642373615
DataValue, -4.0000000000000003E-07, 20.000140000000002, 0.3168, 6.9565, 25, 0.045540142312944731
DataValue, -3E-06, 20.00046, 0.3175, 6.95, 25, 0.04568345323741007
DataValue, -2.8000000000000003E-06, 20.000220000000002, 0.3185, 6.9485, 25, 0.045837231057062673
DataValue, -4.2000000000000004E-06, 19.999820000000003, 0.31720000000000004, 6.972, 25, 0.045496270797475619
DataValue, 1.0000000000000001E-07, 20.00054, 0.3199, 6.958, 25, 0.045975855130784712
DataValue, -2.7000000000000004E-06, 20.00024, 0.31670000000000004, 6.9525000000000006, 25, 0.045551959726717009
DataValue, -2.2E-06, 19.99986, 0.3176, 6.966, 25, 0.045592879701406831
DataValue, -5.1E-06, 19.999760000000002, 0.31770000000000004, 6.957, 25, 0.045666235446313069
DataValue, -3E-06, 19.999820000000003, 0.31820000000000004, 6.969, 25, 0.045659348543550013
DataValue, -1.9000000000000002E-06, 20.00016, 0.3174, 6.9590000000000005, 25, 0.045610001436988075
DataValue, -2.6E-06, 20.00006, 0.3191, 6.9735000000000005, 25, 0.045758944575894453
DataValue, -4.5E-06, 20.00006, 0.3183, 6.9675, 25, 0.045683530678148551
DataValue, -2.5E-06, 19.999180000000003, 0.3175, 6.964, 25, 0.045591614014933945
DataValue, -1.1E-06, 20.000100000000003, 0.3179, 6.9675, 25, 0.045626121277359169
DataValue, -4.2000000000000004E-06, 20.000140000000002, 0.3191, 6.9795, 25, 0.04571960742173508
DataValue, -1.1E-06, 20.000780000000002, 0.32030000000000003, 6.9635, 25, 0.045996984275149
DataValue, -1.1E-06, 19.99978, 0.31920000000000004, 6.9645, 25, 0.045832435925048466
DataValue, -6.0000000000000008E-07, 19.999940000000002, 0.3191, 6.9525000000000006, 25, 0.045897159295217545
DataValue, -2.5E-06, 20.00006, 0.3175, 6.9535, 25, 0.045660458761774644
DataValue, -2.8000000000000003E-06, 20.00006, 0.3174, 6.9595, 25, 0.045606724621021624
DataValue, -4.3E-06, 20.000220000000002, 0.3183, 6.9755, 25, 0.0456311375528636
DataValue, -3E-06, 19.99986, 0.31870000000000004, 6.9625, 25, 0.045773788150807904
DataValue, -2.9E-06, 20.00024, 0.3183, 6.961, 25, 0.045726188765981904
DataValue, -2.5E-06, 19.9998, 0.3181, 6.9725, 25, 0.045622086769451412
DataValue, -2.3E-06, 20.00006, 0.3174, 6.956, 25, 0.045629672225416903
DataValue, -4.5E-06, 20.000120000000003, 0.3189, 6.9675, 25, 0.045769644779332617
DataValue, -4.3E-06, 19.999920000000003, 0.3174, 6.964, 25, 0.045577254451464676
DataValue, -4.0000000000000007E-06, 19.99942, 0.3171, 6.955, 25, 0.045593098490294748
DataValue, -4.3E-06, 19.999920000000003, 0.3176, 6.944, 25, 0.045737327188940094
DataValue, -2.3E-06, 20.000020000000003, 0.318, 6.954, 25, 0.0457290767903365
DataValue, -4.4E-06, 19.99972, 0.31770000000000004, 6.9515, 25, 0.045702366395741933
DataValue, -3E-06, 20.000120000000003, 0.3191, 6.964, 25, 0.045821367030442268
DataValue, -3.9E-06, 20.000500000000002, 0.31880000000000003, 6.9665, 25, 0.045761860331586884
DataValue, -2.2E-06, 20.00016, 0.318, 6.977, 25, 0.045578328794610865
DataValue, -4.0000000000000007E-06, 20.000020000000003, 0.3189, 6.969, 25, 0.045759793370641413
DataValue, -3.6000000000000003E-06, 19.999160000000003, 0.3181, 6.9735000000000005, 25, 0.04561554456155445
DataValue, -3.8000000000000005E-06, 19.99952, 0.31820000000000004, 6.9685000000000006, 25, 0.045662624668149535
DataValue, -2.2E-06, 19.99968, 0.3173, 6.9510000000000005, 25, 0.045648108185872539
DataValue, -2.8000000000000003E-06, 19.999820000000003, 0.3174, 6.9655000000000005, 25, 0.045567439523365158
DataValue, -3.3E-06, 20.00028, 0.3204, 6.9635, 25, 0.04601134486967761
DataValue, -3.6000000000000003E-06, 19.99986, 0.319, 6.9635, 25, 0.045810296546277017
DataValue, -3.6000000000000003E-06, 20.00016, 0.3171, 6.955, 25, 0.045593098490294748
DataValue, -6.7E-06, 19.9997, 0.31820000000000004, 6.9525000000000006, 25, 0.045767709457029848
DataValue, -3.9E-06, 19.999540000000003, 0.31880000000000003, 6.969, 25, 0.045745444109628358
DataValue, -4.6E-06, 19.999560000000002, 0.318, 6.976, 25, 0.045584862385321105
DataValue, -1.2000000000000002E-06, 20.000020000000003, 0.3191, 6.9885, 25, 0.045660728339414751
DataValue, -1.0000000000000002E-06, 19.99968, 0.3181, 6.977, 25, 0.045592661602407908
DataValue, -3.8000000000000005E-06, 19.99998, 0.3183, 6.9565, 25, 0.045755767986774963
DataValue, -4.4E-06, 20.000100000000003, 0.3183, 6.9525000000000006, 25, 0.045782092772384035
DataValue, -6.0000000000000008E-07, 20.000320000000002, 0.3189, 6.9515, 25, 0.045874991009134718
DataValue, -1.9000000000000002E-06, 19.999840000000003, 0.32030000000000003, 6.979, 25, 0.045894827339160345
DataValue, -4.5E-06, 19.999460000000003, 0.3191, 6.9675, 25, 0.0457983494797273
DataValue, -2.5E-06, 19.9996, 0.319, 6.9585, 25, 0.045843213336207521
DataValue, -2.4000000000000003E-06, 20.00066, 0.3176, 6.9830000000000005, 25, 0.045481884576829439
DataValue, -1.9000000000000002E-06, 19.99944, 0.3194, 6.973, 25, 0.045805248816865055
DataValue, -4.0000000000000003E-07, 20.000600000000002, 0.3185, 6.9845, 25, 0.045600973584365385
DataValue, -1.3E-06, 19.999820000000003, 0.3184, 6.9705, 25, 0.045678215336059105
DataValue, -6.5000000000000004E-06, 19.999160000000003, 0.31930000000000003, 6.955, 25, 0.045909417685118623
DataValue, -3.6000000000000003E-06, 20.00006, 0.3194, 6.9585, 25, 0.045900696989293673
DataValue, -3.2000000000000003E-06, 20.000320000000002, 0.3183, 6.957, 25, 0.045752479517033207
DataValue, -1.8000000000000001E-06, 19.99998, 0.3171, 6.9865, 25, 0.045387533099549127
DataValue, -3.5000000000000004E-06, 19.99998, 0.3195, 6.979, 25, 0.045780197736065342
DataValue, -5E-06, 20.000020000000003, 0.3186, 6.9485, 25, 0.045851622652371013
DataValue, -2.8000000000000003E-06, 19.999280000000002, 0.31930000000000003, 6.96, 25, 0.0458764367816092
DataValue, -4.5E-06, 19.99988, 0.31820000000000004, 6.9585, 25, 0.045728246030035218
DataValue, -2.9E-06, 19.99958, 0.319, 6.9575000000000005, 25, 0.0458498023715415
DataValue, -1.5E-06, 20.000120000000003, 0.3191, 6.971, 25, 0.045775355042318173
DataValue, -4.0000000000000003E-07, 20.000020000000003, 0.3175, 6.974, 25, 0.045526240321193005
DataValue, -1.7000000000000002E-06, 19.999920000000003, 0.3183, 6.984, 25, 0.045575601374570451
DataValue, -1.1E-06, 19.99972, 0.31820000000000004, 6.964, 25, 0.045692130959218841
DataValue, -4.9000000000000005E-06, 19.9997, 0.3196, 6.9475, 25, 0.046002159050017991
DataValue, -1.6000000000000001E-06, 20.00006, 0.3166, 6.9595, 25, 0.045491773834327176
DataValue, -2.0000000000000002E-07, 20.00094, 0.3181, 6.962, 25, 0.045690893421430623
DataValue, -2.0000000000000003E-06, 20.00016, 0.319, 6.971, 25, 0.045761009898149477
DataValue, -2.0000000000000003E-06, 20.000320000000002, 0.31770000000000004, 6.9785, 25, 0.045525542738410835
DataValue, -2.6E-06, 20.00084, 0.3184, 6.9585, 25, 0.045756987856578286
DataValue, -1.6000000000000001E-06, 19.99968, 0.31970000000000004, 6.9715, 25, 0.045858136699419072
DataValue, -2.3E-06, 20.00028, 0.31880000000000003, 6.9665, 25, 0.045761860331586884
DataValue, -9.0000000000000007E-07, 19.99972, 0.3186, 6.9755, 25, 0.045674145222564688
DataValue, -3.7E-06, 20.000220000000002, 0.3189, 6.96, 25, 0.045818965517241385
DataValue, -4.0000000000000007E-06, 19.999840000000003, 0.3195, 6.952, 25, 0.045957997698504026
DataValue, -4.3E-06, 19.99998, 0.3179, 6.95, 25, 0.045741007194244607
DataValue, 3.0000000000000004E-07, 20.000200000000003, 0.3181, 6.95, 25, 0.045769784172661872
DataValue, -1.4000000000000002E-06, 19.99952, 0.3169, 6.966, 25, 0.045492391616422628
DataValue, -2.9E-06, 19.9994, 0.3183, 6.9775, 25, 0.045618058043711933
DataValue, -9.0000000000000007E-07, 19.9997, 0.3185, 6.968, 25, 0.0457089552238806
DataValue, -5.5000000000000007E-06, 20.00006, 0.3185, 6.9835, 25, 0.045607503400873488
DataValue, -8.0000000000000007E-07, 20.000380000000003, 0.3184, 6.966, 25, 0.045707723227103071
DataValue, -4.7000000000000007E-06, 19.00016, 0.0047, 0.129, 25, 0.036434108527131782
DataValue, -2.0000000000000003E-06, 18.999380000000002, 0.0132, 0.305, 25, 0.043278688524590166
DataValue, -4.3E-06, 18.9997, 0.0245, 0.511, 25, 0.047945205479452059
DataValue, -1.3E-06, 19.000120000000003, 0.0342, 0.7385, 25, 0.046310088016249154
DataValue, 3.0000000000000004E-07, 19.00006, 0.044500000000000005, 0.9415, 25, 0.047265002655337229
DataValue, -2.5E-06, 18.999540000000003, 0.054400000000000004, 1.181, 25, 0.046062658763759527
DataValue, -4.4E-06, 19.00044, 0.0656, 1.379, 25, 0.047570703408266864
DataValue, -1.6000000000000001E-06, 18.999640000000003, 0.074400000000000008, 1.6085, 25, 0.046254274168479957
DataValue, 6.0000000000000008E-07, 19.00018, 0.0838, 1.822, 25, 0.045993413830954989
DataValue, -4.4E-06, 19.00044, 0.09530000000000001, 2.035, 25, 0.046830466830466835
DataValue, -2.9E-06, 18.99978, 0.1039, 2.2395, 25, 0.046394284438490738
DataValue, -2.0000000000000003E-06, 19.00062, 0.11330000000000001, 2.4210000000000003, 25, 0.046798843453118549
DataValue, -2.8000000000000003E-06, 18.99922, 0.1241, 2.6350000000000002, 25, 0.047096774193548387
DataValue, -1.8000000000000001E-06, 19, 0.1327, 2.829, 25, 0.046907034287734184
DataValue, -2.3E-06, 19.00084, 0.1411, 3.0415, 25, 0.046391583100443862
DataValue, -4.4E-06, 18.9997, 0.15080000000000002, 3.2720000000000002, 25, 0.0460880195599022
DataValue, -1.9000000000000002E-06, 19.000300000000003, 0.1607, 3.469, 25, 0.046324589218795044
DataValue, -3.2000000000000003E-06, 19.00008, 0.1698, 3.6565, 25, 0.046437850403391226
DataValue, -4.6E-06, 19.00018, 0.17880000000000001, 3.8645, 25, 0.046267304955362923
DataValue, -3E-06, 19.00038, 0.18710000000000002, 4.0645, 25, 0.046032722352072834
DataValue, -1.1E-06, 19.000600000000002, 0.198, 4.2505, 25, 0.046582754970003533
DataValue, -2.0000000000000003E-06, 19.00094, 0.20620000000000002, 4.4505, 25, 0.046331872823278289
DataValue, -2.6E-06, 18.99988, 0.21610000000000001, 4.6695, 25, 0.046279044865617305
DataValue, -4.0000000000000007E-06, 18.99988, 0.225, 4.8260000000000005, 25, 0.046622461665975959
DataValue, -4.2000000000000004E-06, 18.9999, 0.23520000000000002, 5.041, 25, 0.046657409244197583
DataValue, -1.1E-06, 19.000040000000002, 0.2432, 5.23, 25, 0.046500956022944545
DataValue, -3.2000000000000003E-06, 19.00038, 0.2513, 5.4405, 25, 0.046190607480930068
DataValue, -3.5000000000000004E-06, 19.000200000000003, 0.2614, 5.659, 25, 0.04619190669729635
DataValue, 2.0000000000000002E-07, 19.00024, 0.2702, 5.8340000000000005, 25, 0.046314706890641065
DataValue, -2.5E-06, 18.9998, 0.2777, 6.0150000000000006, 25, 0.046167913549459677
DataValue, -3.8000000000000005E-06, 18.999080000000003, 0.2869, 6.2075000000000005, 25, 0.046218284333467571
DataValue, -2.3E-06, 18.99998, 0.2942, 6.368, 25, 0.046199748743718592
DataValue, -1.9000000000000002E-06, 18.99952, 0.3013, 6.531, 25, 0.046133823304241317
DataValue, 9.0000000000000007E-07, 18.999940000000002, 0.3064, 6.6245, 25, 0.046252547362065063
DataValue, -3.8000000000000005E-06, 19.000140000000002, 0.3098, 6.711, 25, 0.046163015943972582
DataValue, -1.2000000000000002E-06, 18.999640000000003, 0.3145, 6.797, 25, 0.046270413417684272
DataValue, -4.4E-06, 18.99996, 0.3161, 6.856, 25, 0.046105600933488915
DataValue, -2.5E-06, 19.000040000000002, 0.3184, 6.881, 25, 0.046272344136026738
DataValue, -3.7E-06, 18.99944, 0.31820000000000004, 6.8995, 25, 0.046119284006087405
DataValue, -3.9E-06, 18.999640000000003, 0.3179, 6.8915, 25, 0.046129289704708705
DataValue, -4.0000000000000003E-07, 18.999840000000003, 0.3185, 6.9125000000000005, 25, 0.046075949367088608
DataValue, -3.9E-06, 18.999540000000003, 0.32020000000000004, 6.939, 25, 0.046144977662487395
DataValue, -1.5E-06, 18.99988, 0.32, 6.923, 25, 0.046222735808175645
DataValue, -4.3E-06, 18.9995, 0.31930000000000003, 6.92, 25, 0.046141618497109828
DataValue, -2.0000000000000003E-06, 19.000420000000002, 0.3204, 6.9535, 25, 0.046077514920543614
DataValue, -4.5E-06, 18.999760000000002, 0.32020000000000004, 6.9445000000000006, 25, 0.046108431132550941
DataValue, -8.0000000000000007E-07, 18.999840000000003, 0.32, 6.957, 25, 0.045996837717406931
DataValue, -4.3E-06, 18.999640000000003, 0.3199, 6.934, 25, 0.0461349870204788
DataValue, -3.5000000000000004E-06, 18.99998, 0.31980000000000003, 6.9495000000000005, 25, 0.046017699115044247
DataValue, -3.2000000000000003E-06, 19.00006, 0.3189, 6.933, 25, 0.045997403721332757
DataValue, -1.3E-06, 19.00016, 0.3211, 6.955, 25, 0.046168224299065419
DataValue, -4.0000000000000003E-07, 19.00016, 0.32080000000000003, 6.953, 25, 0.046138357543506404
DataValue, -2.8000000000000003E-06, 18.9999, 0.31980000000000003, 6.939, 25, 0.046087332468655429
DataValue, -2.4000000000000003E-06, 18.999360000000003, 0.32080000000000003, 6.942, 25, 0.046211466436185539
DataValue, -2.3E-06, 19.00034, 0.3191, 6.953, 25, 0.045893858766000287
DataValue, -4.2000000000000004E-06, 18.999820000000003, 0.3196, 6.9565, 25, 0.045942643570761159
DataValue, 4.0000000000000003E-07, 19.00008, 0.3191, 6.941, 25, 0.045973202708543437
DataValue, -2.7000000000000004E-06, 18.999820000000003, 0.32080000000000003, 6.939, 25, 0.046231445453235341
DataValue, -3.9E-06, 19.000400000000003, 0.3209, 6.9595, 25, 0.04610963431280983
DataValue, -3.6000000000000003E-06, 19.00024, 0.3211, 6.9505, 25, 0.046198115243507663
DataValue, -5.1E-06, 18.999200000000002, 0.31970000000000004, 6.947, 25, 0.04601986468979416
DataValue, -1.5E-06, 19.000420000000002, 0.32020000000000004, 6.9395, 25, 0.046141652856834074
