
SetupTitle, ID-VGS
PrimitiveTest, Multi Channel I/V Sweep
TestParameter, Channel.UnitType, SMU, SMU
TestParameter, Channel.Unit, SMU2:MC, SMU3:UHC500
TestParameter, Channel.IName, IG, ID
TestParameter, Channel.VName, VGS, VDS
TestParameter, Channel.Mode, VPULSE, VPULSE
TestParameter, Channel.Func, VAR1, CONST
TestParameter, Channel.Index, 
TestParameter, Channel.Time, 
TestParameter, Measurement.Port.Unit, SMU2:MC, SMU3:UHC500
TestParameter, Measurement.Port.SeriesResistor, NONE, NONE
TestParameter, Measurement.Port.Filter, OFF, OFF
TestParameter, Measurement.Port.OutputVoltageComparison, 0, 0
TestParameter, Measurement.Primary.Start, 0
TestParameter, Measurement.Primary.Stop, 10
TestParameter, Measurement.Primary.Compliance, 0.099999999999999992
TestParameter, Measurement.Primary.PowerCompliance, 0
TestParameter, Measurement.Primary.Locus, Single
TestParameter, Measurement.Primary.Scale, LINEAR
TestParameter, Measurement.Primary.Count, 2001
TestParameter, Measurement.Aborting.Condition, CONTINUE AT ANY
TestParameter, Measurement.PostOutput.Value, START
TestParameter, Measurement.PostOutput.Retention, OFF
TestParameter, Measurement.Bias.Source, 0, 3
TestParameter, Measurement.Bias.Compliance, 0.099999999999999992, 5
TestParameter, Measurement.Pulse.Delay, 0, 9.9999999999999991E-05
TestParameter, Measurement.Pulse.Duration, 0.001, 4.9999999999999996E-05
TestParameter, Measurement.Pulse.Base, 0, 0
TestParameter, Measurement.Pulse.Period, 0
TestParameter, Measurement.Pulse.MeasurementDelay, 0
TestParameter, Measurement.Pulse.AveragingCount, 1
TestParameter, Measurement.Monitor.Unit, SMU2:MC, SMU3:UHC500
TestParameter, Measurement.Monitor.Adc, HS ADC, HS ADC
TestParameter, Measurement.Monitor.Measurement, Force and Compliance Sides, Force and Compliance Sides
TestParameter, Measurement.Timing.Hold, 0
TestParameter, Measurement.Timing.Delay, 0
TestParameter, Measurement.Adc.HighSpeed.Mode, TIME
TestParameter, Measurement.Adc.HighSpeed.Coeff, 9.9999999999999991E-06
TestParameter, Measurement.Adc.HighResolution.AutoZero, OFF
TestParameter, Measurement.Adc.HighResolution.Mode, AUTO
TestParameter, Measurement.Adc.HighResolution.Coeff, 6
TestParameter, Measurement.WaitTime.Source.Coeff, 1
TestParameter, Measurement.WaitTime.Source.Offset, 0
TestParameter, Measurement.WaitTime.Monitor.Coeff, 1
TestParameter, Measurement.WaitTime.Monitor.Offset, 0
TestParameter, Output.Graph.Enabled, true
TestParameter, Output.Graph.AutoScaling, false
TestParameter, Output.Graph.XAxis.Data, VGS
TestParameter, Output.Graph.XAxis.Scale, Linear
TestParameter, Output.Graph.XAxis.Left, -5.4
TestParameter, Output.Graph.XAxis.Right, 12.6
TestParameter, Output.Graph.XAxis.RunTimeAutoScale, false
TestParameter, Output.Graph.YAxis.Data, ID
TestParameter, Output.Graph.YAxis.Scale, Linear
TestParameter, Output.Graph.YAxis.Bottom, 0
TestParameter, Output.Graph.YAxis.Top, 10
TestParameter, Output.Graph.YAxis.Group, 
TestParameter, Output.Graph.YAxis.RunTimeAutoScale, false
TestParameter, Output.List.Data, VGS, ID
TestParameter, AutoAnalysis.Interpolation, false
TestParameter, AutoAnalysis.Line1.Enabled, false
TestParameter, AutoAnalysis.Line1.Type, 1
TestParameter, AutoAnalysis.Line1.Fix, True
TestParameter, AutoAnalysis.Line1.YAxis, 0
TestParameter, AutoAnalysis.Line1.Point1.Type, 0
TestParameter, AutoAnalysis.Line1.Point1.XY.X, 
TestParameter, AutoAnalysis.Line1.Point1.XY.Y, 
TestParameter, AutoAnalysis.Line1.Point1.Data.Var, 
TestParameter, AutoAnalysis.Line1.Point1.Data.Condition, 
TestParameter, AutoAnalysis.Line1.Point1.Data.Start, false
TestParameter, AutoAnalysis.Line1.Point1.Data.StartVar, 
TestParameter, AutoAnalysis.Line1.Point1.Data.StartCondition, 
TestParameter, AutoAnalysis.Line1.Point2.Type, 0
TestParameter, AutoAnalysis.Line1.Point2.XY.X, 
TestParameter, AutoAnalysis.Line1.Point2.XY.Y, 
TestParameter, AutoAnalysis.Line1.Point2.Data.Var, 
TestParameter, AutoAnalysis.Line1.Point2.Data.Condition, 
TestParameter, AutoAnalysis.Line1.Point2.Data.Start, false
TestParameter, AutoAnalysis.Line1.Point2.Data.StartVar, 
TestParameter, AutoAnalysis.Line1.Point2.Data.StartCondition, 
TestParameter, AutoAnalysis.Line1.GradientExpr, 0
TestParameter, AutoAnalysis.Line2.Enabled, false
TestParameter, AutoAnalysis.Line2.Type, 1
TestParameter, AutoAnalysis.Line2.Fix, True
TestParameter, AutoAnalysis.Line2.YAxis, 0
TestParameter, AutoAnalysis.Line2.Point1.Type, 0
TestParameter, AutoAnalysis.Line2.Point1.XY.X, 
TestParameter, AutoAnalysis.Line2.Point1.XY.Y, 
TestParameter, AutoAnalysis.Line2.Point1.Data.Var, 
TestParameter, AutoAnalysis.Line2.Point1.Data.Condition, 
TestParameter, AutoAnalysis.Line2.Point1.Data.Start, false
TestParameter, AutoAnalysis.Line2.Point1.Data.StartVar, 
TestParameter, AutoAnalysis.Line2.Point1.Data.StartCondition, 
TestParameter, AutoAnalysis.Line2.Point2.Type, 0
TestParameter, AutoAnalysis.Line2.Point2.XY.X, 
TestParameter, AutoAnalysis.Line2.Point2.XY.Y, 
TestParameter, AutoAnalysis.Line2.Point2.Data.Var, 
TestParameter, AutoAnalysis.Line2.Point2.Data.Condition, 
TestParameter, AutoAnalysis.Line2.Point2.Data.Start, false
TestParameter, AutoAnalysis.Line2.Point2.Data.StartVar, 
TestParameter, AutoAnalysis.Line2.Point2.Data.StartCondition, 
TestParameter, AutoAnalysis.Line2.GradientExpr, 0
TestParameter, AutoAnalysis.Marker.Enabled, false
TestParameter, AutoAnalysis.Marker.Data.Var, 
TestParameter, AutoAnalysis.Marker.Data.Condition, 
TestParameter, AutoAnalysis.Marker.Data.Start, false
TestParameter, AutoAnalysis.Marker.Data.StartVar, 
TestParameter, AutoAnalysis.Marker.Data.StartCondition, 
MetaData, TestRecord.EntryPoint, true
MetaData, TestRecord.RecordTime, 04/16/2021 14:22:55
MetaData, TestRecord.TestTarget, 
MetaData, TestRecord.IterationIndex, 1
MetaData, TestRecord.Preservation, true
MetaData, TestRecord.Flag, 
MetaData, TestRecord.Remarks, 
MetaData, TestRecord.LinkKey, 23aaed11-a82e-4653-be00-d1fbe44d56f5
Dimension1, 2001, 2001
Dimension2, 1, 1
DataName, VGS, ID
DataValue, -4E-05, -0.035
DataValue, 0.00542, -0.043000000000000003
DataValue, 0.0095000000000000015, -0.04
DataValue, 0.015120000000000002, -0.035
DataValue, 0.019960000000000002, -0.028
DataValue, 0.02586, -0.029
DataValue, 0.03012, -0.032
DataValue, 0.034800000000000005, -0.032
DataValue, 0.04032, -0.021500000000000002
DataValue, 0.04454, -0.05
DataValue, 0.049440000000000005, -0.027
DataValue, 0.055260000000000004, -0.0165
DataValue, 0.059340000000000004, -0.029500000000000002
DataValue, 0.06558, -0.033
DataValue, 0.0698, -0.0175
DataValue, 0.074280000000000013, -0.0485
DataValue, 0.07980000000000001, -0.0195
DataValue, 0.0845, -0.0245
DataValue, 0.090500000000000011, -0.029500000000000002
DataValue, 0.09438, -0.022
DataValue, 0.10052000000000001, -0.0245
DataValue, 0.10484, -0.026000000000000002
DataValue, 0.11062000000000001, -0.031
DataValue, 0.11544000000000002, -0.0075
DataValue, 0.12018000000000001, -0.036000000000000004
DataValue, 0.12554, -0.022
DataValue, 0.12914, -0.0455
DataValue, 0.13504000000000002, -0.0055
DataValue, 0.13972, -0.044
DataValue, 0.14508000000000001, -0.0235
DataValue, 0.15036000000000002, -0.043500000000000004
DataValue, 0.15480000000000002, -0.02
DataValue, 0.15964, -0.0385
DataValue, 0.16522, -0.007
DataValue, 0.16972, -0.0415
DataValue, 0.17476000000000003, -0.0135
DataValue, 0.18012, -0.0335
DataValue, 0.18450000000000003, -0.0245
DataValue, 0.18984, -0.034
DataValue, 0.19514, -0.026000000000000002
DataValue, 0.19912000000000002, -0.021500000000000002
DataValue, 0.20466, -0.023
DataValue, 0.2101, -0.039
DataValue, 0.21452000000000002, -0.03
DataValue, 0.2199, -0.0345
DataValue, 0.22504000000000002, -0.032
DataValue, 0.22984000000000002, -0.045
DataValue, 0.23524000000000003, -0.026000000000000002
DataValue, 0.23936000000000002, -0.0315
DataValue, 0.24520000000000003, -0.021500000000000002
DataValue, 0.25054000000000004, -0.0385
DataValue, 0.25578, -0.0385
DataValue, 0.25998000000000004, -0.0225
DataValue, 0.26522, -0.033
DataValue, 0.27024000000000004, -0.0175
DataValue, 0.27452000000000004, -0.0415
DataValue, 0.27982, -0.025500000000000002
DataValue, 0.2848, -0.0385
DataValue, 0.29014, -0.024
DataValue, 0.29426, -0.0375
DataValue, 0.29992, -0.0175
DataValue, 0.3054, -0.036000000000000004
DataValue, 0.31006, -0.0225
DataValue, 0.31508, -0.022
DataValue, 0.32048000000000004, -0.0185
DataValue, 0.3251, -0.0375
DataValue, 0.32928, -0.0285
DataValue, 0.33482, -0.053
DataValue, 0.34040000000000004, -0.032
DataValue, 0.34530000000000005, -0.035
DataValue, 0.34972000000000003, -0.0275
DataValue, 0.35454, -0.0395
DataValue, 0.36006000000000005, -0.0305
DataValue, 0.36538000000000004, -0.04
DataValue, 0.36986, -0.026000000000000002
DataValue, 0.37494000000000005, -0.035500000000000004
DataValue, 0.37992000000000004, -0.0345
DataValue, 0.38524, -0.0235
DataValue, 0.38982000000000006, -0.034
DataValue, 0.39458000000000004, -0.033
DataValue, 0.39996000000000004, -0.0405
DataValue, 0.40482, -0.012
DataValue, 0.40992, -0.047
DataValue, 0.4156, -0.0115
DataValue, 0.41942, -0.031
DataValue, 0.42526, -0.0095
DataValue, 0.42962000000000006, -0.0415
DataValue, 0.43488000000000004, -0.0395
DataValue, 0.44046, -0.04
DataValue, 0.44520000000000004, -0.0245
DataValue, 0.45, -0.0365
DataValue, 0.45504000000000006, -0.0235
DataValue, 0.45994, -0.037
DataValue, 0.46492000000000006, -0.033
DataValue, 0.47030000000000005, -0.0285
DataValue, 0.47480000000000006, -0.031
DataValue, 0.47992, -0.025
DataValue, 0.48530000000000006, -0.041
DataValue, 0.49036, -0.0195
DataValue, 0.49496000000000007, -0.0475
DataValue, 0.5001, -0.0095
DataValue, 0.50458, -0.051500000000000004
DataValue, 0.51052000000000008, -0.016
DataValue, 0.5152, -0.0415
DataValue, 0.52014, -0.0265
DataValue, 0.52492, -0.041
DataValue, 0.52942, -0.0285
DataValue, 0.53542, -0.03
DataValue, 0.54014000000000006, -0.023
DataValue, 0.54498, -0.043500000000000004
DataValue, 0.54974, -0.0265
DataValue, 0.55466, -0.0445
DataValue, 0.56034000000000006, -0.0325
DataValue, 0.56468000000000007, -0.0405
DataValue, 0.57018, -0.0245
DataValue, 0.57542, -0.054
DataValue, 0.57996, -0.015
DataValue, 0.58586, -0.046
DataValue, 0.58984, -0.022
DataValue, 0.59506, -0.0535
DataValue, 0.60020000000000007, -0.0105
DataValue, 0.60514, -0.0385
DataValue, 0.6102200000000001, -0.016
DataValue, 0.61516, -0.055
DataValue, 0.62024, -0.025500000000000002
DataValue, 0.62548, -0.043000000000000003
DataValue, 0.62916, -0.034
DataValue, 0.6349, -0.031
DataValue, 0.6404200000000001, -0.014
DataValue, 0.64516000000000007, -0.0485
DataValue, 0.64992, -0.0235
DataValue, 0.65492000000000006, -0.0375
DataValue, 0.65966, -0.0225
DataValue, 0.66548000000000007, -0.028
DataValue, 0.66978, -0.014
DataValue, 0.67482000000000009, -0.021500000000000002
DataValue, 0.68054, -0.0125
DataValue, 0.6854, -0.025500000000000002
DataValue, 0.68962, -0.043500000000000004
DataValue, 0.69488, -0.034
DataValue, 0.70012000000000008, -0.037
DataValue, 0.70498, -0.028
DataValue, 0.71016, -0.042
DataValue, 0.71470000000000011, -0.014
DataValue, 0.71948, -0.039
DataValue, 0.72514, -0.014
DataValue, 0.73020000000000007, -0.047
DataValue, 0.73554000000000008, -0.0205
DataValue, 0.7400000000000001, -0.039
DataValue, 0.74506000000000006, -0.022
DataValue, 0.75008000000000008, -0.036000000000000004
DataValue, 0.75486000000000009, -0.0305
DataValue, 0.7599, -0.0465
DataValue, 0.76488000000000012, -0.02
DataValue, 0.77024, -0.0365
DataValue, 0.77506000000000008, -0.0305
DataValue, 0.78002, -0.043500000000000004
DataValue, 0.78526000000000007, -0.0285
DataValue, 0.79034, -0.0205
DataValue, 0.79478, -0.02
DataValue, 0.80024000000000006, -0.034
DataValue, 0.80418000000000012, -0.028
DataValue, 0.81006000000000011, -0.031
DataValue, 0.81484000000000012, -0.031
DataValue, 0.81972000000000012, -0.031
DataValue, 0.82490000000000008, -0.04
DataValue, 0.83010000000000006, -0.0195
DataValue, 0.83482000000000012, -0.0535
DataValue, 0.83998000000000006, -0.017
DataValue, 0.84486, -0.0305
DataValue, 0.85030000000000006, -0.0205
DataValue, 0.85482, -0.0335
DataValue, 0.8597800000000001, -0.0345
DataValue, 0.86474000000000006, -0.0285
DataValue, 0.87020000000000008, -0.035
DataValue, 0.87546000000000013, -0.026000000000000002
DataValue, 0.87926, -0.0285
DataValue, 0.88526, -0.026000000000000002
DataValue, 0.88972000000000007, -0.0475
DataValue, 0.89488000000000012, -0.023
DataValue, 0.90010000000000012, -0.0425
DataValue, 0.9053000000000001, -0.0135
DataValue, 0.90972000000000008, -0.035500000000000004
DataValue, 0.91502000000000006, -0.018000000000000002
DataValue, 0.92002000000000006, -0.042
DataValue, 0.92524000000000006, -0.019
DataValue, 0.93086, -0.0425
DataValue, 0.9346000000000001, -0.018000000000000002
DataValue, 0.94058000000000008, -0.0365
DataValue, 0.94472000000000012, -0.025
DataValue, 0.95018, -0.022
DataValue, 0.95510000000000006, -0.043500000000000004
DataValue, 0.9600200000000001, -0.021500000000000002
DataValue, 0.96470000000000011, -0.0545
DataValue, 0.9693, -0.0175
DataValue, 0.9755, -0.035
DataValue, 0.97948000000000013, -0.023
DataValue, 0.98482, -0.013000000000000001
DataValue, 0.98924000000000012, -0.0335
DataValue, 0.99518000000000006, -0.025500000000000002
DataValue, 1.00024, -0.0535
DataValue, 1.00454, -0.0225
DataValue, 1.00986, -0.049
DataValue, 1.0155, -0.0315
DataValue, 1.0202, -0.0265
DataValue, 1.02522, -0.0395
DataValue, 1.0301200000000002, -0.0095
DataValue, 1.0351000000000001, -0.032
DataValue, 1.04028, -0.021
DataValue, 1.0448000000000002, -0.037
DataValue, 1.04946, -0.0405
DataValue, 1.0549000000000002, -0.025
DataValue, 1.0606, -0.0275
DataValue, 1.06464, -0.0205
DataValue, 1.07026, -0.035
DataValue, 1.0745600000000002, -0.03
DataValue, 1.0803200000000002, -0.037
DataValue, 1.0851000000000002, -0.0245
DataValue, 1.08968, -0.043500000000000004
DataValue, 1.0952600000000001, -0.014
DataValue, 1.1001, -0.021500000000000002
DataValue, 1.105, -0.028
DataValue, 1.11022, -0.025500000000000002
DataValue, 1.11434, -0.035
DataValue, 1.1199400000000002, -0.0225
DataValue, 1.12464, -0.0345
DataValue, 1.12986, -0.0245
DataValue, 1.1345, -0.0335
DataValue, 1.1402, -0.025500000000000002
DataValue, 1.1453200000000001, -0.035
DataValue, 1.1503, -0.026000000000000002
DataValue, 1.1549800000000001, -0.04
DataValue, 1.15978, -0.025
DataValue, 1.16456, -0.029
DataValue, 1.1704800000000002, -0.037
DataValue, 1.17588, -0.031
DataValue, 1.1802000000000001, -0.025500000000000002
DataValue, 1.1853, -0.026000000000000002
DataValue, 1.19036, -0.046
DataValue, 1.19426, -0.0195
DataValue, 1.19998, -0.0455
DataValue, 1.2053200000000002, -0.002
DataValue, 1.20948, -0.0445
DataValue, 1.21516, -0.0165
DataValue, 1.2193, -0.0305
DataValue, 1.2247800000000002, -0.024
DataValue, 1.22974, -0.04
DataValue, 1.2354200000000002, -0.0175
DataValue, 1.23956, -0.025
DataValue, 1.2441600000000002, -0.022
DataValue, 1.2496800000000001, -0.025500000000000002
DataValue, 1.25488, -0.042
DataValue, 1.2603600000000002, -0.0375
DataValue, 1.26468, -0.025500000000000002
DataValue, 1.27058, -0.0165
DataValue, 1.2754800000000002, -0.0415
DataValue, 1.2796, -0.029
DataValue, 1.2850400000000002, -0.035
DataValue, 1.2897, -0.0285
DataValue, 1.29492, -0.029500000000000002
DataValue, 1.30074, -0.032
DataValue, 1.3046000000000002, -0.04
DataValue, 1.31004, -0.022
DataValue, 1.31502, -0.0395
DataValue, 1.32014, -0.015
DataValue, 1.3248600000000002, -0.047
DataValue, 1.32996, -0.0195
DataValue, 1.33538, -0.0415
DataValue, 1.3400400000000001, -0.0095
DataValue, 1.34552, -0.0375
DataValue, 1.3503800000000001, -0.0165
DataValue, 1.35538, -0.034
DataValue, 1.3601, -0.014
DataValue, 1.3654400000000002, -0.032
DataValue, 1.3704, -0.0315
DataValue, 1.37498, -0.0315
DataValue, 1.3796000000000002, -0.0315
DataValue, 1.38436, -0.0305
DataValue, 1.3895600000000001, -0.029
DataValue, 1.3945, -0.026000000000000002
DataValue, 1.40002, -0.029500000000000002
DataValue, 1.40524, -0.0265
DataValue, 1.4102400000000002, -0.035
DataValue, 1.4150200000000002, -0.0205
DataValue, 1.42002, -0.0305
DataValue, 1.4252, -0.028
DataValue, 1.4303400000000002, -0.032
DataValue, 1.4348400000000001, -0.022
DataValue, 1.43944, -0.0305
DataValue, 1.4451200000000002, -0.0125
DataValue, 1.4504400000000002, -0.042
DataValue, 1.4543000000000002, -0.021500000000000002
DataValue, 1.4602400000000002, -0.0365
DataValue, 1.4649400000000001, -0.0225
DataValue, 1.4701000000000002, -0.055
DataValue, 1.47462, -0.0105
DataValue, 1.4800600000000002, -0.038
DataValue, 1.48492, -0.0065000000000000006
DataValue, 1.49022, -0.0365
DataValue, 1.4953, -0.0265
DataValue, 1.4996, -0.0495
DataValue, 1.5051, -0.0075
DataValue, 1.50974, -0.0325
DataValue, 1.51564, -0.019
DataValue, 1.51974, -0.0445
DataValue, 1.5253200000000002, -0.013000000000000001
DataValue, 1.5298600000000002, -0.0375
DataValue, 1.53532, -0.017
DataValue, 1.5403000000000002, -0.0375
DataValue, 1.54506, -0.0245
DataValue, 1.5499800000000001, -0.05
DataValue, 1.5545000000000002, -0.023
DataValue, 1.56, -0.0315
DataValue, 1.5641800000000001, -0.0195
DataValue, 1.5689600000000001, -0.037
DataValue, 1.57468, -0.018000000000000002
DataValue, 1.5798, -0.03
DataValue, 1.5850600000000001, -0.025
DataValue, 1.58972, -0.041
DataValue, 1.59552, -0.037
DataValue, 1.59962, -0.042
DataValue, 1.60512, -0.0485
DataValue, 1.6103, -0.0145
DataValue, 1.6150600000000002, -0.0315
DataValue, 1.6202800000000002, -0.035
DataValue, 1.6252000000000002, -0.0365
DataValue, 1.6302200000000002, -0.015
DataValue, 1.6350600000000002, -0.025500000000000002
DataValue, 1.6403, -0.0175
DataValue, 1.64542, -0.056
DataValue, 1.64986, -0.005
DataValue, 1.6554600000000002, -0.035
DataValue, 1.6600000000000001, -0.0195
DataValue, 1.66518, -0.036000000000000004
DataValue, 1.6696600000000001, -0.0205
DataValue, 1.67554, -0.047
DataValue, 1.6796600000000002, -0.0195
DataValue, 1.6845200000000002, -0.032
DataValue, 1.69022, -0.0195
DataValue, 1.6945800000000002, -0.017
DataValue, 1.70042, -0.0175
DataValue, 1.7052200000000002, -0.0185
DataValue, 1.7104000000000001, -0.038
DataValue, 1.71462, -0.017
DataValue, 1.72002, -0.029
DataValue, 1.72472, -0.0225
DataValue, 1.7294, -0.0345
DataValue, 1.7349800000000002, -0.0195
DataValue, 1.74038, -0.0365
DataValue, 1.7451200000000002, -0.0090000000000000011
DataValue, 1.7492800000000002, -0.034
DataValue, 1.75442, -0.015
DataValue, 1.76014, -0.0365
DataValue, 1.7656800000000001, -0.0155
DataValue, 1.7699000000000003, -0.028
DataValue, 1.77536, -0.0285
DataValue, 1.7802200000000001, -0.0405
DataValue, 1.7847800000000003, -0.0105
DataValue, 1.7900600000000002, -0.0205
DataValue, 1.7956800000000002, -0.036000000000000004
DataValue, 1.8002000000000002, -0.025
DataValue, 1.8051000000000002, -0.0285
DataValue, 1.8099600000000002, -0.023
DataValue, 1.81458, -0.045
DataValue, 1.8197800000000002, -0.011
DataValue, 1.8243600000000002, -0.0335
DataValue, 1.8298800000000002, -0.022
DataValue, 1.8353000000000002, -0.039
DataValue, 1.8402600000000002, -0.0235
DataValue, 1.84488, -0.0445
DataValue, 1.85024, -0.0185
DataValue, 1.8550000000000002, -0.0465
DataValue, 1.8605200000000002, -0.0145
DataValue, 1.8651400000000002, -0.045
DataValue, 1.8696000000000002, -0.0185
DataValue, 1.87508, -0.048
DataValue, 1.8798000000000001, -0.023
DataValue, 1.8850600000000002, -0.0395
DataValue, 1.88982, -0.022
DataValue, 1.8953400000000003, -0.0325
DataValue, 1.9004200000000002, -0.023
DataValue, 1.9046200000000002, -0.0405
DataValue, 1.9098800000000002, -0.023
DataValue, 1.9149800000000001, -0.03
DataValue, 1.92026, -0.0425
