
SetupTitle, Rds-Id
ApplicationTest, Rds-Id, Public
TestParameter, Name, Memo, Scale, HoldTime, PulseBase, PulseAvgCnt, Gate, VgStart, VgStop, VgStep, IgLimit, Source, MeasurementTime, Drain, IdStart, IdStop, IdLinearStep, VdLimit, VdStop, PulsePeriodMode, ManualPulsePeriod, PulseWidth
TestParameter, Value, , LINEAR, 0, 0, 1, SMU2:MC	MCSMU, 15, 5, 1, 0.1, GNDU:GND	GNDU, 1E-05, SMU3:UHC500	UHCU500A, 0.5, 30, 0.2, 2, 0, 0, 0.05, 0.0002
DutParameter, Name, Polarity, Temp, YAxisRdsMin, YAxisRdsMax
DutParameter, Value, 1, 25, 0.001, 1
MetaData, TestRecord.EntryPoint, true
MetaData, TestRecord.RecordTime, 04/30/2021 09:07:43
MetaData, TestRecord.TestTarget, 
MetaData, TestRecord.IterationIndex, 1
MetaData, TestRecord.Preservation, true
MetaData, TestRecord.Flag, 
MetaData, TestRecord.Remarks, 
MetaData, TestRecord.LinkKey, b2dde06d-1c01-49f0-b10d-4bcb40c325fa
Dimension1, 148, 148, 148, 148, 148, 148
Dimension2, 11, 11, 11, 11, 11, 11
DataName, Igate, Vgate, Vdrain, Idrain, Ta, Rds
DataValue, 8.0000000000000007E-07, 14.99994, 0.0076, 0.10400000000000001, 25, 0.073076923076923067
DataValue, -1.0000000000000001E-07, 15.000700000000002, 0.016, 0.28300000000000003, 25, 0.056537102473498226
DataValue, -9.0000000000000007E-07, 14.9998, 0.028, 0.524, 25, 0.053435114503816793
DataValue, -2.0000000000000002E-07, 15.000240000000002, 0.0369, 0.7255, 25, 0.050861474844934529
DataValue, 8.0000000000000007E-07, 14.999480000000002, 0.0488, 0.967, 25, 0.050465356773526378
DataValue, -1.1E-06, 14.999200000000002, 0.058100000000000006, 1.1865, 25, 0.048967551622418878
DataValue, 1.4000000000000002E-06, 14.999500000000001, 0.0678, 1.4065, 25, 0.048204763597582648
DataValue, 8.0000000000000007E-07, 15.000060000000001, 0.078, 1.623, 25, 0.048059149722735672
DataValue, 1.4000000000000002E-06, 14.999860000000002, 0.0876, 1.823, 25, 0.048052660449808007
DataValue, -2.0000000000000002E-07, 14.999620000000002, 0.09820000000000001, 2.049, 25, 0.04792581747193754
DataValue, 3.0000000000000004E-07, 15.000020000000001, 0.1061, 2.25, 25, 0.047155555555555555
DataValue, -4.0000000000000003E-07, 14.999880000000001, 0.11620000000000001, 2.4665, 25, 0.04711129130346646
DataValue, -1.0000000000000001E-07, 15.000000000000002, 0.12660000000000002, 2.6535, 25, 0.047710570944036183
DataValue, -1.5E-06, 14.999500000000001, 0.1336, 2.8415, 25, 0.047017420376561675
DataValue, -1.0000000000000001E-07, 14.999540000000001, 0.1443, 3.0660000000000003, 25, 0.047064579256360081
DataValue, 1.7000000000000002E-06, 15.00054, 0.154, 3.2840000000000003, 25, 0.046894031668696705
DataValue, -3.0000000000000004E-07, 14.999740000000001, 0.1631, 3.476, 25, 0.046921749136939007
DataValue, 2.0000000000000003E-06, 15.000320000000002, 0.1731, 3.69, 25, 0.046910569105691059
DataValue, 8.0000000000000007E-07, 14.999500000000001, 0.1816, 3.862, 25, 0.047022268254790264
DataValue, 5.0000000000000008E-07, 15.000060000000001, 0.19090000000000001, 4.057, 25, 0.047054473749075669
DataValue, -4.0000000000000003E-07, 14.999400000000001, 0.19990000000000002, 4.2755, 25, 0.046754765524500065
DataValue, 2.3E-06, 14.99984, 0.2073, 4.483, 25, 0.046241356234664292
DataValue, 1.1E-06, 15.000200000000001, 0.21910000000000002, 4.6825, 25, 0.046791243993593169
DataValue, -2.0000000000000002E-07, 15.00012, 0.2283, 4.86, 25, 0.046975308641975307
DataValue, 1.1E-06, 14.999920000000001, 0.2369, 5.0555, 25, 0.046859855602808816
DataValue, -7.0000000000000007E-07, 15.00008, 0.24630000000000002, 5.2495, 25, 0.04691875416706353
DataValue, -1.0000000000000002E-06, 14.999820000000002, 0.2561, 5.4775, 25, 0.046754906435417617
DataValue, 1.8000000000000001E-06, 15.000300000000001, 0.26580000000000004, 5.6635, 25, 0.046932109119802251
DataValue, 1.0000000000000001E-07, 14.999780000000001, 0.2746, 5.867, 25, 0.046804158854610534
DataValue, 6.0000000000000008E-07, 14.999740000000001, 0.28240000000000004, 6.0575, 25, 0.046619892695006195
DataValue, 1.0000000000000002E-06, 14.999820000000002, 0.2901, 6.2115, 25, 0.046703694759719881
DataValue, 1.0000000000000001E-07, 14.999760000000002, 0.2978, 6.356, 25, 0.046853366897419764
DataValue, -1.5E-06, 15.000020000000001, 0.3032, 6.5015, 25, 0.046635391832654007
DataValue, 3.0000000000000004E-07, 14.99984, 0.3059, 6.6215, 25, 0.046197991391678621
DataValue, 1.6000000000000001E-06, 14.999900000000002, 0.30920000000000003, 6.6545000000000005, 25, 0.046464798256818693
DataValue, -2.0000000000000002E-07, 14.999860000000002, 0.31020000000000003, 6.6985, 25, 0.046308875121295813
DataValue, 2.1000000000000002E-06, 14.99984, 0.3118, 6.742, 25, 0.046247404331059033
DataValue, 9.0000000000000007E-07, 15.000280000000002, 0.3133, 6.7730000000000006, 25, 0.046257197696737043
DataValue, 1.1E-06, 15.000580000000001, 0.3131, 6.7785, 25, 0.046190160064911112
DataValue, -2.0000000000000002E-07, 15.000020000000001, 0.3136, 6.7835, 25, 0.0462298223630869
DataValue, 9.0000000000000007E-07, 14.9998, 0.3153, 6.798, 25, 0.046381288614298327
DataValue, -1.4000000000000002E-06, 15.000020000000001, 0.315, 6.8135, 25, 0.04623174579878183
DataValue, -8.0000000000000007E-07, 14.999640000000001, 0.31370000000000003, 6.8025, 25, 0.046115398750459391
DataValue, -4.0000000000000003E-07, 15.00046, 0.3143, 6.7935, 25, 0.046264811952601757
DataValue, -4.0000000000000003E-07, 14.9997, 0.3129, 6.8265, 25, 0.045836079982421445
DataValue, -2.0000000000000002E-07, 14.999780000000001, 0.31320000000000003, 6.8100000000000005, 25, 0.045991189427312777
DataValue, 4.0000000000000003E-07, 14.999440000000002, 0.3166, 6.8345, 25, 0.046323798375887043
DataValue, -1.6000000000000001E-06, 14.999900000000002, 0.3134, 6.8225, 25, 0.045936240381091981
DataValue, -1.1E-06, 15.000020000000001, 0.31370000000000003, 6.8265, 25, 0.045953270343514249
DataValue, -2.0000000000000002E-07, 15.00026, 0.315, 6.832, 25, 0.046106557377049183
DataValue, -5.0000000000000008E-07, 15.000840000000002, 0.3139, 6.801, 25, 0.046154977209233936
DataValue, 2.0000000000000002E-07, 15.000520000000002, 0.3161, 6.843, 25, 0.046193190121291833
DataValue, 1.4000000000000002E-06, 15.000140000000002, 0.3159, 6.8525, 25, 0.046099963516964611
DataValue, 9.0000000000000007E-07, 14.9998, 0.3149, 6.8245000000000005, 25, 0.046142574547585906
DataValue, -1.5E-06, 14.99998, 0.31470000000000004, 6.8145, 25, 0.04618093770636144
DataValue, 0, 14.99998, 0.3155, 6.8225, 25, 0.04624404543788934
DataValue, -3.0000000000000004E-07, 15.000320000000002, 0.3165, 6.8345, 25, 0.046309166727631863
DataValue, 1.9000000000000002E-06, 15.000200000000001, 0.3148, 6.812, 25, 0.046212566059894308
DataValue, 4.0000000000000003E-07, 14.999440000000002, 0.3145, 6.8500000000000005, 25, 0.045912408759124085
DataValue, 6.0000000000000008E-07, 14.999860000000002, 0.3139, 6.835, 25, 0.045925384052670083
DataValue, -9.0000000000000007E-07, 15.00022, 0.3153, 6.819, 25, 0.046238451385833705
DataValue, -3.0000000000000004E-07, 15.00022, 0.31570000000000004, 6.8225, 25, 0.046273360205203375
DataValue, 4.0000000000000003E-07, 14.998880000000002, 0.3145, 6.836, 25, 0.046006436512580455
DataValue, -1.8000000000000001E-06, 15.000060000000001, 0.3156, 6.8395, 25, 0.046143723956429558
DataValue, 9.0000000000000007E-07, 14.99998, 0.3155, 6.8365, 25, 0.046149345425290721
DataValue, 5.0000000000000008E-07, 15.00054, 0.315, 6.8485000000000005, 25, 0.0459954734613419
DataValue, 7.0000000000000007E-07, 14.999860000000002, 0.31370000000000003, 6.8355000000000006, 25, 0.045892765708433911
DataValue, 6.0000000000000008E-07, 15.00022, 0.3155, 6.8295, 25, 0.046196646899480193
DataValue, -1.2000000000000002E-06, 15.000040000000002, 0.31670000000000004, 6.8355000000000006, 25, 0.046331650939945873
DataValue, 2.0000000000000002E-07, 14.99952, 0.31470000000000004, 6.8375, 25, 0.046025594149908595
DataValue, 0, 14.9998, 0.3138, 6.816, 25, 0.0460387323943662
DataValue, 1.7000000000000002E-06, 15.000020000000001, 0.3153, 6.8455, 25, 0.046059455116499892
DataValue, -1.5E-06, 15.000160000000001, 0.3153, 6.8505, 25, 0.046025837530107291
DataValue, 5.0000000000000008E-07, 15.000200000000001, 0.315, 6.8340000000000005, 25, 0.046093064091308159
DataValue, 9.0000000000000007E-07, 15.000200000000001, 0.3146, 6.8355000000000006, 25, 0.046024431277887495
DataValue, 5.0000000000000008E-07, 14.999960000000002, 0.3149, 6.845, 25, 0.046004382761139523
DataValue, 2.0000000000000002E-07, 15.000040000000002, 0.3165, 6.8205, 25, 0.046404222564328128
DataValue, 9.0000000000000007E-07, 15.00022, 0.31520000000000004, 6.837, 25, 0.046102091560626016
DataValue, 3.2000000000000003E-06, 14.999620000000002, 0.31520000000000004, 6.841, 25, 0.046075135214149979
DataValue, -7.0000000000000007E-07, 15.0006, 0.31470000000000004, 6.8345, 25, 0.046045797059038704
DataValue, 1.0000000000000002E-06, 14.99876, 0.3141, 6.8595, 25, 0.045790509512355131
DataValue, 0, 14.99994, 0.3151, 6.832, 25, 0.0461211943793911
DataValue, 1.6000000000000001E-06, 14.999740000000001, 0.31520000000000004, 6.8235, 25, 0.046193302557338611
DataValue, 1.5E-06, 14.999720000000002, 0.3165, 6.8445, 25, 0.046241507779969319
DataValue, 2.1000000000000002E-06, 15.000000000000002, 0.3156, 6.8185, 25, 0.046285839994133604
DataValue, -7.0000000000000007E-07, 15.000040000000002, 0.31570000000000004, 6.8225, 25, 0.046273360205203375
DataValue, 1.3E-06, 14.999920000000001, 0.3156, 6.8325000000000005, 25, 0.046190998902305158
DataValue, -7.0000000000000007E-07, 15.000160000000001, 0.3163, 6.8305, 25, 0.04630700534367909
DataValue, 0, 14.99984, 0.3153, 6.8205, 25, 0.046228282383989447
DataValue, 7.0000000000000007E-07, 14.999880000000001, 0.3145, 6.8465, 25, 0.045935879646534727
DataValue, -4.0000000000000003E-07, 14.999880000000001, 0.3156, 6.822, 25, 0.046262093227792435
DataValue, 1.0000000000000001E-07, 15.000280000000002, 0.315, 6.8485000000000005, 25, 0.0459954734613419
DataValue, 2.3E-06, 15.000000000000002, 0.3143, 6.8465, 25, 0.04590666764040021
DataValue, 7.0000000000000007E-07, 14.99966, 0.3145, 6.8205, 25, 0.046110988930430322
DataValue, -1.4000000000000002E-06, 15.000380000000002, 0.31420000000000003, 6.8425, 25, 0.045918889294848379
DataValue, 2.2E-06, 15.0004, 0.3153, 6.846, 25, 0.046056091148115694
DataValue, 1.1E-06, 14.999580000000002, 0.3165, 6.8295, 25, 0.046343070502965079
DataValue, 8.0000000000000007E-07, 15.0004, 0.3141, 6.843, 25, 0.045900920648838231
DataValue, 8.0000000000000007E-07, 15.000180000000002, 0.3149, 6.8285, 25, 0.046115545141685588
DataValue, 1.4000000000000002E-06, 15.000140000000002, 0.316, 6.8465, 25, 0.046154969692543638
DataValue, 1.4000000000000002E-06, 14.99938, 0.314, 6.837, 25, 0.045926575983618545
DataValue, 2.0000000000000002E-07, 14.999960000000002, 0.3153, 6.8555, 25, 0.045992268981110057
DataValue, 1.7000000000000002E-06, 14.9998, 0.3159, 6.8340000000000005, 25, 0.046224758560140473
DataValue, 9.0000000000000007E-07, 15.000140000000002, 0.31420000000000003, 6.8275000000000006, 25, 0.046019772976931529
DataValue, -3.0000000000000004E-07, 14.999860000000002, 0.3156, 6.8325000000000005, 25, 0.046190998902305158
DataValue, 1.5E-06, 15.0004, 0.3166, 6.8495, 25, 0.046222351996496096
DataValue, -8.0000000000000007E-07, 15.000140000000002, 0.31470000000000004, 6.829, 25, 0.046082881827500373
DataValue, -7.0000000000000007E-07, 14.999620000000002, 0.315, 6.8155, 25, 0.046218179150465846
DataValue, 7.0000000000000007E-07, 15.00012, 0.3159, 6.8365, 25, 0.046207854896511372
DataValue, 3.5000000000000004E-06, 14.999900000000002, 0.3161, 6.8285, 25, 0.046291279197481147
DataValue, 1.3E-06, 15.000560000000002, 0.3154, 6.843, 25, 0.04609089580593307
DataValue, -1.0000000000000002E-06, 14.999740000000001, 0.314, 6.8355000000000006, 25, 0.045936654231585106
DataValue, -5.0000000000000008E-07, 15.000320000000002, 0.3141, 6.8315, 25, 0.045978189270292028
DataValue, -1.2000000000000002E-06, 15.000320000000002, 0.3143, 6.8415, 25, 0.045940217788496676
DataValue, 1.0000000000000001E-07, 15.000060000000001, 0.3163, 6.8175, 25, 0.0463953061972864
DataValue, 1.0000000000000002E-06, 15.000180000000002, 0.3133, 6.8555, 25, 0.045700532419225441
DataValue, 7.0000000000000007E-07, 15.00102, 0.3155, 6.828, 25, 0.046206795547744581
DataValue, 1.1E-06, 14.99998, 0.3163, 6.8255, 25, 0.046340927404585751
DataValue, 2.4000000000000003E-06, 14.999400000000001, 0.3153, 6.8375, 25, 0.046113345521023766
DataValue, 2.6E-06, 15.000520000000002, 0.3166, 6.831, 25, 0.046347533304055041
DataValue, -1.4000000000000002E-06, 14.999580000000002, 0.3158, 6.846, 25, 0.046129126497224657
DataValue, 9.0000000000000007E-07, 14.999760000000002, 0.31420000000000003, 6.827, 25, 0.046023143401201116
DataValue, -5.0000000000000008E-07, 15.00008, 0.3156, 6.855, 25, 0.046039387308533915
DataValue, -1.0000000000000001E-07, 14.999600000000001, 0.3144, 6.847, 25, 0.045917920257046878
DataValue, -2.5E-06, 15.0004, 0.3141, 6.84, 25, 0.045921052631578946
DataValue, -1.3E-06, 14.999820000000002, 0.3166, 6.8425, 25, 0.046269638290098648
DataValue, 1.9000000000000002E-06, 14.999460000000001, 0.3165, 6.8395, 25, 0.046275312522845238
DataValue, 7.0000000000000007E-07, 15.00026, 0.313, 6.844, 25, 0.045733489187609583
DataValue, 2.5E-06, 14.999540000000001, 0.3158, 6.829, 25, 0.046243959584126526
DataValue, -5.0000000000000008E-07, 14.999880000000001, 0.31520000000000004, 6.846, 25, 0.0460414840782939
DataValue, 8.0000000000000007E-07, 14.999880000000001, 0.314, 6.83, 25, 0.045973645680819915
DataValue, 4.0000000000000003E-07, 15.000240000000002, 0.3168, 6.8435000000000006, 25, 0.04629210199459341
DataValue, -1.3E-06, 14.999160000000002, 0.3159, 6.8605, 25, 0.04604620654471249
DataValue, 5.0000000000000008E-07, 14.999860000000002, 0.31620000000000004, 6.8340000000000005, 25, 0.046268656716417909
DataValue, 8.0000000000000007E-07, 14.9997, 0.3154, 6.8355000000000006, 25, 0.046141467339624022
DataValue, -2.0000000000000002E-07, 15.000100000000002, 0.31320000000000003, 6.841, 25, 0.04578278029527847
DataValue, 8.0000000000000007E-07, 14.99998, 0.3168, 6.8165000000000004, 25, 0.046475463947773785
DataValue, 1.3E-06, 15.000180000000002, 0.3149, 6.8345, 25, 0.04607506035554905
DataValue, 1.6000000000000001E-06, 14.999960000000002, 0.3161, 6.8085, 25, 0.046427260042593815
DataValue, 1.0000000000000001E-07, 15.00026, 0.3164, 6.857, 25, 0.046142627971416071
DataValue, -6.0000000000000008E-07, 14.999220000000001, 0.31670000000000004, 6.8395, 25, 0.046304554426493172
DataValue, 5.0000000000000008E-07, 15.000300000000001, 0.31520000000000004, 6.8345, 25, 0.046118955300314582
DataValue, 6.0000000000000008E-07, 15.000200000000001, 0.3148, 6.8495, 25, 0.045959559091904523
DataValue, 6.0000000000000008E-07, 14.99998, 0.3155, 6.8215, 25, 0.0462508245986953
DataValue, -1.0000000000000001E-07, 14.999880000000001, 0.3158, 6.833, 25, 0.0462168886287136
DataValue, 5.0000000000000008E-07, 15.00012, 0.3153, 6.8515, 25, 0.046019119900751665
DataValue, -1.9000000000000002E-06, 14.999960000000002, 0.3159, 6.8205, 25, 0.046316252474158791
DataValue, -2.0000000000000002E-07, 14.998920000000002, 0.31570000000000004, 6.844, 25, 0.046127995324371715
DataValue, 5.0000000000000008E-07, 13.999640000000001, 0.0068000000000000005, 0.1145, 25, 0.059388646288209612
DataValue, 1.7000000000000002E-06, 14.000140000000002, 0.0173, 0.2925, 25, 0.059145299145299146
DataValue, -4.0000000000000003E-07, 14.000200000000001, 0.029500000000000002, 0.5255, 25, 0.056137012369172228
DataValue, 8.0000000000000007E-07, 13.99984, 0.040600000000000004, 0.733, 25, 0.055388813096862215
DataValue, 1.8000000000000001E-06, 13.99966, 0.05, 0.96, 25, 0.052083333333333336
DataValue, 1.0000000000000001E-07, 14.000480000000001, 0.0621, 1.1725, 25, 0.0529637526652452
DataValue, -2.0000000000000002E-07, 13.999720000000002, 0.0733, 1.4135, 25, 0.051857092324018396
DataValue, -9.0000000000000007E-07, 13.999620000000002, 0.0849, 1.6145, 25, 0.052585939919479713
DataValue, 1.4000000000000002E-06, 14.0004, 0.0931, 1.8105, 25, 0.051422259044462855
DataValue, -2.0000000000000002E-07, 14.00012, 0.10250000000000001, 2.0395, 25, 0.050257416033341509
DataValue, -1.7000000000000002E-06, 14.000240000000002, 0.11370000000000001, 2.2185, 25, 0.051250845165652467
DataValue, 8.0000000000000007E-07, 14.00054, 0.1246, 2.4505, 25, 0.050846765966129366
DataValue, 7.0000000000000007E-07, 13.9997, 0.1325, 2.6465, 25, 0.050066125070848289
DataValue, -1.5E-06, 13.999880000000001, 0.1438, 2.869, 25, 0.050121993726036949
DataValue, 1.9000000000000002E-06, 14.000020000000001, 0.1545, 3.0335, 25, 0.05093126751277402
DataValue, 2.3E-06, 14.00012, 0.1628, 3.266, 25, 0.049846907532149418
DataValue, 0, 13.999820000000002, 0.17470000000000002, 3.4410000000000003, 25, 0.050770124963673356
DataValue, -3.0000000000000004E-07, 14.00074, 0.18460000000000001, 3.6870000000000003, 25, 0.050067805804176836
DataValue, -1.4000000000000002E-06, 13.999480000000002, 0.194, 3.861, 25, 0.050246050246050243
DataValue, -1.3E-06, 13.999440000000002, 0.20320000000000002, 4.0775, 25, 0.049834457388105463
DataValue, 3.6000000000000003E-06, 13.999880000000001, 0.21380000000000002, 4.2745, 25, 0.050017545911802561
DataValue, 3.0000000000000004E-07, 13.999680000000002, 0.2247, 4.4695, 25, 0.050274079874706348
DataValue, -6.0000000000000008E-07, 13.9997, 0.23570000000000002, 4.666, 25, 0.0505143591941706
DataValue, 1.4000000000000002E-06, 13.999360000000001, 0.24550000000000002, 4.8785, 25, 0.050322845136824848
DataValue, -7.0000000000000007E-07, 14.000280000000002, 0.25470000000000004, 5.065, 25, 0.0502862783810464
DataValue, 8.0000000000000007E-07, 14.00026, 0.26380000000000003, 5.2545, 25, 0.050204586544866307
DataValue, -9.0000000000000007E-07, 13.999500000000001, 0.2737, 5.446, 25, 0.050257069408740362
DataValue, -3.0000000000000004E-07, 13.999920000000001, 0.2857, 5.656, 25, 0.050512729844413018
DataValue, -1.0000000000000001E-07, 13.999440000000002, 0.2949, 5.848, 25, 0.050427496580027362
DataValue, 1.0000000000000002E-06, 14.000020000000001, 0.3042, 6.027, 25, 0.050472872075659536
DataValue, 1.0000000000000001E-07, 14.000020000000001, 0.31170000000000003, 6.2135, 25, 0.050164963386175272
DataValue, -3.0000000000000004E-07, 13.999740000000001, 0.3206, 6.322, 25, 0.050711800063271119
DataValue, -1.7000000000000002E-06, 13.9997, 0.3231, 6.4595, 25, 0.0500193513429832
DataValue, -1.7000000000000002E-06, 13.999440000000002, 0.3267, 6.5245, 25, 0.050072802513602577
DataValue, 1.0000000000000002E-06, 14.00026, 0.32880000000000004, 6.6115, 25, 0.049731528397489226
DataValue, 2.1000000000000002E-06, 14.00008, 0.3299, 6.65, 25, 0.049609022556390978
DataValue, 5.0000000000000008E-07, 14.000800000000002, 0.3331, 6.667, 25, 0.049962501874906258
DataValue, 3.0000000000000004E-07, 13.9997, 0.334, 6.697, 25, 0.04987307749738689
DataValue, -9.0000000000000007E-07, 14.00022, 0.3322, 6.7005, 25, 0.049578389672412508
DataValue, -5.0000000000000008E-07, 14.00004, 0.3335, 6.7295, 25, 0.049557916635708452
DataValue, -1.2000000000000002E-06, 14.000060000000001, 0.3321, 6.719, 25, 0.049426998065188271
DataValue, 1.9000000000000002E-06, 13.999360000000001, 0.33540000000000003, 6.7410000000000005, 25, 0.049755229194481533
DataValue, 0, 13.999740000000001, 0.33290000000000003, 6.7445, 25, 0.04935873674846171
DataValue, -1.3E-06, 14.000160000000001, 0.333, 6.74, 25, 0.049406528189910981
DataValue, -9.0000000000000007E-07, 14.000060000000001, 0.3352, 6.7485, 25, 0.049670297103059938
DataValue, 4.0000000000000003E-07, 14.001420000000001, 0.334, 6.7305, 25, 0.049624842136542606
DataValue, 0, 14.000300000000001, 0.3351, 6.759, 25, 0.049578339991122947
DataValue, 2.2E-06, 13.999220000000001, 0.33380000000000004, 6.7495, 25, 0.049455515223349879
DataValue, 2.0000000000000002E-07, 13.999820000000002, 0.334, 6.7575, 25, 0.049426563078061411
DataValue, -3.0000000000000004E-07, 13.99966, 0.3341, 6.747, 25, 0.049518304431599235
