
SetupTitle, Rds-Id
ApplicationTest, Rds-Id, Public
TestParameter, Name, Memo, Scale, HoldTime, PulseBase, PulseAvgCnt, Gate, VgStart, VgStop, VgStep, IgLimit, Source, MeasurementTime, Drain, IdStart, IdStop, IdLinearStep, VdLimit, VdStop, PulsePeriodMode, ManualPulsePeriod, PulseWidth
TestParameter, Value, , LINEAR, 0, 0, 1, SMU2:MC	MCSMU, 15, 5, 1, 0.1, GNDU:GND	GNDU, 1E-05, SMU3:UHC500	UHCU500A, 0.5, 15, 0.1, 5, 0, 0, 0.05, 0.0002
DutParameter, Name, Polarity, Temp, YAxisRdsMin, YAxisRdsMax
DutParameter, Value, 1, 25, 0.001, 10
MetaData, TestRecord.EntryPoint, true
MetaData, TestRecord.RecordTime, 12/24/2020 08:46:31
MetaData, TestRecord.TestTarget, 
MetaData, TestRecord.IterationIndex, 1
MetaData, TestRecord.Preservation, true
MetaData, TestRecord.Flag, 
MetaData, TestRecord.Remarks, 
MetaData, TestRecord.LinkKey, b14d45bd-e844-48a2-a04a-528ea5c3fd71
Dimension1, 146, 146, 146, 146, 146, 146
Dimension2, 11, 11, 11, 11, 11, 11
DataName, Igate, Vgate, Vdrain, Idrain, Ta, Rds
DataValue, -1.9000000000000002E-06, 14.99942, 0.007, 0.094, 25, 0.074468085106382975
DataValue, -9.0000000000000007E-07, 15.000140000000002, 0.0125, 0.169, 25, 0.073964497041420121
DataValue, -2.7000000000000004E-06, 14.999740000000001, 0.019100000000000002, 0.23550000000000002, 25, 0.081104033970276018
DataValue, -1.9000000000000002E-06, 15.0004, 0.027100000000000003, 0.356, 25, 0.076123595505618
DataValue, -1.8000000000000001E-06, 15.000380000000002, 0.0344, 0.4455, 25, 0.077216610549943887
DataValue, -1.8000000000000001E-06, 14.999720000000002, 0.042800000000000005, 0.5655, 25, 0.075685234305923971
DataValue, -1.5E-06, 15.000440000000001, 0.049800000000000004, 0.679, 25, 0.073343151693667161
DataValue, -1.5E-06, 15.00008, 0.0596, 0.76550000000000007, 25, 0.077857609405617242
DataValue, -2.0000000000000003E-06, 14.999720000000002, 0.0646, 0.87550000000000006, 25, 0.073786407766990289
DataValue, -1.2000000000000002E-06, 14.999760000000002, 0.0728, 0.986, 25, 0.073833671399594319
DataValue, -2.3E-06, 15.00008, 0.07980000000000001, 1.0695000000000001, 25, 0.074614305750350635
DataValue, -1.4000000000000002E-06, 14.999920000000001, 0.08610000000000001, 1.16, 25, 0.0742241379310345
DataValue, -1.6000000000000001E-06, 14.999200000000002, 0.0918, 1.2510000000000001, 25, 0.073381294964028773
DataValue, -4.0000000000000003E-07, 15.000560000000002, 0.10110000000000001, 1.363, 25, 0.074174614820249452
DataValue, -1.2000000000000002E-06, 15.000300000000001, 0.1076, 1.4595, 25, 0.073723878040424809
DataValue, -1.8000000000000001E-06, 14.999640000000001, 0.1149, 1.559, 25, 0.0737010904425914
DataValue, -1.9000000000000002E-06, 14.999900000000002, 0.12290000000000001, 1.6665, 25, 0.073747374737473753
DataValue, -1.6000000000000001E-06, 15.00012, 0.1298, 1.7570000000000001, 25, 0.0738759248719408
DataValue, -1.3E-06, 15.0005, 0.1378, 1.8475000000000001, 25, 0.0745872801082544
DataValue, -1.7000000000000002E-06, 14.999220000000001, 0.1441, 1.9715, 25, 0.073091554653816893
DataValue, -1.0000000000000002E-06, 15.000160000000001, 0.1507, 2.068, 25, 0.072872340425531909
DataValue, -1.0000000000000002E-06, 15.00064, 0.1574, 2.133, 25, 0.073792780121894053
DataValue, -1.3E-06, 14.9998, 0.16770000000000002, 2.2355, 25, 0.07501677477074481
DataValue, -8.0000000000000007E-07, 15.000040000000002, 0.1734, 2.345, 25, 0.073944562899786778
DataValue, -1.9000000000000002E-06, 15.000100000000002, 0.1807, 2.453, 25, 0.073664900122299232
DataValue, -7.0000000000000007E-07, 14.99994, 0.18860000000000002, 2.539, 25, 0.07428121307601418
DataValue, -1.6000000000000001E-06, 14.99952, 0.19240000000000002, 2.6155, 25, 0.073561460523800429
DataValue, -2.1000000000000002E-06, 14.999920000000001, 0.2005, 2.715, 25, 0.073848987108655631
DataValue, -9.0000000000000007E-07, 14.999960000000002, 0.2083, 2.8205, 25, 0.0738521538734267
DataValue, -1.3E-06, 15.000180000000002, 0.2149, 2.9365, 25, 0.0731823599523242
DataValue, -1.0000000000000002E-06, 14.999860000000002, 0.22190000000000001, 3.031, 25, 0.073210161662817547
DataValue, -1.7000000000000002E-06, 15.000620000000001, 0.23070000000000002, 3.119, 25, 0.073966014748316766
DataValue, -1.1E-06, 14.99928, 0.2373, 3.2125, 25, 0.073867704280155641
DataValue, -2.1000000000000002E-06, 15.000340000000001, 0.24430000000000002, 3.323, 25, 0.073517905507071934
DataValue, -1.4000000000000002E-06, 14.999920000000001, 0.2514, 3.4065, 25, 0.073800088066930877
DataValue, -8.0000000000000007E-07, 15.0005, 0.258, 3.5015, 25, 0.073682707411109521
DataValue, -7.0000000000000007E-07, 15.000380000000002, 0.2654, 3.6065, 25, 0.073589352557881613
DataValue, -2.3E-06, 14.999900000000002, 0.2716, 3.6985, 25, 0.073435176422874143
DataValue, -1.0000000000000001E-07, 15.0006, 0.2793, 3.8185000000000002, 25, 0.073143904674610447
DataValue, -2.6E-06, 15.000380000000002, 0.2858, 3.9095, 25, 0.073103977490727709
DataValue, -2.0000000000000003E-06, 14.999680000000002, 0.2938, 3.99, 25, 0.07363408521303258
DataValue, -1.4000000000000002E-06, 14.999580000000002, 0.2993, 4.071, 25, 0.073520019651191357
DataValue, -1.5E-06, 15.000060000000001, 0.3079, 4.167, 25, 0.073890088792896574
DataValue, -1.8000000000000001E-06, 14.999680000000002, 0.3163, 4.2780000000000005, 25, 0.073936418887330532
DataValue, -1.8000000000000001E-06, 14.99924, 0.32180000000000003, 4.3585, 25, 0.073832740621773543
DataValue, -1.3E-06, 14.99956, 0.3287, 4.465, 25, 0.073617021276595751
DataValue, -6.0000000000000008E-07, 15.00022, 0.3372, 4.5520000000000005, 25, 0.07407732864674868
DataValue, -1.0000000000000002E-06, 15.000660000000002, 0.34340000000000004, 4.6335, 25, 0.074112441998489278
DataValue, -1.3E-06, 15.000240000000002, 0.3511, 4.767, 25, 0.0736521921543948
DataValue, -1.3E-06, 15.0005, 0.3579, 4.856, 25, 0.073702635914332779
DataValue, -1.9000000000000002E-06, 15.00012, 0.3639, 4.937, 25, 0.073708729997974481
DataValue, -1.6000000000000001E-06, 15.000160000000001, 0.37170000000000003, 5.0435, 25, 0.073698820263705764
DataValue, -1.7000000000000002E-06, 15.000520000000002, 0.37870000000000004, 5.135, 25, 0.073748782862706919
DataValue, -1.9000000000000002E-06, 15.00026, 0.3886, 5.2195, 25, 0.07445157582143884
DataValue, -1.0000000000000002E-06, 15.000100000000002, 0.394, 5.33, 25, 0.07392120075046904
DataValue, -8.0000000000000007E-07, 15.00054, 0.4007, 5.4315, 25, 0.073773359108901773
DataValue, -2.3E-06, 15.000000000000002, 0.4083, 5.5215000000000005, 25, 0.07394729693018201
DataValue, -1.3E-06, 15.000060000000001, 0.4156, 5.6285, 25, 0.073838500488584882
DataValue, -1.4000000000000002E-06, 14.999, 0.4217, 5.7090000000000005, 25, 0.073865825888947273
DataValue, -1.4000000000000002E-06, 15.000420000000002, 0.4294, 5.8035000000000005, 25, 0.0739898337210304
DataValue, -1.6000000000000001E-06, 15.00008, 0.43760000000000004, 5.9085, 25, 0.074062790894474068
DataValue, -1.0000000000000002E-06, 14.999820000000002, 0.44630000000000003, 5.994, 25, 0.0744577911244578
DataValue, -7.0000000000000007E-07, 15.000480000000001, 0.452, 6.1005, 25, 0.0740922875174166
DataValue, -1.0000000000000002E-06, 15.00022, 0.45790000000000003, 6.188, 25, 0.07399806076276666
DataValue, -1.2000000000000002E-06, 15.000420000000002, 0.46640000000000004, 6.322, 25, 0.0737741221132553
DataValue, -7.0000000000000007E-07, 14.999640000000001, 0.47440000000000004, 6.394, 25, 0.074194557397560215
DataValue, -2.2E-06, 14.999220000000001, 0.48140000000000005, 6.4705, 25, 0.074399196352677541
DataValue, -1.5E-06, 14.999360000000001, 0.4887, 6.6000000000000005, 25, 0.074045454545454539
DataValue, -1.1E-06, 14.99956, 0.4949, 6.6595, 25, 0.07431488850514302
DataValue, -1.4000000000000002E-06, 15.000480000000001, 0.5028, 6.7650000000000006, 25, 0.074323725055432374
DataValue, -5.0000000000000008E-07, 14.999780000000001, 0.5103, 6.8665, 25, 0.074317337799461147
DataValue, -1.7000000000000002E-06, 15.000380000000002, 0.5172, 6.96, 25, 0.074310344827586208
DataValue, -1.8000000000000001E-06, 15.000000000000002, 0.5228, 7.0245, 25, 0.074425225994732724
DataValue, -1.8000000000000001E-06, 14.999720000000002, 0.53260000000000007, 7.178, 25, 0.0741989412092505
DataValue, -2.5E-06, 14.999760000000002, 0.5381, 7.2245, 25, 0.074482663160080287
DataValue, -1.0000000000000002E-06, 15.000240000000002, 0.5472, 7.349, 25, 0.074459110083004487
DataValue, -1.7000000000000002E-06, 14.999600000000001, 0.5526, 7.4275, 25, 0.074399192191181421
DataValue, -2.4000000000000003E-06, 15.000280000000002, 0.5601, 7.5515, 25, 0.074170694563993916
DataValue, -2.7000000000000004E-06, 14.999580000000002, 0.5695, 7.6275, 25, 0.074664044575549
DataValue, -3.3E-06, 14.999680000000002, 0.5757, 7.7355, 25, 0.074423114213690134
DataValue, -1.5E-06, 14.999480000000002, 0.5826, 7.8115000000000006, 25, 0.074582346540357156
DataValue, -1.0000000000000002E-06, 15.00054, 0.5904, 7.9195, 25, 0.074550160995012313
DataValue, -2.1000000000000002E-06, 14.999400000000001, 0.5973, 8.01, 25, 0.074569288389513114
DataValue, -2.3E-06, 14.999360000000001, 0.6056, 8.1275, 25, 0.074512457705321444
DataValue, -2.9E-06, 14.999780000000001, 0.6136, 8.2105, 25, 0.0747335728640156
DataValue, -1.5E-06, 15.00026, 0.62030000000000007, 8.3065, 25, 0.074676458195389164
DataValue, -2.0000000000000003E-06, 14.999900000000002, 0.6267, 8.409, 25, 0.074527292186942554
DataValue, -1.5E-06, 15.000820000000001, 0.6349, 8.5165, 25, 0.074549404097927555
DataValue, -2.3E-06, 14.999820000000002, 0.6421, 8.5955, 25, 0.074701878890116924
DataValue, -1.0000000000000001E-07, 15.00064, 0.64950000000000008, 8.6975, 25, 0.074676631215866637
DataValue, -1.3E-06, 15.00022, 0.6573, 8.772, 25, 0.074931600547195623
DataValue, -1.0000000000000002E-06, 14.999960000000002, 0.6629, 8.861, 25, 0.0748109694165444
DataValue, -2.0000000000000003E-06, 14.999400000000001, 0.6719, 8.96, 25, 0.074988839285714287
DataValue, -1.4000000000000002E-06, 15.00022, 0.68070000000000008, 9.0590000000000011, 25, 0.0751407440114803
DataValue, -6.0000000000000008E-07, 15.000140000000002, 0.68590000000000007, 9.1575, 25, 0.0749003549003549
DataValue, -1.5E-06, 14.9997, 0.6942, 9.2455, 25, 0.075085176572386572
DataValue, -1.2000000000000002E-06, 15.00012, 0.7038, 9.3925, 25, 0.074932126696832579
DataValue, -1.5E-06, 15.000140000000002, 0.7093, 9.448, 25, 0.075074089754445392
DataValue, -1.3E-06, 14.99998, 0.7178, 9.5645, 25, 0.075048355899419716
DataValue, -6.0000000000000008E-07, 15.000420000000002, 0.7246, 9.6415, 25, 0.075154280972877657
DataValue, -1.6000000000000001E-06, 15.000100000000002, 0.73230000000000006, 9.7585, 25, 0.075042270840805461
DataValue, -6.0000000000000008E-07, 15.000020000000001, 0.73910000000000009, 9.8575, 25, 0.074978442810043122
DataValue, -1.1E-06, 14.99994, 0.7489, 9.9495, 25, 0.075270114076084221
DataValue, -1.1E-06, 15.000480000000001, 0.7549, 10.059000000000001, 25, 0.075047221393776717
DataValue, -1.5E-06, 15.00036, 0.76360000000000006, 10.118500000000001, 25, 0.075465731086623508
DataValue, -2.7000000000000004E-06, 14.999900000000002, 0.771, 10.243500000000001, 25, 0.0752672426416752
DataValue, -9.0000000000000007E-07, 15.00026, 0.7762, 10.3165, 25, 0.0752386952939466
DataValue, -1.5E-06, 14.999340000000002, 0.78460000000000008, 10.4315, 25, 0.075214494559746936
DataValue, -1.7000000000000002E-06, 14.999760000000002, 0.792, 10.5265, 25, 0.075238683323041844
DataValue, -1.2000000000000002E-06, 15.000020000000001, 0.7994, 10.625, 25, 0.075237647058823534
DataValue, -1.0000000000000002E-06, 15.000060000000001, 0.8064, 10.7225, 25, 0.075206341804616467
DataValue, -8.0000000000000007E-07, 15.000380000000002, 0.8161, 10.836, 25, 0.075313768918420079
DataValue, -2.3E-06, 14.9989, 0.8232, 10.9115, 25, 0.075443339595839251
DataValue, -2.0000000000000003E-06, 15.000300000000001, 0.83010000000000006, 11.021, 25, 0.075319843934307226
DataValue, -1.8000000000000001E-06, 15.000100000000002, 0.8384, 11.0975, 25, 0.0755485469700383
DataValue, -1.1E-06, 15.000380000000002, 0.8479, 11.226, 25, 0.07553001959736326
DataValue, -1.0000000000000002E-06, 14.99952, 0.8547, 11.294500000000001, 25, 0.075674000619770684
DataValue, -1.9000000000000002E-06, 15.000100000000002, 0.8605, 11.3985, 25, 0.075492389349475816
DataValue, -2.3E-06, 15.00012, 0.8685, 11.4955, 25, 0.075551302683658825
DataValue, -2.0000000000000003E-06, 14.99966, 0.87620000000000009, 11.568, 25, 0.075743430152143854
DataValue, -1.3E-06, 15.000100000000002, 0.88330000000000009, 11.6965, 25, 0.075518317445389657
DataValue, -1.2000000000000002E-06, 14.999920000000001, 0.89240000000000008, 11.771, 25, 0.075813439809701816
DataValue, -2.9E-06, 14.99966, 0.8999, 11.909, 25, 0.075564698967167693
DataValue, -1.5E-06, 14.99984, 0.90670000000000006, 11.9665, 25, 0.075769857518906955
DataValue, -2.5E-06, 15.00012, 0.9162, 12.0965, 25, 0.075740916794114
DataValue, -1.4000000000000002E-06, 14.999640000000001, 0.92380000000000007, 12.166, 25, 0.075932927831662014
DataValue, -2.7000000000000004E-06, 15.000160000000001, 0.9303, 12.27, 25, 0.075819070904645486
DataValue, -1.1E-06, 15.000060000000001, 0.9366000000000001, 12.35, 25, 0.075838056680161955
DataValue, -1.8000000000000001E-06, 14.999500000000001, 0.94500000000000006, 12.468, 25, 0.075794032723772858
DataValue, -2.9E-06, 14.999720000000002, 0.9516, 12.546, 25, 0.075848876135820184
DataValue, -1.1E-06, 15.00026, 0.9593, 12.649000000000001, 25, 0.075839987350778709
DataValue, -1.5E-06, 14.999400000000001, 0.9683, 12.7285, 25, 0.07607337863848844
DataValue, -1.6000000000000001E-06, 14.999740000000001, 0.97420000000000007, 12.835, 25, 0.075901830931047923
DataValue, -1.2000000000000002E-06, 15.000440000000001, 0.98420000000000007, 12.921000000000001, 25, 0.0761705750328922
DataValue, -1.7000000000000002E-06, 15.000160000000001, 0.9895, 13.043000000000001, 25, 0.075864448363106643
DataValue, -1.5E-06, 14.999480000000002, 0.99820000000000009, 13.1335, 25, 0.076004111622948956
DataValue, -2.4000000000000003E-06, 15.000140000000002, 1.0045, 13.2225, 25, 0.075968992248062014
DataValue, -1.1E-06, 15.00012, 1.0086, 13.288, 25, 0.075903070439494277
DataValue, -4.0000000000000003E-07, 15.00008, 1.0171000000000001, 13.3895, 25, 0.075962507935322457
DataValue, -1.0000000000000001E-07, 15.000140000000002, 1.0216, 13.4385, 25, 0.07602038918034007
DataValue, -2.4000000000000003E-06, 14.999540000000001, 1.0252000000000001, 13.544, 25, 0.07569403425871235
DataValue, -7.0000000000000007E-07, 14.9998, 1.0311000000000001, 13.582, 25, 0.075916654395523489
DataValue, -4.0000000000000003E-07, 15.000180000000002, 1.0351000000000001, 13.66, 25, 0.075775988286969256
DataValue, -3.0000000000000004E-07, 15.000200000000001, 1.0392000000000001, 13.6885, 25, 0.075917741169594932
DataValue, -1.0000000000000002E-06, 15.000700000000002, 1.0424, 13.7705, 25, 0.075698050179732038
DataValue, -1.0000000000000001E-07, 14.999640000000001, 1.0462, 13.8035, 25, 0.075792371499981886
DataValue, -1.5E-06, 13.999760000000002, 0.0076, 0.087500000000000008, 25, 0.086857142857142855
DataValue, -1.5E-06, 13.9998, 0.014400000000000001, 0.2, 25, 0.072000000000000008
DataValue, -7.0000000000000007E-07, 14.000000000000002, 0.0246, 0.25, 25, 0.0984
DataValue, -3.0000000000000004E-07, 13.999780000000001, 0.030000000000000002, 0.3855, 25, 0.077821011673151752
DataValue, -1.8000000000000001E-06, 14.000140000000002, 0.0375, 0.47750000000000004, 25, 0.078534031413612551
DataValue, -1.4000000000000002E-06, 14.000100000000002, 0.046400000000000004, 0.5645, 25, 0.082196634189548284
DataValue, -1.5E-06, 13.999680000000002, 0.0548, 0.704, 25, 0.0778409090909091
DataValue, -1.7000000000000002E-06, 14.00064, 0.0621, 0.781, 25, 0.0795134443021767
DataValue, -2.2E-06, 14.00012, 0.073000000000000009, 0.9, 25, 0.08111111111111112
DataValue, -1.1E-06, 14.00008, 0.0799, 0.998, 25, 0.080060120240480967
DataValue, -1.2000000000000002E-06, 14.000020000000001, 0.0853, 1.083, 25, 0.07876269621421976
DataValue, -4.0000000000000003E-07, 14.0004, 0.09530000000000001, 1.225, 25, 0.077795918367346936
DataValue, -1.6000000000000001E-06, 13.999500000000001, 0.10260000000000001, 1.3035, 25, 0.078711162255466052
DataValue, -1.9000000000000002E-06, 13.999580000000002, 0.11080000000000001, 1.3835, 25, 0.080086736537766545
DataValue, -3E-06, 13.999720000000002, 0.11900000000000001, 1.499, 25, 0.079386257505003333
DataValue, -1.7000000000000002E-06, 14.00012, 0.12660000000000002, 1.594, 25, 0.079422835633626107
DataValue, -2.4000000000000003E-06, 13.999760000000002, 0.1345, 1.683, 25, 0.079916815210932857
DataValue, -8.0000000000000007E-07, 13.999860000000002, 0.1429, 1.804, 25, 0.079212860310421282
DataValue, -5.0000000000000008E-07, 13.99994, 0.1502, 1.9060000000000001, 25, 0.078803777544596013
DataValue, -1.7000000000000002E-06, 14.000760000000001, 0.1568, 1.9805000000000002, 25, 0.0791719262812421
DataValue, -2.0000000000000002E-07, 14.00036, 0.1646, 2.113, 25, 0.077898722195929956
DataValue, -1.2000000000000002E-06, 13.999500000000001, 0.1711, 2.1925, 25, 0.0780387685290764
DataValue, -1.8000000000000001E-06, 13.9998, 0.1807, 2.278, 25, 0.079323968393327476
DataValue, -1.3E-06, 13.99984, 0.18860000000000002, 2.398, 25, 0.0786488740617181
DataValue, -6.0000000000000008E-07, 14.000160000000001, 0.19740000000000002, 2.4695, 25, 0.0799352095565904
DataValue, -7.0000000000000007E-07, 14.000840000000002, 0.2019, 2.5715, 25, 0.078514485708730319
DataValue, -1.3E-06, 13.999540000000001, 0.2117, 2.701, 25, 0.078378378378378383
DataValue, -2.3E-06, 13.999820000000002, 0.21810000000000002, 2.783, 25, 0.078368666906216328
DataValue, -1.9000000000000002E-06, 13.99966, 0.22560000000000002, 2.8815, 25, 0.078292555960437285
DataValue, -6.0000000000000008E-07, 14.000520000000002, 0.2353, 2.9975, 25, 0.078498748957464559
DataValue, 4.0000000000000003E-07, 14.000440000000001, 0.2421, 3.073, 25, 0.078782948259030261
DataValue, -1.9000000000000002E-06, 14.000200000000001, 0.2503, 3.1590000000000003, 25, 0.07923393478949034
DataValue, -1.7000000000000002E-06, 13.999820000000002, 0.2574, 3.2875, 25, 0.078296577946768059
DataValue, -3.2000000000000003E-06, 13.999620000000002, 0.2661, 3.3805, 25, 0.0787161662475965
DataValue, -8.0000000000000007E-07, 14.000440000000001, 0.2727, 3.4675000000000002, 25, 0.078644556596971879
DataValue, -1.0000000000000002E-06, 13.99984, 0.2812, 3.5785, 25, 0.078580410786642449
DataValue, -1.7000000000000002E-06, 14.000100000000002, 0.28850000000000003, 3.6535, 25, 0.078965375667168478
DataValue, -2.0000000000000002E-07, 14.0005, 0.298, 3.7765, 25, 0.078909042764464449
DataValue, -1.8000000000000001E-06, 13.999680000000002, 0.3013, 3.864, 25, 0.077976190476190477
DataValue, -8.0000000000000007E-07, 14.000580000000001, 0.31020000000000003, 3.952, 25, 0.0784919028340081
DataValue, -1.2000000000000002E-06, 14.000000000000002, 0.3189, 4.0565, 25, 0.078614569209910029
DataValue, -1.8000000000000001E-06, 13.99924, 0.32580000000000003, 4.148, 25, 0.078543876567020263
DataValue, -2.0000000000000003E-06, 14.000000000000002, 0.3322, 4.2275, 25, 0.078580721466587816
DataValue, -2.1000000000000002E-06, 14.000160000000001, 0.3431, 4.36, 25, 0.078692660550458718
DataValue, -1.3E-06, 14.00022, 0.3514, 4.4270000000000005, 25, 0.07937655297040884
DataValue, -8.0000000000000007E-07, 14.000200000000001, 0.3559, 4.547, 25, 0.078271387728172423
DataValue, -2.1000000000000002E-06, 13.999880000000001, 0.3664, 4.606, 25, 0.079548415110725149
DataValue, -2.1000000000000002E-06, 13.999860000000002, 0.37420000000000003, 4.7305, 25, 0.079103688827819471
DataValue, -2.2E-06, 13.99896, 0.3806, 4.8180000000000005, 25, 0.078995433789954328
DataValue, -3.0000000000000004E-07, 14.000420000000002, 0.38970000000000005, 4.923, 25, 0.079159049360146255
DataValue, -1.4000000000000002E-06, 13.999820000000002, 0.3956, 5.0065, 25, 0.079017277539199043
DataValue, -2.0000000000000003E-06, 13.99984, 0.406, 5.1095, 25, 0.07945982972893631
