
SetupTitle, ID-VDS-body-diode
PrimitiveTest, Multi Channel I/V Sweep
TestParameter, Channel.UnitType, SMU, SMU
TestParameter, Channel.Unit, SMU2:MC, SMU3:UHC500
TestParameter, Channel.IName, IG, ID
TestParameter, Channel.VName, VGS, VDS
TestParameter, Channel.Mode, VPULSE, VPULSE
TestParameter, Channel.Func, VAR2, VAR1
TestParameter, Channel.Index, 
TestParameter, Channel.Time, 
TestParameter, Measurement.Port.Unit, SMU2:MC, SMU3:UHC500
TestParameter, Measurement.Port.SeriesResistor, NONE, NONE
TestParameter, Measurement.Port.Filter, OFF, OFF
TestParameter, Measurement.Port.OutputVoltageComparison, 0, 0
TestParameter, Measurement.Primary.Start, -6
TestParameter, Measurement.Primary.Stop, 0
TestParameter, Measurement.Primary.Compliance, 5
TestParameter, Measurement.Primary.PowerCompliance, 0
TestParameter, Measurement.Primary.Locus, Single
TestParameter, Measurement.Primary.Scale, LINEAR
TestParameter, Measurement.Primary.Count, 21
TestParameter, Measurement.Aborting.Condition, CONTINUE AT ANY
TestParameter, Measurement.PostOutput.Value, START
TestParameter, Measurement.PostOutput.Retention, OFF
TestParameter, Measurement.Secondary.Start, -5
TestParameter, Measurement.Secondary.Count, 6
TestParameter, Measurement.Secondary.Step, 1
TestParameter, Measurement.Secondary.Compliance, 0.099999999999999992
TestParameter, Measurement.Secondary.PowerCompliance, 0
TestParameter, Measurement.Bias.Source, 0, 0
TestParameter, Measurement.Bias.Compliance, 0.099999999999999992, 0
TestParameter, Measurement.Pulse.Delay, 0, 9.9999999999999991E-05
TestParameter, Measurement.Pulse.Duration, 0.001, 0.00019999999999999998
TestParameter, Measurement.Pulse.Base, 0, 0
TestParameter, Measurement.Pulse.Period, 0
TestParameter, Measurement.Pulse.MeasurementDelay, 0
TestParameter, Measurement.Pulse.AveragingCount, 1
TestParameter, Measurement.Monitor.Unit, SMU2:MC, SMU3:UHC500
TestParameter, Measurement.Monitor.Adc, HS ADC, HS ADC
TestParameter, Measurement.Monitor.Measurement, Force and Compliance Sides, Force and Compliance Sides
TestParameter, Measurement.Timing.Hold, 0
TestParameter, Measurement.Timing.Delay, 0
TestParameter, Measurement.Adc.HighSpeed.Mode, TIME
TestParameter, Measurement.Adc.HighSpeed.Coeff, 9.9999999999999991E-06
TestParameter, Measurement.Adc.HighResolution.AutoZero, OFF
TestParameter, Measurement.Adc.HighResolution.Mode, AUTO
TestParameter, Measurement.Adc.HighResolution.Coeff, 6
TestParameter, Measurement.WaitTime.Source.Coeff, 1
TestParameter, Measurement.WaitTime.Source.Offset, 0
TestParameter, Measurement.WaitTime.Monitor.Coeff, 1
TestParameter, Measurement.WaitTime.Monitor.Offset, 0
TestParameter, Output.Graph.Enabled, true
TestParameter, Output.Graph.AutoScaling, false
TestParameter, Output.Graph.XAxis.Data, VDS
TestParameter, Output.Graph.XAxis.Scale, Linear
TestParameter, Output.Graph.XAxis.Left, -4.8
TestParameter, Output.Graph.XAxis.Right, 1.2
TestParameter, Output.Graph.XAxis.RunTimeAutoScale, false
TestParameter, Output.Graph.YAxis.Data, ID
TestParameter, Output.Graph.YAxis.Scale, Linear
TestParameter, Output.Graph.YAxis.Bottom, -9
TestParameter, Output.Graph.YAxis.Top, 1
TestParameter, Output.Graph.YAxis.Group, 
TestParameter, Output.Graph.YAxis.RunTimeAutoScale, false
TestParameter, Output.List.Data, VDS, ID
TestParameter, AutoAnalysis.Interpolation, false
TestParameter, AutoAnalysis.Line1.Enabled, false
TestParameter, AutoAnalysis.Line1.Type, 1
TestParameter, AutoAnalysis.Line1.Fix, True
TestParameter, AutoAnalysis.Line1.YAxis, 0
TestParameter, AutoAnalysis.Line1.Point1.Type, 0
TestParameter, AutoAnalysis.Line1.Point1.XY.X, 
TestParameter, AutoAnalysis.Line1.Point1.XY.Y, 
TestParameter, AutoAnalysis.Line1.Point1.Data.Var, 
TestParameter, AutoAnalysis.Line1.Point1.Data.Condition, 
TestParameter, AutoAnalysis.Line1.Point1.Data.Start, false
TestParameter, AutoAnalysis.Line1.Point1.Data.StartVar, 
TestParameter, AutoAnalysis.Line1.Point1.Data.StartCondition, 
TestParameter, AutoAnalysis.Line1.Point2.Type, 0
TestParameter, AutoAnalysis.Line1.Point2.XY.X, 
TestParameter, AutoAnalysis.Line1.Point2.XY.Y, 
TestParameter, AutoAnalysis.Line1.Point2.Data.Var, 
TestParameter, AutoAnalysis.Line1.Point2.Data.Condition, 
TestParameter, AutoAnalysis.Line1.Point2.Data.Start, false
TestParameter, AutoAnalysis.Line1.Point2.Data.StartVar, 
TestParameter, AutoAnalysis.Line1.Point2.Data.StartCondition, 
TestParameter, AutoAnalysis.Line1.GradientExpr, 0
TestParameter, AutoAnalysis.Line2.Enabled, false
TestParameter, AutoAnalysis.Line2.Type, 1
TestParameter, AutoAnalysis.Line2.Fix, True
TestParameter, AutoAnalysis.Line2.YAxis, 0
TestParameter, AutoAnalysis.Line2.Point1.Type, 0
TestParameter, AutoAnalysis.Line2.Point1.XY.X, 
TestParameter, AutoAnalysis.Line2.Point1.XY.Y, 
TestParameter, AutoAnalysis.Line2.Point1.Data.Var, 
TestParameter, AutoAnalysis.Line2.Point1.Data.Condition, 
TestParameter, AutoAnalysis.Line2.Point1.Data.Start, false
TestParameter, AutoAnalysis.Line2.Point1.Data.StartVar, 
TestParameter, AutoAnalysis.Line2.Point1.Data.StartCondition, 
TestParameter, AutoAnalysis.Line2.Point2.Type, 0
TestParameter, AutoAnalysis.Line2.Point2.XY.X, 
TestParameter, AutoAnalysis.Line2.Point2.XY.Y, 
TestParameter, AutoAnalysis.Line2.Point2.Data.Var, 
TestParameter, AutoAnalysis.Line2.Point2.Data.Condition, 
TestParameter, AutoAnalysis.Line2.Point2.Data.Start, false
TestParameter, AutoAnalysis.Line2.Point2.Data.StartVar, 
TestParameter, AutoAnalysis.Line2.Point2.Data.StartCondition, 
TestParameter, AutoAnalysis.Line2.GradientExpr, 0
TestParameter, AutoAnalysis.Marker.Enabled, false
TestParameter, AutoAnalysis.Marker.Data.Var, 
TestParameter, AutoAnalysis.Marker.Data.Condition, 
TestParameter, AutoAnalysis.Marker.Data.Start, false
TestParameter, AutoAnalysis.Marker.Data.StartVar, 
TestParameter, AutoAnalysis.Marker.Data.StartCondition, 
MetaData, TestRecord.EntryPoint, true
MetaData, TestRecord.RecordTime, 04/17/2021 12:58:28
MetaData, TestRecord.TestTarget, 
MetaData, TestRecord.IterationIndex, 1
MetaData, TestRecord.Preservation, true
MetaData, TestRecord.Flag, 
MetaData, TestRecord.Remarks, 
MetaData, TestRecord.LinkKey, f6e1c6ca-1fd2-437f-9ac0-4b133a1614f3
Dimension1, 21, 21
Dimension2, 6, 6
DataName, ID, VDS
DataValue, -11.6865, -3.2129000000000003
DataValue, -10.6105, -3.168
DataValue, -9.5525, -3.1246
DataValue, -8.5015, -3.0772
DataValue, -7.4615, -3.0264
DataValue, -6.396, -2.9733
DataValue, -5.383, -2.9142
DataValue, -4.4065, -2.8523
DataValue, -3.4115, -2.7843
DataValue, -2.4595000000000002, -2.7066000000000003
DataValue, -1.572, -2.6158
DataValue, -0.807, -2.5043
DataValue, -0.1665, -2.3552
DataValue, 0.035, -2.0998
DataValue, 0.035, -1.8011000000000002
DataValue, 0.028, -1.4985000000000002
DataValue, 0.037, -1.2002000000000002
DataValue, 0.0315, -0.90070000000000006
DataValue, 0.025500000000000002, -0.6007
DataValue, 0.039, -0.3
DataValue, 0.032, -0.00030000000000000003
DataValue, -11.7905, -3.202
DataValue, -10.705, -3.1586000000000003
DataValue, -9.6335, -3.1116
DataValue, -8.5545, -3.0662000000000003
DataValue, -7.5280000000000005, -3.016
DataValue, -6.4815000000000005, -2.9606000000000003
DataValue, -5.464, -2.9036
DataValue, -4.45, -2.8408
DataValue, -3.4565, -2.7718000000000003
DataValue, -2.519, -2.6924
DataValue, -1.6505, -2.6038
DataValue, -0.844, -2.4948
DataValue, -0.177, -2.3495
DataValue, 0.047, -2.0981
DataValue, 0.0235, -1.7990000000000002
DataValue, 0.021500000000000002, -1.5016
DataValue, 0.032, -1.2001000000000002
DataValue, 0.028, -0.90170000000000006
DataValue, 0.019, -0.6018
DataValue, 0.0265, -0.301
DataValue, 0.045, 0.00030000000000000003
DataValue, -11.956, -3.1721000000000004
DataValue, -10.875, -3.1288
DataValue, -9.7900000000000009, -3.0822000000000003
DataValue, -8.7155, -3.0342000000000002
DataValue, -7.6610000000000005, -2.9837000000000002
DataValue, -6.6290000000000004, -2.9283
DataValue, -5.598, -2.8696
DataValue, -4.5925, -2.8028
DataValue, -3.641, -2.7348000000000003
DataValue, -2.711, -2.6542000000000003
DataValue, -1.81, -2.5607
DataValue, -1.0125, -2.4531
DataValue, -0.34750000000000003, -2.3139000000000003
DataValue, 0.0005, -2.0908
DataValue, 0.042, -1.798
DataValue, 0.0135, -1.4993
DataValue, 0.0345, -1.199
DataValue, 0.05, -0.9001
DataValue, 0.0175, -0.6004
DataValue, 0.042, -0.3009
DataValue, 0.013000000000000001, 0.0008
DataValue, -12.16, -3.1234
DataValue, -11.087, -3.0764
DataValue, -10.008000000000001, -3.0286
DataValue, -8.962, -2.9786
DataValue, -7.9, -2.9249
DataValue, -6.9085, -2.8668
DataValue, -5.898, -2.8038000000000003
DataValue, -4.9325, -2.7342
DataValue, -3.9845, -2.6575
DataValue, -3.0635, -2.5702000000000003
DataValue, -2.2015000000000002, -2.4716
DataValue, -1.3940000000000001, -2.3605
DataValue, -0.6895, -2.2265
DataValue, -0.20700000000000002, -2.0419
DataValue, -0.0105, -1.7916
DataValue, 0.02, -1.4989000000000001
DataValue, 0.02, -1.199
DataValue, 0.031, -0.8997
DataValue, 0.0425, -0.5997
DataValue, 0.0115, -0.2997
DataValue, 0.038, 0.001
DataValue, -12.4745, -3.0505
DataValue, -11.4255, -3.0021
DataValue, -10.344, -2.9495
DataValue, -9.3185, -2.8928000000000003
DataValue, -8.3155, -2.8337000000000003
DataValue, -7.303, -2.7687
DataValue, -6.331, -2.6973000000000003
DataValue, -5.39, -2.6179
DataValue, -4.509, -2.5319000000000003
DataValue, -3.6225, -2.4405
DataValue, -2.7680000000000002, -2.3393
DataValue, -1.9535, -2.2285
DataValue, -1.242, -2.0991
DataValue, -0.654, -1.9411
DataValue, -0.2205, -1.7424000000000002
DataValue, 0.0025, -1.491
DataValue, 0.0115, -1.1997
DataValue, 0.041, -0.9003
DataValue, 0.0315, -0.6
DataValue, 0.0175, -0.2993
DataValue, 0.029500000000000002, 0.0004
DataValue, -12.8745, -2.9547000000000003
DataValue, -11.849, -2.8981000000000003
DataValue, -10.8225, -2.8386
DataValue, -9.8375, -2.7715
DataValue, -8.868, -2.7017
DataValue, -7.912, -2.6255
DataValue, -6.9735000000000005, -2.5483000000000002
DataValue, -6.063, -2.4617
DataValue, -5.183, -2.3735
DataValue, -4.2945, -2.282
DataValue, -3.4415, -2.1806
DataValue, -2.6565, -2.067
DataValue, -1.899, -1.9436
DataValue, -1.221, -1.8023
DataValue, -0.6605, -1.6372
DataValue, -0.249, -1.4335
DataValue, -0.017, -1.1859
DataValue, 0.025500000000000002, -0.89960000000000007
DataValue, 0.02, -0.5998
DataValue, 0.033, -0.2995
DataValue, 0.0235, 0.0014