
SetupTitle, ID-VDS-3rd
PrimitiveTest, Multi Channel I/V Sweep
TestParameter, Channel.UnitType, SMU, SMU
TestParameter, Channel.Unit, SMU2:MC, SMU3:UHC500
TestParameter, Channel.IName, IG, ID
TestParameter, Channel.VName, VGS, VDS
TestParameter, Channel.Mode, VPULSE, VPULSE
TestParameter, Channel.Func, VAR2, VAR1
TestParameter, Channel.Index, 
TestParameter, Channel.Time, 
TestParameter, Measurement.Port.Unit, SMU2:MC, SMU3:UHC500
TestParameter, Measurement.Port.SeriesResistor, NONE, NONE
TestParameter, Measurement.Port.Filter, OFF, OFF
TestParameter, Measurement.Port.OutputVoltageComparison, 0, 0
TestParameter, Measurement.Primary.Start, -5
TestParameter, Measurement.Primary.Stop, 0
TestParameter, Measurement.Primary.Compliance, 10
TestParameter, Measurement.Primary.PowerCompliance, 0
TestParameter, Measurement.Primary.Locus, Single
TestParameter, Measurement.Primary.Scale, LINEAR
TestParameter, Measurement.Primary.Count, 21
TestParameter, Measurement.Aborting.Condition, CONTINUE AT ANY
TestParameter, Measurement.PostOutput.Value, START
TestParameter, Measurement.PostOutput.Retention, OFF
TestParameter, Measurement.Secondary.Start, 15.000000000000002
TestParameter, Measurement.Secondary.Count, 5
TestParameter, Measurement.Secondary.Step, 1.25
TestParameter, Measurement.Secondary.Compliance, 0.099999999999999992
TestParameter, Measurement.Secondary.PowerCompliance, 0
TestParameter, Measurement.Bias.Source, 0, 0
TestParameter, Measurement.Bias.Compliance, 0.099999999999999992, 0
TestParameter, Measurement.Pulse.Delay, 0, 9.9999999999999991E-05
TestParameter, Measurement.Pulse.Duration, 0.001, 0.00019999999999999998
TestParameter, Measurement.Pulse.Base, 0, 0
TestParameter, Measurement.Pulse.Period, 0
TestParameter, Measurement.Pulse.MeasurementDelay, 0
TestParameter, Measurement.Pulse.AveragingCount, 1
TestParameter, Measurement.Monitor.Unit, SMU2:MC, SMU3:UHC500
TestParameter, Measurement.Monitor.Adc, HS ADC, HS ADC
TestParameter, Measurement.Monitor.Measurement, Force and Compliance Sides, Force and Compliance Sides
TestParameter, Measurement.Timing.Hold, 0
TestParameter, Measurement.Timing.Delay, 0
TestParameter, Measurement.Adc.HighSpeed.Mode, TIME
TestParameter, Measurement.Adc.HighSpeed.Coeff, 9.9999999999999991E-06
TestParameter, Measurement.Adc.HighResolution.AutoZero, OFF
TestParameter, Measurement.Adc.HighResolution.Mode, AUTO
TestParameter, Measurement.Adc.HighResolution.Coeff, 6
TestParameter, Measurement.WaitTime.Source.Coeff, 1
TestParameter, Measurement.WaitTime.Source.Offset, 0
TestParameter, Measurement.WaitTime.Monitor.Coeff, 1
TestParameter, Measurement.WaitTime.Monitor.Offset, 0
TestParameter, Output.Graph.Enabled, true
TestParameter, Output.Graph.AutoScaling, false
TestParameter, Output.Graph.XAxis.Data, VDS
TestParameter, Output.Graph.XAxis.Scale, Linear
TestParameter, Output.Graph.XAxis.Left, -4.8
TestParameter, Output.Graph.XAxis.Right, 1.2
TestParameter, Output.Graph.XAxis.RunTimeAutoScale, false
TestParameter, Output.Graph.YAxis.Data, ID
TestParameter, Output.Graph.YAxis.Scale, Linear
TestParameter, Output.Graph.YAxis.Bottom, -15
TestParameter, Output.Graph.YAxis.Top, 1
TestParameter, Output.Graph.YAxis.Group, 
TestParameter, Output.Graph.YAxis.RunTimeAutoScale, false
TestParameter, Output.List.Data, VDS, ID
TestParameter, AutoAnalysis.Interpolation, false
TestParameter, AutoAnalysis.Line1.Enabled, false
TestParameter, AutoAnalysis.Line1.Type, 1
TestParameter, AutoAnalysis.Line1.Fix, True
TestParameter, AutoAnalysis.Line1.YAxis, 0
TestParameter, AutoAnalysis.Line1.Point1.Type, 0
TestParameter, AutoAnalysis.Line1.Point1.XY.X, 
TestParameter, AutoAnalysis.Line1.Point1.XY.Y, 
TestParameter, AutoAnalysis.Line1.Point1.Data.Var, 
TestParameter, AutoAnalysis.Line1.Point1.Data.Condition, 
TestParameter, AutoAnalysis.Line1.Point1.Data.Start, false
TestParameter, AutoAnalysis.Line1.Point1.Data.StartVar, 
TestParameter, AutoAnalysis.Line1.Point1.Data.StartCondition, 
TestParameter, AutoAnalysis.Line1.Point2.Type, 0
TestParameter, AutoAnalysis.Line1.Point2.XY.X, 
TestParameter, AutoAnalysis.Line1.Point2.XY.Y, 
TestParameter, AutoAnalysis.Line1.Point2.Data.Var, 
TestParameter, AutoAnalysis.Line1.Point2.Data.Condition, 
TestParameter, AutoAnalysis.Line1.Point2.Data.Start, false
TestParameter, AutoAnalysis.Line1.Point2.Data.StartVar, 
TestParameter, AutoAnalysis.Line1.Point2.Data.StartCondition, 
TestParameter, AutoAnalysis.Line1.GradientExpr, 0
TestParameter, AutoAnalysis.Line2.Enabled, false
TestParameter, AutoAnalysis.Line2.Type, 1
TestParameter, AutoAnalysis.Line2.Fix, True
TestParameter, AutoAnalysis.Line2.YAxis, 0
TestParameter, AutoAnalysis.Line2.Point1.Type, 0
TestParameter, AutoAnalysis.Line2.Point1.XY.X, 
TestParameter, AutoAnalysis.Line2.Point1.XY.Y, 
TestParameter, AutoAnalysis.Line2.Point1.Data.Var, 
TestParameter, AutoAnalysis.Line2.Point1.Data.Condition, 
TestParameter, AutoAnalysis.Line2.Point1.Data.Start, false
TestParameter, AutoAnalysis.Line2.Point1.Data.StartVar, 
TestParameter, AutoAnalysis.Line2.Point1.Data.StartCondition, 
TestParameter, AutoAnalysis.Line2.Point2.Type, 0
TestParameter, AutoAnalysis.Line2.Point2.XY.X, 
TestParameter, AutoAnalysis.Line2.Point2.XY.Y, 
TestParameter, AutoAnalysis.Line2.Point2.Data.Var, 
TestParameter, AutoAnalysis.Line2.Point2.Data.Condition, 
TestParameter, AutoAnalysis.Line2.Point2.Data.Start, false
TestParameter, AutoAnalysis.Line2.Point2.Data.StartVar, 
TestParameter, AutoAnalysis.Line2.Point2.Data.StartCondition, 
TestParameter, AutoAnalysis.Line2.GradientExpr, 0
TestParameter, AutoAnalysis.Marker.Enabled, false
TestParameter, AutoAnalysis.Marker.Data.Var, 
TestParameter, AutoAnalysis.Marker.Data.Condition, 
TestParameter, AutoAnalysis.Marker.Data.Start, false
TestParameter, AutoAnalysis.Marker.Data.StartVar, 
TestParameter, AutoAnalysis.Marker.Data.StartCondition, 
MetaData, TestRecord.EntryPoint, true
MetaData, TestRecord.RecordTime, 04/17/2021 12:58:53
MetaData, TestRecord.TestTarget, 
MetaData, TestRecord.IterationIndex, 1
MetaData, TestRecord.Preservation, true
MetaData, TestRecord.Flag, 
MetaData, TestRecord.Remarks, 
MetaData, TestRecord.LinkKey, 628c6b56-76d8-4ce9-9295-313759b1a498
Dimension1, 21, 21
Dimension2, 5, 5
DataName, ID, VDS
DataValue, -16.715, -1.0661
DataValue, -15.865, -1.0153
DataValue, -15.0045, -0.9606
DataValue, -14.159, -0.9092
DataValue, -13.320500000000001, -0.85600000000000009
DataValue, -12.507, -0.8035
DataValue, -11.658, -0.7508
DataValue, -10.788, -0.6983
DataValue, -9.9835, -0.6449
DataValue, -9.16, -0.5918
DataValue, -8.301, -0.538
DataValue, -7.489, -0.4864
DataValue, -6.6405, -0.4318
DataValue, -5.7815, -0.37610000000000005
DataValue, -4.9645, -0.323
DataValue, -4.1485, -0.27080000000000004
DataValue, -3.293, -0.21580000000000002
DataValue, -2.465, -0.161
DataValue, -1.6555, -0.1077
DataValue, -0.7885, -0.051800000000000006
DataValue, 0.0055, 0.0022
DataValue, -16.812, -1.0391000000000001
DataValue, -15.945500000000001, -0.98940000000000006
DataValue, -15.085, -0.93790000000000007
DataValue, -14.248000000000001, -0.8848
DataValue, -13.426, -0.83290000000000008
DataValue, -12.5825, -0.78470000000000006
DataValue, -11.732000000000001, -0.73110000000000008
DataValue, -10.902000000000001, -0.6782
DataValue, -10.0395, -0.62850000000000006
DataValue, -9.199, -0.5764
DataValue, -8.3605, -0.5234
DataValue, -7.5325, -0.4707
DataValue, -6.6755, -0.41850000000000004
DataValue, -5.8385, -0.36660000000000004
DataValue, -5.0155, -0.31370000000000003
DataValue, -4.1755, -0.2626
DataValue, -3.3335, -0.2097
DataValue, -2.4825, -0.15610000000000002
DataValue, -1.6495, -0.1044
DataValue, -0.8165, -0.0488
DataValue, 0.0275, 0.0008
DataValue, -16.892, -1.0197
DataValue, -16.0565, -0.96890000000000009
DataValue, -15.192, -0.9181
DataValue, -14.3285, -0.86910000000000009
DataValue, -13.4955, -0.81790000000000007
DataValue, -12.643, -0.76630000000000009
DataValue, -11.7905, -0.71510000000000007
DataValue, -10.957, -0.6655
DataValue, -10.105500000000001, -0.6139
DataValue, -9.272, -0.5641
DataValue, -8.4185, -0.5117
DataValue, -7.5765, -0.4607
DataValue, -6.7245, -0.4112
DataValue, -5.8665, -0.3583
DataValue, -5.0185, -0.30760000000000004
DataValue, -4.1930000000000005, -0.2559
DataValue, -3.349, -0.20500000000000002
DataValue, -2.4935, -0.15380000000000002
DataValue, -1.663, -0.1037
DataValue, -0.8375, -0.052500000000000005
DataValue, 0.017, 0.002
DataValue, -16.952, -1.0014
DataValue, -16.1025, -0.9523
DataValue, -15.2475, -0.90370000000000006
DataValue, -14.397, -0.85510000000000008
DataValue, -13.553, -0.8035
DataValue, -12.7005, -0.7536
DataValue, -11.859, -0.7045
DataValue, -11.0145, -0.6521
DataValue, -10.1565, -0.6046
DataValue, -9.3115, -0.555
DataValue, -8.446, -0.50550000000000006
DataValue, -7.5945, -0.453
DataValue, -6.745, -0.4038
DataValue, -5.906, -0.3531
DataValue, -5.066, -0.3029
DataValue, -4.2115, -0.2508
DataValue, -3.3445, -0.2011
DataValue, -2.517, -0.1504
DataValue, -1.6785, -0.099600000000000008
DataValue, -0.8355, -0.0497
DataValue, 0.041, 0.0007
DataValue, -17.009, -0.98820000000000008
DataValue, -16.1715, -0.9392
DataValue, -15.2985, -0.89030000000000009
DataValue, -14.431000000000001, -0.8424
DataValue, -13.6005, -0.79270000000000007
DataValue, -12.743, -0.7428
DataValue, -11.893, -0.69490000000000007
DataValue, -11.052, -0.64350000000000007
DataValue, -10.207, -0.5946
DataValue, -9.3285, -0.5449
DataValue, -8.474, -0.4954
DataValue, -7.6370000000000005, -0.44680000000000003
DataValue, -6.7860000000000005, -0.3977
DataValue, -5.9435, -0.3481
DataValue, -5.077, -0.2968
DataValue, -4.2185, -0.2474
DataValue, -3.4055, -0.19940000000000002
DataValue, -2.524, -0.1474
DataValue, -1.675, -0.097700000000000009
DataValue, -0.8285, -0.0477
DataValue, 0.032, 0.003