
SetupTitle, Rds-Id
ApplicationTest, Rds-Id, Public
TestParameter, Name, Memo, Scale, HoldTime, PulseBase, PulseAvgCnt, Gate, VgStart, VgStop, VgStep, IgLimit, Source, MeasurementTime, Drain, IdStart, IdStop, IdLinearStep, VdLimit, VdStop, PulsePeriodMode, ManualPulsePeriod, PulseWidth
TestParameter, Value, , LINEAR, 0, 0, 1, SMU2:MC	MCSMU, 20, 5, 1, 0.1, GNDU:GND	GNDU, 1E-05, SMU3:UHC500	UHCU500A, 0.5, 30, 0.2, 2, 0, 0, 0.05, 0.0002
DutParameter, Name, Polarity, Temp, YAxisRdsMin, YAxisRdsMax
DutParameter, Value, 1, 25, 0.001, 1
MetaData, TestRecord.EntryPoint, true
MetaData, TestRecord.RecordTime, 04/17/2021 12:55:25
MetaData, TestRecord.TestTarget, 
MetaData, TestRecord.IterationIndex, 1
MetaData, TestRecord.Preservation, true
MetaData, TestRecord.Flag, 
MetaData, TestRecord.Remarks, 
MetaData, TestRecord.LinkKey, ab0b3818-bb60-4d5f-85e1-ba5550508079
Dimension1, 148, 148, 148, 148, 148, 148
Dimension2, 16, 16, 16, 16, 16, 16
DataName, Igate, Vgate, Vdrain, Idrain, Ta, Rds
DataValue, -3.9E-06, 20.000400000000003, 0.0071, 0.107, 25, 0.066355140186915892
DataValue, -2.0000000000000003E-06, 19.99996, 0.0176, 0.291, 25, 0.060481099656357395
DataValue, -3.2000000000000003E-06, 19.999760000000002, 0.029900000000000003, 0.512, 25, 0.058398437500000004
DataValue, -5E-06, 20.000120000000003, 0.0443, 0.7225, 25, 0.061314878892733557
DataValue, -4.2000000000000004E-06, 19.99998, 0.056100000000000004, 0.9585, 25, 0.058528951486697969
DataValue, -3.5000000000000004E-06, 19.99986, 0.0698, 1.1905000000000001, 25, 0.058630827383452329
DataValue, -3.9E-06, 19.9997, 0.084200000000000011, 1.3885, 25, 0.060640979474252794
DataValue, -3.7E-06, 19.999640000000003, 0.0959, 1.608, 25, 0.059639303482587058
DataValue, -3.7E-06, 20.00028, 0.1087, 1.81, 25, 0.060055248618784529
DataValue, -4.4E-06, 19.99968, 0.12100000000000001, 2.0295, 25, 0.059620596205962065
DataValue, -4.5E-06, 19.999460000000003, 0.13290000000000002, 2.2055000000000002, 25, 0.060258444797098167
DataValue, -4.4E-06, 19.999740000000003, 0.1436, 2.4125, 25, 0.059523316062176167
DataValue, -5E-06, 19.99996, 0.1568, 2.626, 25, 0.05971058644325971
DataValue, -4.3E-06, 20.000380000000003, 0.1686, 2.843, 25, 0.059303552585297223
DataValue, -5.3E-06, 19.99998, 0.18100000000000002, 3.0285, 25, 0.059765560508502562
DataValue, -3.4000000000000005E-06, 20.00052, 0.194, 3.224, 25, 0.060173697270471463
DataValue, -3.5000000000000004E-06, 20.00028, 0.2053, 3.432, 25, 0.059819347319347321
DataValue, -2.8000000000000003E-06, 19.999920000000003, 0.21760000000000002, 3.6505, 25, 0.059608272839337083
DataValue, -2.2E-06, 19.999820000000003, 0.2308, 3.8355, 25, 0.0601746838743319
DataValue, -4.3E-06, 20.000320000000002, 0.2422, 4.0280000000000005, 25, 0.060129096325719951
DataValue, -6.4000000000000006E-06, 20, 0.2535, 4.248, 25, 0.059675141242937851
DataValue, -5.6000000000000006E-06, 19.99996, 0.2644, 4.462, 25, 0.059255939040788894
DataValue, -3.3E-06, 20.00084, 0.27740000000000004, 4.622, 25, 0.0600173085244483
DataValue, -4.2000000000000004E-06, 19.999920000000003, 0.28900000000000003, 4.835, 25, 0.059772492244053781
DataValue, -2.4000000000000003E-06, 19.999480000000002, 0.2988, 5.0305, 25, 0.05939767418745652
DataValue, -5.7000000000000005E-06, 19.999660000000002, 0.3124, 5.2165, 25, 0.0598868973449631
DataValue, -6.3000000000000007E-06, 19.99986, 0.3246, 5.407, 25, 0.060033290179397077
DataValue, -4.7000000000000007E-06, 19.99986, 0.3372, 5.615, 25, 0.060053428317008009
DataValue, -1.7000000000000002E-06, 20, 0.34690000000000004, 5.8045, 25, 0.059763976225342415
DataValue, -2.6E-06, 19.999820000000003, 0.3607, 5.987, 25, 0.060247202271588446
DataValue, -3.6000000000000003E-06, 20.00024, 0.3705, 6.191, 25, 0.059844936197706346
DataValue, -2.5E-06, 19.99998, 0.3785, 6.3205, 25, 0.059884502808322124
DataValue, -4.5E-06, 20.00016, 0.3855, 6.438, 25, 0.059878844361602984
DataValue, -4.0000000000000007E-06, 20.00034, 0.38970000000000005, 6.553, 25, 0.059468945521135366
DataValue, -3.8000000000000005E-06, 19.99978, 0.3942, 6.6080000000000005, 25, 0.059654963680387404
DataValue, -2.1000000000000002E-06, 19.999920000000003, 0.3972, 6.654, 25, 0.059693417493237151
DataValue, -5.5000000000000007E-06, 20.00006, 0.3991, 6.6985, 25, 0.059580503097708445
DataValue, -1.8000000000000001E-06, 19.9996, 0.4005, 6.69, 25, 0.059865470852017939
DataValue, -3.9E-06, 20.000040000000002, 0.4031, 6.7275, 25, 0.059918246005202527
DataValue, -1.6000000000000001E-06, 20.00016, 0.40140000000000003, 6.7415, 25, 0.059541645034487875
DataValue, -3E-06, 19.999840000000003, 0.4021, 6.7265, 25, 0.059778488069575565
DataValue, -3.9E-06, 19.999560000000002, 0.404, 6.7515, 25, 0.059838554395319564
DataValue, -5.2E-06, 19.999740000000003, 0.4031, 6.7755, 25, 0.0594937642978378
DataValue, -3.9E-06, 20.000420000000002, 0.4017, 6.7475000000000005, 25, 0.0595331604297888
DataValue, -3.2000000000000003E-06, 19.999820000000003, 0.40280000000000005, 6.768, 25, 0.059515366430260057
DataValue, -2.9E-06, 20.000400000000003, 0.4032, 6.756, 25, 0.059680284191829483
DataValue, -4.1000000000000006E-06, 19.9993, 0.4025, 6.7555000000000005, 25, 0.059581082081267112
DataValue, -4.7000000000000007E-06, 20, 0.40540000000000004, 6.7835, 25, 0.059762659394118088
DataValue, -3.9E-06, 20.000220000000002, 0.4038, 6.7685, 25, 0.059658713156533941
DataValue, -2.8000000000000003E-06, 19.999640000000003, 0.403, 6.7730000000000006, 25, 0.059500959692898273
DataValue, -3.5000000000000004E-06, 19.99942, 0.4036, 6.792, 25, 0.059422850412249706
DataValue, -3.3E-06, 19.99942, 0.402, 6.774, 25, 0.059344552701505758
DataValue, -3.3E-06, 20.000480000000003, 0.40280000000000005, 6.7715000000000005, 25, 0.059484604592778559
DataValue, -4.8000000000000006E-06, 19.999920000000003, 0.4037, 6.777, 25, 0.059569130883871918
DataValue, -3.8000000000000005E-06, 20.00036, 0.4052, 6.7655, 25, 0.059892099623087725
DataValue, -4.4E-06, 19.99972, 0.4043, 6.792, 25, 0.059525912838633691
DataValue, -5.4000000000000008E-06, 19.999840000000003, 0.4043, 6.774, 25, 0.059684086211987009
DataValue, -4.0000000000000007E-06, 19.999940000000002, 0.40440000000000004, 6.777, 25, 0.059672421425409475
DataValue, -2.5E-06, 20.00018, 0.404, 6.7785, 25, 0.059600206535369182
DataValue, -4.6E-06, 20.00026, 0.4037, 6.767, 25, 0.059657159745825326
DataValue, -5.3E-06, 19.99962, 0.4052, 6.7865, 25, 0.059706770794960583
DataValue, -4.5E-06, 20.00026, 0.4047, 6.768, 25, 0.059796099290780141
DataValue, -2.1000000000000002E-06, 20, 0.4056, 6.7905, 25, 0.0597305058537663
DataValue, -2.4000000000000003E-06, 19.99996, 0.4052, 6.7885, 25, 0.059689180231273481
DataValue, -4.8000000000000006E-06, 20.00028, 0.4043, 6.774, 25, 0.059684086211987009
DataValue, -3.7E-06, 19.99962, 0.4042, 6.7825, 25, 0.059594544784371546
DataValue, -4.0000000000000007E-06, 20.00064, 0.40290000000000004, 6.7765, 25, 0.059455471113406627
DataValue, -3.6000000000000003E-06, 20.00034, 0.40650000000000003, 6.7575, 25, 0.060155382907880132
DataValue, -3.9E-06, 19.9997, 0.4056, 6.7795000000000005, 25, 0.0598274209012464
DataValue, -3.2000000000000003E-06, 20.00044, 0.4048, 6.7805, 25, 0.0597006120492589
DataValue, -3.9E-06, 19.999740000000003, 0.4045, 6.7855, 25, 0.059612408812909884
DataValue, -5.5000000000000007E-06, 19.9993, 0.4056, 6.7855, 25, 0.059774519195343018
DataValue, -4.4E-06, 19.999380000000002, 0.4036, 6.784, 25, 0.059492924528301891
DataValue, -3.7E-06, 20.00064, 0.4033, 6.7825, 25, 0.059461850350165872
DataValue, -3.3E-06, 20.000400000000003, 0.40390000000000004, 6.7730000000000006, 25, 0.059633840248043704
DataValue, -2.3E-06, 20.00054, 0.4046, 6.7940000000000005, 25, 0.059552546364439206
DataValue, -4.0000000000000007E-06, 19.99988, 0.40540000000000004, 6.791, 25, 0.059696657340597856
DataValue, -3.6000000000000003E-06, 20.00066, 0.4045, 6.774, 25, 0.05971361086507234
DataValue, -1.1E-06, 20.00052, 0.4052, 6.7825, 25, 0.059741983044600079
DataValue, -4.9000000000000005E-06, 20.000880000000002, 0.4052, 6.7805, 25, 0.059759604748912322
DataValue, -3.5000000000000004E-06, 20.000320000000002, 0.4057, 6.7705, 25, 0.05992171922310021
DataValue, -3.4000000000000005E-06, 20.00006, 0.40290000000000004, 6.78, 25, 0.059424778761061947
DataValue, -5.9E-06, 19.99902, 0.40290000000000004, 6.7675, 25, 0.059534540081270786
DataValue, -4.1000000000000006E-06, 20.000100000000003, 0.4041, 6.7905, 25, 0.059509609012591128
DataValue, -3.2000000000000003E-06, 19.99978, 0.4031, 6.7725, 25, 0.059520118124769289
DataValue, -2.9E-06, 20.000480000000003, 0.40440000000000004, 6.7865, 25, 0.059588889707507559
DataValue, -3.4000000000000005E-06, 20.000120000000003, 0.4047, 6.763, 25, 0.059840307555818428
DataValue, -2.9E-06, 19.99972, 0.4058, 6.8025, 25, 0.059654538772510105
DataValue, -7.0000000000000007E-07, 19.99922, 0.4047, 6.78, 25, 0.059690265486725659
DataValue, -1.9000000000000002E-06, 20.000200000000003, 0.404, 6.7875000000000005, 25, 0.059521178637200738
DataValue, -2.7000000000000004E-06, 20.00018, 0.4053, 6.7725, 25, 0.059844961240310079
DataValue, -2.8000000000000003E-06, 19.99988, 0.4058, 6.793, 25, 0.059737965552774913
DataValue, -4.7000000000000007E-06, 19.999920000000003, 0.405, 6.7730000000000006, 25, 0.059796249815443674
DataValue, -3.7E-06, 20.00034, 0.406, 6.79, 25, 0.059793814432989693
DataValue, -3.2000000000000003E-06, 19.999200000000002, 0.4045, 6.7735, 25, 0.059718018749538644
DataValue, -2.2E-06, 20.00044, 0.4042, 6.784, 25, 0.059581367924528304
DataValue, -6.2000000000000008E-06, 19.999560000000002, 0.404, 6.7845, 25, 0.059547497973321539
DataValue, -4.1000000000000006E-06, 19.99952, 0.4031, 6.7895, 25, 0.059371087708962371
DataValue, -3.7E-06, 20.00028, 0.4048, 6.7785, 25, 0.059718226746330309
DataValue, -4.1000000000000006E-06, 20.00016, 0.4056, 6.807, 25, 0.059585720581754077
DataValue, -4.3E-06, 19.99986, 0.405, 6.782, 25, 0.059716897670303748
DataValue, -4.5E-06, 19.99986, 0.405, 6.7795000000000005, 25, 0.059738918799321486
DataValue, -4.5E-06, 20.000120000000003, 0.4045, 6.7885, 25, 0.059586064668188853
DataValue, -3.4000000000000005E-06, 19.999920000000003, 0.4058, 6.8015, 25, 0.059663309564066749
DataValue, -1.0000000000000002E-06, 19.999380000000002, 0.40540000000000004, 6.783, 25, 0.059767064720625096
DataValue, -2.5E-06, 19.99988, 0.40440000000000004, 6.777, 25, 0.059672421425409475
DataValue, -3.5000000000000004E-06, 20.001060000000003, 0.4048, 6.7875000000000005, 25, 0.059639042357274394
DataValue, -3.4000000000000005E-06, 19.999920000000003, 0.4063, 6.768, 25, 0.060032505910165485
DataValue, -3E-06, 19.9997, 0.40390000000000004, 6.7855, 25, 0.059523984967946364
DataValue, -4.7000000000000007E-06, 20.00036, 0.4033, 6.7730000000000006, 25, 0.059545253211280076
DataValue, -3.2000000000000003E-06, 20.00052, 0.40540000000000004, 6.7765, 25, 0.05982439312329374
DataValue, -4.2000000000000004E-06, 19.9994, 0.4035, 6.7845, 25, 0.059473800574839711
DataValue, -3E-06, 19.999920000000003, 0.403, 6.7895, 25, 0.059356359083879519
DataValue, -4.4E-06, 19.99968, 0.4033, 6.777, 25, 0.059510107717279027
DataValue, -3.1000000000000004E-06, 20.00016, 0.4045, 6.7935, 25, 0.059542209464929718
DataValue, -3.7E-06, 19.99996, 0.4051, 6.771, 25, 0.059828681140156555
DataValue, -1.9000000000000002E-06, 19.99972, 0.4047, 6.776, 25, 0.05972550177095632
DataValue, -2.9E-06, 19.9998, 0.4055, 6.772, 25, 0.059878913171884228
DataValue, -3.2000000000000003E-06, 20.000500000000002, 0.4047, 6.7925, 25, 0.059580419580419576
DataValue, -2.3E-06, 19.999940000000002, 0.4051, 6.7895, 25, 0.059665660210619337
DataValue, -5E-06, 19.999820000000003, 0.406, 6.7695, 25, 0.059974887362434455
DataValue, -3.6000000000000003E-06, 20.000200000000003, 0.4042, 6.797, 25, 0.0594674120935707
DataValue, -3.4000000000000005E-06, 20.00008, 0.4037, 6.775, 25, 0.05958671586715867
DataValue, -2.7000000000000004E-06, 20.00016, 0.4048, 6.7985, 25, 0.059542546149886008
DataValue, -5.7000000000000005E-06, 19.99896, 0.4055, 6.777, 25, 0.059834735133539915
DataValue, -3.3E-06, 19.99952, 0.40340000000000004, 6.774, 25, 0.059551225273103046
DataValue, -3E-06, 19.999740000000003, 0.40390000000000004, 6.788, 25, 0.0595020624631703
DataValue, -3.9E-06, 20.000760000000003, 0.4057, 6.7695, 25, 0.059930570943201124
DataValue, -3.5000000000000004E-06, 20.00024, 0.40640000000000004, 6.793, 25, 0.059826291770940676
DataValue, -3.4000000000000005E-06, 20.000100000000003, 0.4058, 6.775, 25, 0.059896678966789664
DataValue, -2.2E-06, 19.9999, 0.40440000000000004, 6.7810000000000006, 25, 0.059637221648724377
DataValue, -2.5E-06, 19.999740000000003, 0.4042, 6.7885, 25, 0.059541872284009721
DataValue, -1.5E-06, 20.000400000000003, 0.406, 6.7905, 25, 0.059789411678079676
DataValue, -1.4000000000000002E-06, 20.000860000000003, 0.4043, 6.7815, 25, 0.059618078596180783
DataValue, -4.5E-06, 19.999480000000002, 0.4045, 6.791, 25, 0.059564128994257108
DataValue, -3.1000000000000004E-06, 20, 0.40390000000000004, 6.801, 25, 0.059388325246287316
DataValue, -2.6E-06, 20.000600000000002, 0.4047, 6.777, 25, 0.059716688800354141
DataValue, -4.2000000000000004E-06, 19.999820000000003, 0.4068, 6.793, 25, 0.059885175916384509
DataValue, -3.9E-06, 19.99998, 0.404, 6.774, 25, 0.059639799232359021
DataValue, -3.7E-06, 20.000500000000002, 0.4041, 6.7845, 25, 0.059562237453017905
DataValue, -3.2000000000000003E-06, 20.00034, 0.4033, 6.7775, 25, 0.059505717447436372
DataValue, -1.5E-06, 20.000100000000003, 0.4057, 6.7565, 25, 0.060045881743506252
DataValue, -3.6000000000000003E-06, 20.000500000000002, 0.4053, 6.783, 25, 0.059752321981424147
DataValue, -2.3E-06, 20, 0.4058, 6.7730000000000006, 25, 0.059914365864461826
DataValue, -4.3E-06, 19.999760000000002, 0.4041, 6.783, 25, 0.059575409111012827
DataValue, -3.2000000000000003E-06, 20.00056, 0.4051, 6.784, 25, 0.059714033018867928
DataValue, -3.5000000000000004E-06, 20.000220000000002, 0.4033, 6.768, 25, 0.059589243498817966
DataValue, -3.8000000000000005E-06, 20.000420000000002, 0.4053, 6.776, 25, 0.059814049586776857
DataValue, -3.4000000000000005E-06, 18.99996, 0.004, 0.0735, 25, 0.054421768707483
DataValue, -3.3E-06, 19.000140000000002, 0.0173, 0.2965, 25, 0.058347386172006743
DataValue, -3.8000000000000005E-06, 18.99978, 0.031200000000000002, 0.482, 25, 0.064730290456431541
DataValue, -3.9E-06, 18.999640000000003, 0.045700000000000005, 0.7295, 25, 0.062645647703906793
DataValue, -3.6000000000000003E-06, 18.99998, 0.0589, 0.94700000000000006, 25, 0.062196409714889121
DataValue, -4.6E-06, 18.999760000000002, 0.07060000000000001, 1.1480000000000001, 25, 0.061498257839721258
DataValue, -4.2000000000000004E-06, 19.000120000000003, 0.0863, 1.411, 25, 0.061162296243798722
DataValue, -2.5E-06, 18.99958, 0.096200000000000008, 1.588, 25, 0.060579345088161214
DataValue, -4.7000000000000007E-06, 18.99996, 0.11040000000000001, 1.81, 25, 0.060994475138121555
DataValue, -4.6E-06, 18.99978, 0.124, 1.9935, 25, 0.062202157010283421
DataValue, -4.5E-06, 18.99868, 0.1358, 2.236, 25, 0.060733452593917707
DataValue, -4.0000000000000007E-06, 18.999920000000003, 0.1466, 2.3890000000000002, 25, 0.061364587693595644
DataValue, -5.3E-06, 18.99988, 0.15990000000000001, 2.6415, 25, 0.060533787620670076
DataValue, -3.2000000000000003E-06, 19.000320000000002, 0.1728, 2.826, 25, 0.061146496815286625
DataValue, -4.4E-06, 19.00052, 0.1865, 3.04, 25, 0.061348684210526312
DataValue, -2.2E-06, 19.00038, 0.1975, 3.229, 25, 0.0611644471972747
DataValue, -4.1000000000000006E-06, 18.99968, 0.2101, 3.434, 25, 0.061182294700058239
DataValue, -3.8000000000000005E-06, 19.000420000000002, 0.2212, 3.644, 25, 0.060702524698133919
DataValue, -8.0000000000000007E-07, 19.00066, 0.23570000000000002, 3.8365, 25, 0.061436204874234332
DataValue, -4.5E-06, 18.999560000000002, 0.2446, 4.045, 25, 0.06046971569839308
DataValue, -4.0000000000000007E-06, 18.99934, 0.2587, 4.2335, 25, 0.061107830400377934
DataValue, -3.2000000000000003E-06, 18.999840000000003, 0.27040000000000003, 4.417, 25, 0.061218021281412731
DataValue, -4.1000000000000006E-06, 18.999480000000002, 0.2844, 4.614, 25, 0.061638491547464237
DataValue, -2.5E-06, 19.000100000000003, 0.2954, 4.8595, 25, 0.060788146928696371
DataValue, -3.9E-06, 19.00018, 0.30710000000000004, 5.027, 25, 0.061090113387706389
DataValue, -4.2000000000000004E-06, 19.000220000000002, 0.3199, 5.2170000000000005, 25, 0.061318765574084722
DataValue, -3.7E-06, 19.000320000000002, 0.33190000000000003, 5.433, 25, 0.061089637401067556
DataValue, -4.2000000000000004E-06, 19.00028, 0.3418, 5.607, 25, 0.060959514892099158
DataValue, -3.4000000000000005E-06, 18.999760000000002, 0.3542, 5.8155, 25, 0.060906198951079016
DataValue, -3.1000000000000004E-06, 18.999840000000003, 0.3655, 5.9665, 25, 0.0612586943769379
DataValue, -3.4000000000000005E-06, 19.00074, 0.37560000000000004, 6.1585, 25, 0.060988877161646513
DataValue, -3E-06, 18.99968, 0.38530000000000003, 6.2835, 25, 0.0613193283997772
DataValue, -4.0000000000000007E-06, 18.9997, 0.39130000000000004, 6.433, 25, 0.060826985854189344
DataValue, -2.6E-06, 19.000400000000003, 0.3971, 6.5115, 25, 0.060984412193810955
DataValue, -3.1000000000000004E-06, 18.999660000000002, 0.4011, 6.579, 25, 0.060966712266301876
DataValue, -2.5E-06, 19.00024, 0.4046, 6.6320000000000006, 25, 0.061007237635705668
DataValue, -3.2000000000000003E-06, 18.999940000000002, 0.4058, 6.6525, 25, 0.060999624201428036
DataValue, -2.4000000000000003E-06, 19.000500000000002, 0.4072, 6.711, 25, 0.060676501266577261
DataValue, -1.1E-06, 19.000500000000002, 0.4057, 6.7045, 25, 0.060511596688791108
DataValue, -2.0000000000000003E-06, 18.99972, 0.40950000000000003, 6.7225, 25, 0.06091483822982522
DataValue, -2.3E-06, 19.000300000000003, 0.40900000000000003, 6.7335, 25, 0.060741070765575111
DataValue, -4.6E-06, 19.000400000000003, 0.41000000000000003, 6.7195, 25, 0.061016444675943152
DataValue, -2.7000000000000004E-06, 18.99958, 0.40950000000000003, 6.7555000000000005, 25, 0.060617274813115241
DataValue, -2.7000000000000004E-06, 18.9998, 0.41090000000000004, 6.7365, 25, 0.060996066206487051
DataValue, -2.3E-06, 18.999660000000002, 0.4088, 6.7445, 25, 0.0606123508043591
DataValue, -1.9000000000000002E-06, 19.00006, 0.4108, 6.7185000000000006, 25, 0.061144600729329458
DataValue, -3.5000000000000004E-06, 18.99958, 0.4081, 6.7575, 25, 0.0603921568627451
DataValue, -3.6000000000000003E-06, 18.99978, 0.40950000000000003, 6.74, 25, 0.0607566765578635
DataValue, -3.7E-06, 19.000200000000003, 0.4081, 6.7545, 25, 0.060418979939299726
DataValue, -3.8000000000000005E-06, 18.999660000000002, 0.40790000000000004, 6.7385, 25, 0.060532759516212814
DataValue, -2.9E-06, 18.9998, 0.4108, 6.755, 25, 0.060814211695040712
DataValue, -3.8000000000000005E-06, 18.999480000000002, 0.4087, 6.7475000000000005, 25, 0.060570581696924787
DataValue, -4.0000000000000007E-06, 19, 0.4101, 6.7525, 25, 0.060733061828952238
DataValue, -1.8000000000000001E-06, 19.00052, 0.41090000000000004, 6.7620000000000005, 25, 0.060766045548654245
DataValue, -4.6E-06, 18.999660000000002, 0.4108, 6.736, 25, 0.060985748218527321
DataValue, -4.4E-06, 18.999200000000002, 0.4102, 6.7715000000000005, 25, 0.060577420069408548
DataValue, -2.1000000000000002E-06, 19.000020000000003, 0.40890000000000004, 6.743, 25, 0.060640664392703547
DataValue, -1.4000000000000002E-06, 18.999740000000003, 0.40950000000000003, 6.7685, 25, 0.060500849523528112
DataValue, -3E-06, 19.00008, 0.4111, 6.7315000000000005, 25, 0.061071083710911384
DataValue, -1.9000000000000002E-06, 18.9999, 0.41040000000000004, 6.7555000000000005, 25, 0.060750499592924286
DataValue, -2.6E-06, 19.000220000000002, 0.4112, 6.744, 25, 0.060972716488730726
DataValue, -2.3E-06, 18.999100000000002, 0.40990000000000004, 6.7475000000000005, 25, 0.060748425342719528
DataValue, -3.3E-06, 18.9999, 0.4108, 6.7675, 25, 0.060701884004432952
