
SetupTitle, ID-VGS
PrimitiveTest, Multi Channel I/V Sweep
TestParameter, Channel.UnitType, SMU, SMU
TestParameter, Channel.Unit, SMU2:MC, SMU3:UHC500
TestParameter, Channel.IName, IG, ID
TestParameter, Channel.VName, VGS, VDS
TestParameter, Channel.Mode, VPULSE, VPULSE
TestParameter, Channel.Func, VAR1, CONST
TestParameter, Channel.Index, 
TestParameter, Channel.Time, 
TestParameter, Measurement.Port.Unit, SMU2:MC, SMU3:UHC500
TestParameter, Measurement.Port.SeriesResistor, NONE, NONE
TestParameter, Measurement.Port.Filter, OFF, OFF
TestParameter, Measurement.Port.OutputVoltageComparison, 0, 0
TestParameter, Measurement.Primary.Start, 0
TestParameter, Measurement.Primary.Stop, 10
TestParameter, Measurement.Primary.Compliance, 0.099999999999999992
TestParameter, Measurement.Primary.PowerCompliance, 0
TestParameter, Measurement.Primary.Locus, Single
TestParameter, Measurement.Primary.Scale, LINEAR
TestParameter, Measurement.Primary.Count, 2001
TestParameter, Measurement.Aborting.Condition, CONTINUE AT ANY
TestParameter, Measurement.PostOutput.Value, START
TestParameter, Measurement.PostOutput.Retention, OFF
TestParameter, Measurement.Bias.Source, 0, 3
TestParameter, Measurement.Bias.Compliance, 0.099999999999999992, 5
TestParameter, Measurement.Pulse.Delay, 0, 9.9999999999999991E-05
TestParameter, Measurement.Pulse.Duration, 0.001, 4.9999999999999996E-05
TestParameter, Measurement.Pulse.Base, 0, 0
TestParameter, Measurement.Pulse.Period, 0
TestParameter, Measurement.Pulse.MeasurementDelay, 0
TestParameter, Measurement.Pulse.AveragingCount, 1
TestParameter, Measurement.Monitor.Unit, SMU2:MC, SMU3:UHC500
TestParameter, Measurement.Monitor.Adc, HS ADC, HS ADC
TestParameter, Measurement.Monitor.Measurement, Force and Compliance Sides, Force and Compliance Sides
TestParameter, Measurement.Timing.Hold, 0
TestParameter, Measurement.Timing.Delay, 0
TestParameter, Measurement.Adc.HighSpeed.Mode, TIME
TestParameter, Measurement.Adc.HighSpeed.Coeff, 9.9999999999999991E-06
TestParameter, Measurement.Adc.HighResolution.AutoZero, OFF
TestParameter, Measurement.Adc.HighResolution.Mode, AUTO
TestParameter, Measurement.Adc.HighResolution.Coeff, 6
TestParameter, Measurement.WaitTime.Source.Coeff, 1
TestParameter, Measurement.WaitTime.Source.Offset, 0
TestParameter, Measurement.WaitTime.Monitor.Coeff, 1
TestParameter, Measurement.WaitTime.Monitor.Offset, 0
TestParameter, Output.Graph.Enabled, true
TestParameter, Output.Graph.AutoScaling, false
TestParameter, Output.Graph.XAxis.Data, VGS
TestParameter, Output.Graph.XAxis.Scale, Linear
TestParameter, Output.Graph.XAxis.Left, -5.4
TestParameter, Output.Graph.XAxis.Right, 12.6
TestParameter, Output.Graph.XAxis.RunTimeAutoScale, false
TestParameter, Output.Graph.YAxis.Data, ID
TestParameter, Output.Graph.YAxis.Scale, Linear
TestParameter, Output.Graph.YAxis.Bottom, 0
TestParameter, Output.Graph.YAxis.Top, 10
TestParameter, Output.Graph.YAxis.Group, 
TestParameter, Output.Graph.YAxis.RunTimeAutoScale, false
TestParameter, Output.List.Data, VGS, ID
TestParameter, AutoAnalysis.Interpolation, false
TestParameter, AutoAnalysis.Line1.Enabled, false
TestParameter, AutoAnalysis.Line1.Type, 1
TestParameter, AutoAnalysis.Line1.Fix, True
TestParameter, AutoAnalysis.Line1.YAxis, 0
TestParameter, AutoAnalysis.Line1.Point1.Type, 0
TestParameter, AutoAnalysis.Line1.Point1.XY.X, 
TestParameter, AutoAnalysis.Line1.Point1.XY.Y, 
TestParameter, AutoAnalysis.Line1.Point1.Data.Var, 
TestParameter, AutoAnalysis.Line1.Point1.Data.Condition, 
TestParameter, AutoAnalysis.Line1.Point1.Data.Start, false
TestParameter, AutoAnalysis.Line1.Point1.Data.StartVar, 
TestParameter, AutoAnalysis.Line1.Point1.Data.StartCondition, 
TestParameter, AutoAnalysis.Line1.Point2.Type, 0
TestParameter, AutoAnalysis.Line1.Point2.XY.X, 
TestParameter, AutoAnalysis.Line1.Point2.XY.Y, 
TestParameter, AutoAnalysis.Line1.Point2.Data.Var, 
TestParameter, AutoAnalysis.Line1.Point2.Data.Condition, 
TestParameter, AutoAnalysis.Line1.Point2.Data.Start, false
TestParameter, AutoAnalysis.Line1.Point2.Data.StartVar, 
TestParameter, AutoAnalysis.Line1.Point2.Data.StartCondition, 
TestParameter, AutoAnalysis.Line1.GradientExpr, 0
TestParameter, AutoAnalysis.Line2.Enabled, false
TestParameter, AutoAnalysis.Line2.Type, 1
TestParameter, AutoAnalysis.Line2.Fix, True
TestParameter, AutoAnalysis.Line2.YAxis, 0
TestParameter, AutoAnalysis.Line2.Point1.Type, 0
TestParameter, AutoAnalysis.Line2.Point1.XY.X, 
TestParameter, AutoAnalysis.Line2.Point1.XY.Y, 
TestParameter, AutoAnalysis.Line2.Point1.Data.Var, 
TestParameter, AutoAnalysis.Line2.Point1.Data.Condition, 
TestParameter, AutoAnalysis.Line2.Point1.Data.Start, false
TestParameter, AutoAnalysis.Line2.Point1.Data.StartVar, 
TestParameter, AutoAnalysis.Line2.Point1.Data.StartCondition, 
TestParameter, AutoAnalysis.Line2.Point2.Type, 0
TestParameter, AutoAnalysis.Line2.Point2.XY.X, 
TestParameter, AutoAnalysis.Line2.Point2.XY.Y, 
TestParameter, AutoAnalysis.Line2.Point2.Data.Var, 
TestParameter, AutoAnalysis.Line2.Point2.Data.Condition, 
TestParameter, AutoAnalysis.Line2.Point2.Data.Start, false
TestParameter, AutoAnalysis.Line2.Point2.Data.StartVar, 
TestParameter, AutoAnalysis.Line2.Point2.Data.StartCondition, 
TestParameter, AutoAnalysis.Line2.GradientExpr, 0
TestParameter, AutoAnalysis.Marker.Enabled, false
TestParameter, AutoAnalysis.Marker.Data.Var, 
TestParameter, AutoAnalysis.Marker.Data.Condition, 
TestParameter, AutoAnalysis.Marker.Data.Start, false
TestParameter, AutoAnalysis.Marker.Data.StartVar, 
TestParameter, AutoAnalysis.Marker.Data.StartCondition, 
MetaData, TestRecord.EntryPoint, true
MetaData, TestRecord.RecordTime, 04/16/2021 15:26:27
MetaData, TestRecord.TestTarget, 
MetaData, TestRecord.IterationIndex, 1
MetaData, TestRecord.Preservation, true
MetaData, TestRecord.Flag, 
MetaData, TestRecord.Remarks, 
MetaData, TestRecord.LinkKey, 2f6e9450-39e1-42fc-83c5-07e744b10761
Dimension1, 2001, 2001
Dimension2, 1, 1
DataName, VGS, ID
DataValue, -0.00058, -0.045
DataValue, 0.0051600000000000005, -0.047
DataValue, 0.0099400000000000009, -0.0265
DataValue, 0.014920000000000001, -0.0225
DataValue, 0.0199, -0.018000000000000002
DataValue, 0.024880000000000003, -0.0505
DataValue, 0.029720000000000003, -0.0485
DataValue, 0.03474, -0.013000000000000001
DataValue, 0.04014, -0.044
DataValue, 0.04474, -0.029
DataValue, 0.05054, -0.046
DataValue, 0.0546, -0.033
DataValue, 0.059960000000000006, -0.026000000000000002
DataValue, 0.06514, -0.025500000000000002
DataValue, 0.070380000000000012, -0.047
DataValue, 0.074540000000000009, -0.028
DataValue, 0.079400000000000012, -0.0205
DataValue, 0.084840000000000013, -0.026000000000000002
DataValue, 0.089740000000000014, -0.0335
DataValue, 0.09524, -0.0365
DataValue, 0.10024000000000001, -0.0235
DataValue, 0.10538000000000002, -0.0395
DataValue, 0.11034000000000001, -0.025
DataValue, 0.11580000000000001, -0.0575
DataValue, 0.11982000000000001, -0.0225
DataValue, 0.12510000000000002, -0.0115
DataValue, 0.13014, -0.033
DataValue, 0.13458, -0.036000000000000004
DataValue, 0.14028000000000002, -0.0235
DataValue, 0.14478000000000002, -0.023
DataValue, 0.14988, -0.032
DataValue, 0.15472000000000002, -0.0465
DataValue, 0.15996000000000002, -0.0265
DataValue, 0.16436, -0.006
DataValue, 0.16974, -0.035
DataValue, 0.17526000000000003, -0.043000000000000003
DataValue, 0.17972000000000002, -0.04
DataValue, 0.18506, -0.021500000000000002
DataValue, 0.19034, -0.0345
DataValue, 0.19538000000000003, -0.049
DataValue, 0.20040000000000002, -0.0235
DataValue, 0.20464000000000002, -0.016
DataValue, 0.20934000000000003, -0.033
DataValue, 0.21464000000000003, -0.0395
DataValue, 0.22012, -0.0205
DataValue, 0.22512000000000002, -0.0195
DataValue, 0.23008, -0.038
DataValue, 0.23462000000000002, -0.043500000000000004
DataValue, 0.24008000000000002, -0.0285
DataValue, 0.24486000000000002, -0.015
DataValue, 0.24982000000000001, -0.0305
DataValue, 0.25460000000000005, -0.05
DataValue, 0.26, -0.0345
DataValue, 0.2649, -0.0305
DataValue, 0.2701, -0.036000000000000004
DataValue, 0.2751, -0.036000000000000004
DataValue, 0.28036, -0.025500000000000002
DataValue, 0.28514, -0.029
DataValue, 0.29002, -0.0535
DataValue, 0.29552, -0.027
DataValue, 0.30004000000000003, -0.025
DataValue, 0.30498000000000003, -0.039
DataValue, 0.30976000000000004, -0.0365
DataValue, 0.31542000000000003, -0.0225
DataValue, 0.32074, -0.0335
DataValue, 0.3251, -0.0615
DataValue, 0.33056, -0.043000000000000003
DataValue, 0.33456, -0.0175
DataValue, 0.33976, -0.0345
DataValue, 0.34462000000000004, -0.0325
DataValue, 0.34992, -0.042
DataValue, 0.35602, -0.015
DataValue, 0.36046, -0.0415
DataValue, 0.3643, -0.0425
DataValue, 0.37014, -0.012
DataValue, 0.37470000000000003, -0.035500000000000004
DataValue, 0.38, -0.049
DataValue, 0.3849, -0.029
DataValue, 0.38994, -0.0275
DataValue, 0.3951, -0.022
DataValue, 0.39970000000000006, -0.041
DataValue, 0.40458000000000005, -0.0285
DataValue, 0.4102, -0.0175
DataValue, 0.41518000000000005, -0.042
DataValue, 0.41956000000000004, -0.033
DataValue, 0.42452, -0.014
DataValue, 0.42948000000000003, -0.026000000000000002
DataValue, 0.43454000000000004, -0.0405
DataValue, 0.44014000000000003, -0.0175
DataValue, 0.44462, -0.0265
DataValue, 0.4499, -0.0205
DataValue, 0.45526000000000005, -0.04
DataValue, 0.45978, -0.036000000000000004
DataValue, 0.46538, -0.017
DataValue, 0.47050000000000003, -0.018000000000000002
DataValue, 0.47556000000000004, -0.0495
DataValue, 0.47956000000000004, -0.037
DataValue, 0.48484000000000005, -0.0055
DataValue, 0.49022000000000004, -0.035
DataValue, 0.49476000000000003, -0.043000000000000003
DataValue, 0.50028000000000006, -0.035
DataValue, 0.50494, -0.0245
DataValue, 0.51096000000000008, -0.0225
DataValue, 0.5147, -0.0415
DataValue, 0.51946, -0.0315
DataValue, 0.52504000000000006, -0.013000000000000001
DataValue, 0.52938000000000007, -0.0305
DataValue, 0.53434, -0.045
DataValue, 0.54036000000000006, -0.026000000000000002
DataValue, 0.5449, -0.0335
DataValue, 0.5501, -0.0265
DataValue, 0.55576, -0.0325
DataValue, 0.56036000000000008, -0.013000000000000001
DataValue, 0.56472, -0.0175
DataValue, 0.5697000000000001, -0.0445
DataValue, 0.57494, -0.0425
DataValue, 0.58000000000000007, -0.037
DataValue, 0.58508, -0.0395
DataValue, 0.5903, -0.043000000000000003
DataValue, 0.59474, -0.05
DataValue, 0.6004, -0.022
DataValue, 0.60476000000000008, -0.0225
DataValue, 0.60998000000000008, -0.035
DataValue, 0.6148, -0.039
DataValue, 0.6196600000000001, -0.0225
DataValue, 0.62468, -0.021500000000000002
DataValue, 0.63, -0.0395
DataValue, 0.63494000000000006, -0.0425
DataValue, 0.64022, -0.035
DataValue, 0.6449, -0.0265
DataValue, 0.64972000000000008, -0.025500000000000002
DataValue, 0.65538000000000007, -0.039
DataValue, 0.6592, -0.015
DataValue, 0.66480000000000006, -0.0135
DataValue, 0.66982000000000008, -0.027
DataValue, 0.67518, -0.039
DataValue, 0.67928000000000011, -0.0285
DataValue, 0.68534000000000006, -0.0165
DataValue, 0.69008, -0.023
DataValue, 0.6953, -0.0375
DataValue, 0.69976, -0.027
DataValue, 0.7045, -0.03
DataValue, 0.7103, -0.0115
DataValue, 0.7153, -0.043000000000000003
DataValue, 0.71986, -0.037
DataValue, 0.72562, -0.029
DataValue, 0.73010000000000008, -0.025
DataValue, 0.73548, -0.057
DataValue, 0.7397, -0.0335
DataValue, 0.74500000000000011, -0.0285
DataValue, 0.74994, -0.019
DataValue, 0.75538, -0.043000000000000003
DataValue, 0.7599, -0.034
DataValue, 0.76532000000000011, -0.0175
DataValue, 0.77074000000000009, -0.0135
DataValue, 0.77518000000000009, -0.04
DataValue, 0.78012, -0.035500000000000004
DataValue, 0.78508000000000011, -0.036000000000000004
DataValue, 0.78974000000000011, -0.0365
DataValue, 0.79548000000000008, -0.046
DataValue, 0.79954, -0.038
DataValue, 0.80496000000000012, -0.018000000000000002
DataValue, 0.81018, -0.0275
DataValue, 0.81490000000000007, -0.032
DataValue, 0.82064, -0.0185
DataValue, 0.82486, -0.022
DataValue, 0.83002000000000009, -0.0335
DataValue, 0.83482000000000012, -0.042
DataValue, 0.84022000000000008, -0.038
DataValue, 0.8444, -0.024
DataValue, 0.85026, -0.046
DataValue, 0.85506, -0.0325
DataValue, 0.85954000000000008, -0.025500000000000002
DataValue, 0.8654400000000001, -0.029
DataValue, 0.8698800000000001, -0.04
DataValue, 0.87528000000000006, -0.018000000000000002
DataValue, 0.87986000000000009, -0.02
DataValue, 0.88506000000000007, -0.037
DataValue, 0.88958, -0.0455
DataValue, 0.89532000000000012, -0.026000000000000002
DataValue, 0.90012, -0.0205
DataValue, 0.905, -0.0305
DataValue, 0.90986000000000011, -0.035500000000000004
DataValue, 0.9154000000000001, -0.019
DataValue, 0.92012, -0.014
DataValue, 0.9250600000000001, -0.043000000000000003
DataValue, 0.92966, -0.0305
DataValue, 0.93522, -0.012
DataValue, 0.93988, -0.015
DataValue, 0.94480000000000008, -0.036000000000000004
DataValue, 0.9503, -0.033
DataValue, 0.95496, -0.016
DataValue, 0.96046000000000009, -0.028
DataValue, 0.96496, -0.0455
DataValue, 0.96988000000000008, -0.031
DataValue, 0.9749000000000001, -0.0235
DataValue, 0.97972, -0.0285
DataValue, 0.98502000000000012, -0.0385
DataValue, 0.99002000000000012, -0.0235
DataValue, 0.99478000000000011, -0.0065000000000000006
DataValue, 0.99958000000000014, -0.0455
DataValue, 1.00482, -0.0385
DataValue, 1.01, -0.015
DataValue, 1.01552, -0.016
DataValue, 1.02078, -0.0395
DataValue, 1.0249000000000001, -0.042
DataValue, 1.02964, -0.021
DataValue, 1.03488, -0.036000000000000004
DataValue, 1.0397, -0.0415
DataValue, 1.0451000000000001, -0.0205
DataValue, 1.05014, -0.0245
DataValue, 1.05484, -0.025
DataValue, 1.0596, -0.031
DataValue, 1.06522, -0.017
DataValue, 1.0698800000000002, -0.0265
DataValue, 1.07448, -0.035500000000000004
DataValue, 1.08014, -0.038
DataValue, 1.08484, -0.02
DataValue, 1.08972, -0.0235
DataValue, 1.09552, -0.0275
DataValue, 1.1005200000000002, -0.039
DataValue, 1.10484, -0.0175
DataValue, 1.11046, -0.0285
DataValue, 1.11484, -0.031
DataValue, 1.1200400000000002, -0.051500000000000004
DataValue, 1.12548, -0.029
DataValue, 1.12982, -0.0145
DataValue, 1.1346200000000002, -0.045
DataValue, 1.1396600000000001, -0.0335
DataValue, 1.1446, -0.0155
DataValue, 1.15022, -0.036000000000000004
DataValue, 1.1547, -0.0275
DataValue, 1.16012, -0.028
DataValue, 1.16436, -0.0415
DataValue, 1.1698600000000001, -0.025
DataValue, 1.1748800000000002, -0.0395
DataValue, 1.17992, -0.03
DataValue, 1.18472, -0.024
DataValue, 1.1899600000000001, -0.012
DataValue, 1.1957600000000002, -0.031
DataValue, 1.19964, -0.033
DataValue, 1.20446, -0.032
DataValue, 1.21058, -0.017
DataValue, 1.2154800000000001, -0.0335
DataValue, 1.22032, -0.036000000000000004
DataValue, 1.2250400000000001, -0.0325
DataValue, 1.23004, -0.0325
DataValue, 1.2351, -0.0415
DataValue, 1.2402600000000001, -0.031
DataValue, 1.24492, -0.022
DataValue, 1.24944, -0.021500000000000002
DataValue, 1.2551400000000001, -0.056
DataValue, 1.2608000000000001, -0.043500000000000004
DataValue, 1.2652, -0.0145
DataValue, 1.27044, -0.0315
DataValue, 1.27486, -0.04
DataValue, 1.28038, -0.0305
DataValue, 1.28536, -0.0155
DataValue, 1.2899800000000001, -0.0325
DataValue, 1.29418, -0.034
DataValue, 1.3001600000000002, -0.054
DataValue, 1.3049000000000002, -0.0125
DataValue, 1.3101600000000002, -0.0405
DataValue, 1.3152000000000002, -0.047
DataValue, 1.32, -0.03
DataValue, 1.32468, -0.02
DataValue, 1.32976, -0.048
DataValue, 1.33512, -0.025500000000000002
DataValue, 1.33992, -0.039
DataValue, 1.3453400000000002, -0.0095
DataValue, 1.3502, -0.04
DataValue, 1.3545200000000002, -0.03
DataValue, 1.3599800000000002, -0.017
DataValue, 1.36518, -0.0165
DataValue, 1.3699000000000001, -0.0265
DataValue, 1.37518, -0.043500000000000004
DataValue, 1.3797000000000002, -0.0285
DataValue, 1.3848, -0.0090000000000000011
DataValue, 1.3901400000000002, -0.048
DataValue, 1.39484, -0.0525
DataValue, 1.39996, -0.0105
DataValue, 1.40476, -0.021
DataValue, 1.4095000000000002, -0.04
DataValue, 1.41484, -0.027
DataValue, 1.4199400000000002, -0.021500000000000002
DataValue, 1.4247200000000002, -0.023
DataValue, 1.43006, -0.04
DataValue, 1.4352800000000001, -0.032
DataValue, 1.4397000000000002, -0.0155
DataValue, 1.44568, -0.0225
DataValue, 1.4500400000000002, -0.0475
DataValue, 1.4552, -0.0305
DataValue, 1.4597000000000002, -0.014
DataValue, 1.46446, -0.0385
DataValue, 1.4700000000000002, -0.0405
DataValue, 1.4751400000000001, -0.04
DataValue, 1.4799000000000002, -0.018000000000000002
DataValue, 1.4855, -0.019
DataValue, 1.4899200000000001, -0.0455
DataValue, 1.4952400000000001, -0.026000000000000002
DataValue, 1.50014, -0.015
DataValue, 1.5049800000000002, -0.0185
DataValue, 1.51008, -0.038
DataValue, 1.5151400000000002, -0.036000000000000004
DataValue, 1.5206000000000002, -0.0275
DataValue, 1.5256800000000002, -0.0195
DataValue, 1.5300200000000002, -0.044
DataValue, 1.5352800000000002, -0.025500000000000002
DataValue, 1.54014, -0.021500000000000002
DataValue, 1.5449000000000002, -0.0205
DataValue, 1.54942, -0.013000000000000001
DataValue, 1.5550000000000002, -0.028
DataValue, 1.5597200000000002, -0.026000000000000002
DataValue, 1.56478, -0.018000000000000002
DataValue, 1.5702600000000002, -0.028
DataValue, 1.5744200000000002, -0.0425
DataValue, 1.5790600000000001, -0.0305
DataValue, 1.5853000000000002, -0.0175
DataValue, 1.5899, -0.0335
DataValue, 1.5949000000000002, -0.039
DataValue, 1.59956, -0.0165
DataValue, 1.6055400000000002, -0.0075
DataValue, 1.6097000000000001, -0.0275
DataValue, 1.61478, -0.04
DataValue, 1.6197400000000002, -0.0365
DataValue, 1.6240200000000002, -0.029500000000000002
DataValue, 1.62992, -0.042
DataValue, 1.63514, -0.0455
DataValue, 1.63996, -0.03
DataValue, 1.6454000000000002, -0.017
DataValue, 1.6501400000000002, -0.031
DataValue, 1.6551000000000002, -0.04
DataValue, 1.6606400000000001, -0.043500000000000004
DataValue, 1.6648800000000001, -0.026000000000000002
DataValue, 1.6690200000000002, -0.0365
DataValue, 1.6746400000000001, -0.0535
DataValue, 1.6800000000000002, -0.028
DataValue, 1.6847400000000001, -0.0155
DataValue, 1.6900000000000002, -0.0235
DataValue, 1.6953600000000002, -0.0345
DataValue, 1.70036, -0.029
DataValue, 1.7050600000000002, -0.02
DataValue, 1.7104400000000002, -0.017
DataValue, 1.7147800000000002, -0.041
DataValue, 1.7201000000000002, -0.0485
DataValue, 1.72462, -0.024
DataValue, 1.72924, -0.0165
DataValue, 1.73564, -0.02
DataValue, 1.7397600000000002, -0.045
DataValue, 1.74452, -0.035
DataValue, 1.7499200000000001, -0.025500000000000002
DataValue, 1.7544400000000002, -0.034
DataValue, 1.7595600000000002, -0.0455
DataValue, 1.76496, -0.0425
DataValue, 1.77014, -0.0305
DataValue, 1.77458, -0.0225
DataValue, 1.78004, -0.0315
DataValue, 1.78502, -0.0535
DataValue, 1.79024, -0.02
DataValue, 1.7945200000000001, -0.0185
DataValue, 1.7998200000000002, -0.022
DataValue, 1.8053200000000003, -0.0405
DataValue, 1.80946, -0.039
DataValue, 1.8159800000000002, -0.028
DataValue, 1.8202200000000002, -0.021500000000000002
DataValue, 1.8245200000000001, -0.025500000000000002
DataValue, 1.83048, -0.043000000000000003
DataValue, 1.8350600000000001, -0.034
DataValue, 1.83996, -0.02
DataValue, 1.8450600000000001, -0.029
DataValue, 1.8498800000000002, -0.0405
DataValue, 1.8553800000000003, -0.028
DataValue, 1.8602800000000002, -0.0075
DataValue, 1.86488, -0.023
DataValue, 1.8701800000000002, -0.0465
DataValue, 1.87538, -0.037
DataValue, 1.8797400000000002, -0.0275
DataValue, 1.8855000000000002, -0.022
DataValue, 1.8907200000000002, -0.045
DataValue, 1.8946, -0.036000000000000004
