
SetupTitle, Rds-Id
ApplicationTest, Rds-Id, Public
TestParameter, Name, Memo, Scale, HoldTime, PulseBase, PulseAvgCnt, Gate, VgStart, VgStop, VgStep, IgLimit, Source, MeasurementTime, Drain, IdStart, IdStop, IdLinearStep, VdLimit, VdStop, PulsePeriodMode, ManualPulsePeriod, PulseWidth
TestParameter, Value, , LINEAR, 0, 0, 1, SMU2:MC	MCSMU, 20, 5, 1, 0.1, GNDU:GND	GNDU, 1E-05, SMU3:UHC500	UHCU500A, 0.5, 30, 0.2, 2, 0, 0, 0.05, 0.0002
DutParameter, Name, Polarity, Temp, YAxisRdsMin, YAxisRdsMax
DutParameter, Value, 1, 25, 0.001, 1
MetaData, TestRecord.EntryPoint, true
MetaData, TestRecord.RecordTime, 04/16/2021 15:25:29
MetaData, TestRecord.TestTarget, 
MetaData, TestRecord.IterationIndex, 1
MetaData, TestRecord.Preservation, true
MetaData, TestRecord.Flag, 
MetaData, TestRecord.Remarks, 
MetaData, TestRecord.LinkKey, 9507772f-83bf-4138-b611-7fb76f8faade
Dimension1, 148, 148, 148, 148, 148, 148
Dimension2, 16, 16, 16, 16, 16, 16
DataName, Igate, Vgate, Vdrain, Idrain, Ta, Rds
DataValue, -2.9E-06, 20.000960000000003, 0.0008, 0.097, 25, 0.0082474226804123713
DataValue, -2.7000000000000004E-06, 19.999820000000003, 0.0056, 0.2645, 25, 0.021172022684310017
DataValue, -5.1E-06, 19.99894, 0.0125, 0.52, 25, 0.02403846153846154
DataValue, -3.1000000000000004E-06, 19.9999, 0.0183, 0.757, 25, 0.02417437252311757
DataValue, -2.0000000000000002E-07, 19.99996, 0.0251, 1.0010000000000001, 25, 0.025074925074925074
DataValue, -3E-06, 20.000300000000003, 0.0308, 1.214, 25, 0.025370675453047779
DataValue, -4.2000000000000004E-06, 19.999660000000002, 0.0347, 1.4285, 25, 0.024291214560728035
DataValue, -4.6E-06, 20, 0.0424, 1.661, 25, 0.025526791089704997
DataValue, -2.6E-06, 19.9999, 0.0466, 1.8760000000000001, 25, 0.024840085287846481
DataValue, -2.6E-06, 20.00028, 0.052500000000000005, 2.076, 25, 0.025289017341040464
DataValue, -1.9000000000000002E-06, 20.00066, 0.0589, 2.2955, 25, 0.025658897843607056
DataValue, -4.0000000000000007E-06, 20.00018, 0.063, 2.5155, 25, 0.025044722719141325
DataValue, -3.1000000000000004E-06, 19.999460000000003, 0.067, 2.7105, 25, 0.024718686589190186
DataValue, -4.2000000000000004E-06, 20.000400000000003, 0.0734, 2.9235, 25, 0.025106892423465026
DataValue, -3.7E-06, 20.000220000000002, 0.077800000000000008, 3.1075, 25, 0.025036202735317783
DataValue, -1.2000000000000002E-06, 20.00028, 0.0819, 3.332, 25, 0.024579831932773112
DataValue, -4.3E-06, 19.99986, 0.0882, 3.548, 25, 0.024859075535512965
DataValue, -3.3E-06, 20.00026, 0.092800000000000007, 3.751, 25, 0.024740069314849376
DataValue, -5.0000000000000008E-07, 20.000400000000003, 0.0984, 3.9410000000000003, 25, 0.024968282161887845
DataValue, -3.3E-06, 20.00072, 0.101, 4.1365, 25, 0.024416777468874655
DataValue, -2.3E-06, 19.99986, 0.1063, 4.344, 25, 0.024470534069981582
DataValue, -3.9E-06, 19.999840000000003, 0.1114, 4.5405, 25, 0.024534742869728003
DataValue, -2.5E-06, 19.999460000000003, 0.1182, 4.741, 25, 0.024931449061379458
DataValue, -5E-06, 20.000040000000002, 0.12340000000000001, 4.9545, 25, 0.02490665051972954
DataValue, -2.5E-06, 20.000040000000002, 0.12710000000000002, 5.1770000000000005, 25, 0.024550898203592814
DataValue, -3.8000000000000005E-06, 19.99944, 0.1328, 5.3415, 25, 0.024861930169428063
DataValue, -4.8000000000000006E-06, 19.99902, 0.1385, 5.5520000000000005, 25, 0.024945965417867436
DataValue, -3.5000000000000004E-06, 19.999740000000003, 0.1424, 5.7410000000000005, 25, 0.024804041107820935
DataValue, -2.0000000000000003E-06, 20.000140000000002, 0.1479, 5.96, 25, 0.024815436241610738
DataValue, -3.3E-06, 20.000220000000002, 0.15180000000000002, 6.164, 25, 0.024626865671641796
DataValue, -3.5000000000000004E-06, 20.000100000000003, 0.1582, 6.3375, 25, 0.024962524654832348
DataValue, -3.8000000000000005E-06, 19.999940000000002, 0.16240000000000002, 6.539, 25, 0.024835601773971559
DataValue, -2.3E-06, 19.999560000000002, 0.16790000000000002, 6.7535, 25, 0.024861183090249504
DataValue, -4.7000000000000007E-06, 20.000120000000003, 0.17400000000000002, 6.953, 25, 0.025025168991802103
DataValue, -3.2000000000000003E-06, 19.99972, 0.17650000000000002, 7.115, 25, 0.024806746310611385
DataValue, -3.4000000000000005E-06, 19.99904, 0.1822, 7.267, 25, 0.025072244392459059
DataValue, -3.1000000000000004E-06, 19.9998, 0.1864, 7.4425, 25, 0.025045347665435005
DataValue, -4.5E-06, 19.99968, 0.1889, 7.5435, 25, 0.025041426393583883
DataValue, -3.2000000000000003E-06, 19.99952, 0.1895, 7.6515, 25, 0.024766385676011238
DataValue, -3.1000000000000004E-06, 19.9996, 0.19210000000000002, 7.7505, 25, 0.024785497709825174
DataValue, -4.7000000000000007E-06, 20.00036, 0.1913, 7.7815, 25, 0.02458394911006875
DataValue, -4.4E-06, 19.999820000000003, 0.19210000000000002, 7.8095, 25, 0.024598245726358926
DataValue, -3.4000000000000005E-06, 19.999380000000002, 0.19390000000000002, 7.8665, 25, 0.024648827305663257
DataValue, -3.9E-06, 20.000220000000002, 0.19410000000000002, 7.8655, 25, 0.024677388595766323
DataValue, -5.8E-06, 20.00008, 0.194, 7.8475, 25, 0.024721248805352022
DataValue, -1.3E-06, 20.000140000000002, 0.1958, 7.8925, 25, 0.024808362369337981
DataValue, -8.0000000000000007E-07, 20.00072, 0.1963, 7.9105, 25, 0.024815119145439605
DataValue, -4.9000000000000005E-06, 19.99996, 0.1947, 7.9015, 25, 0.024640890970068975
DataValue, -3.5000000000000004E-06, 20.00062, 0.1956, 7.8820000000000006, 25, 0.024816036538949503
DataValue, -2.2E-06, 20.00024, 0.1947, 7.9045000000000005, 25, 0.024631538996773988
DataValue, -2.1000000000000002E-06, 19.9998, 0.1943, 7.9220000000000006, 25, 0.024526634688210047
DataValue, -2.2E-06, 20.000200000000003, 0.1945, 7.912, 25, 0.024582912032355915
DataValue, -4.5E-06, 19.9996, 0.1958, 7.9135, 25, 0.024742528590383523
DataValue, -7.0000000000000007E-07, 20.00008, 0.19490000000000002, 7.9185, 25, 0.0246132474584833
DataValue, -8.0000000000000007E-07, 20.0008, 0.1958, 7.9115, 25, 0.024748783416545534
DataValue, -1.8000000000000001E-06, 20.00034, 0.1953, 7.9105, 25, 0.024688704885911131
DataValue, -2.6E-06, 20.00006, 0.1967, 7.9270000000000005, 25, 0.024813927084647407
DataValue, -3.7E-06, 20.00024, 0.19640000000000002, 7.9300000000000006, 25, 0.02476670870113493
DataValue, -6.2000000000000008E-06, 19.9995, 0.1952, 7.909, 25, 0.024680743456821346
DataValue, -2.9E-06, 19.999760000000002, 0.1958, 7.925, 25, 0.024706624605678233
DataValue, -5.7000000000000005E-06, 19.99958, 0.1958, 7.934, 25, 0.024678598437106125
DataValue, -3.8000000000000005E-06, 20.00062, 0.1957, 7.9155, 25, 0.024723643484302952
DataValue, -4.7000000000000007E-06, 19.99914, 0.1955, 7.9270000000000005, 25, 0.024662545729784283
DataValue, -4.0000000000000007E-06, 19.99988, 0.1953, 7.933, 25, 0.024618681457204084
DataValue, -3.8000000000000005E-06, 19.99914, 0.1947, 7.9190000000000005, 25, 0.024586437681525446
DataValue, -2.6E-06, 20.00082, 0.1948, 7.945, 25, 0.024518565135305221
DataValue, -3.4000000000000005E-06, 19.999360000000003, 0.1968, 7.9335, 25, 0.024806201550387597
DataValue, -2.0000000000000002E-07, 20.000400000000003, 0.1971, 7.9140000000000006, 25, 0.024905231235784683
DataValue, -1.5E-06, 20, 0.1963, 7.936, 25, 0.024735383064516128
DataValue, -2.2E-06, 20, 0.196, 7.9270000000000005, 25, 0.024725621294310583
DataValue, -4.2000000000000004E-06, 20.00052, 0.1948, 7.9205000000000005, 25, 0.024594406918755127
DataValue, -1.7000000000000002E-06, 20.00118, 0.1953, 7.9345, 25, 0.024614027348919276
DataValue, -3.1000000000000004E-06, 20.000120000000003, 0.1955, 7.932, 25, 0.024646999495713567
DataValue, -5.6000000000000006E-06, 19.99962, 0.1951, 7.9220000000000006, 25, 0.02462761928805857
DataValue, -1.9000000000000002E-06, 20.00062, 0.1962, 7.9300000000000006, 25, 0.024741488020176543
DataValue, -1.7000000000000002E-06, 20.00034, 0.1955, 7.923, 25, 0.024674996844629562
DataValue, -4.0000000000000003E-07, 19.9998, 0.1976, 7.9485, 25, 0.02486003648487136
DataValue, -1.0000000000000002E-06, 19.9998, 0.1976, 7.9155, 25, 0.024963678857936961
DataValue, -4.9000000000000005E-06, 20.000400000000003, 0.196, 7.9220000000000006, 25, 0.02474122696288816
DataValue, -2.0000000000000003E-06, 20.00026, 0.19460000000000002, 7.948, 25, 0.024484146955208858
DataValue, -4.3E-06, 19.999360000000003, 0.1955, 7.9300000000000006, 25, 0.024653215636822195
DataValue, -2.1000000000000002E-06, 19.9999, 0.197, 7.9105, 25, 0.024903609127109538
DataValue, -1.3E-06, 20.00026, 0.1953, 7.9195, 25, 0.024660647768167183
DataValue, -2.4000000000000003E-06, 19.9996, 0.19540000000000002, 7.9140000000000006, 25, 0.024690422036896639
DataValue, -7.1000000000000006E-06, 19.9999, 0.197, 7.9305, 25, 0.024840804488998173
DataValue, -2.0000000000000003E-06, 20.000140000000002, 0.1957, 7.9365000000000006, 25, 0.024658224658224658
DataValue, -3.5000000000000004E-06, 19.9996, 0.19640000000000002, 7.923, 25, 0.02478859018048719
DataValue, -6E-06, 19.99988, 0.1956, 7.9345, 25, 0.02465183691473943
DataValue, -3.2000000000000003E-06, 20.000020000000003, 0.1963, 7.9485, 25, 0.024696483613260364
DataValue, -2.6E-06, 20.00044, 0.1947, 7.9405, 25, 0.024519866507146906
DataValue, -4.7000000000000007E-06, 20.00024, 0.19540000000000002, 7.916, 25, 0.024684183931278424
DataValue, -2.2E-06, 20.000320000000002, 0.19440000000000002, 7.9225, 25, 0.024537709056484697
DataValue, -2.6E-06, 20.000140000000002, 0.1965, 7.9140000000000006, 25, 0.024829416224412433
DataValue, -1.4000000000000002E-06, 20.00036, 0.1953, 7.9350000000000005, 25, 0.024612476370510394
DataValue, -2.4000000000000003E-06, 19.99986, 0.19590000000000002, 7.9375, 25, 0.024680314960629925
DataValue, -1.5E-06, 20.000300000000003, 0.1957, 7.934, 25, 0.024665994454247542
DataValue, -2.1000000000000002E-06, 19.99988, 0.1958, 7.9335, 25, 0.024680153778281966
DataValue, -2.8000000000000003E-06, 20.00024, 0.19490000000000002, 7.9215, 25, 0.024603926024111596
DataValue, -2.5E-06, 20.000200000000003, 0.1962, 7.9430000000000005, 25, 0.024700994586428302
DataValue, -3.4000000000000005E-06, 19.999920000000003, 0.1957, 7.9465, 25, 0.024627194362297867
DataValue, -5.1E-06, 19.999820000000003, 0.195, 7.9225, 25, 0.024613442726412117
DataValue, -9.0000000000000007E-07, 20.00044, 0.1953, 7.9060000000000006, 25, 0.02470275739944346
DataValue, -3.9E-06, 19.99998, 0.19590000000000002, 7.9415000000000004, 25, 0.024667883901026255
DataValue, -6E-06, 19.999840000000003, 0.196, 7.953, 25, 0.02464478813026531
DataValue, -4.3E-06, 19.999280000000002, 0.1953, 7.936, 25, 0.024609375
DataValue, -3.3E-06, 20.000220000000002, 0.1966, 7.9275, 25, 0.024799747713654997
DataValue, -4.3E-06, 19.999360000000003, 0.19540000000000002, 7.9285000000000005, 25, 0.024645267074478148
DataValue, -4.1000000000000006E-06, 20.000200000000003, 0.1962, 7.9425, 25, 0.024702549575070825
DataValue, -3.4000000000000005E-06, 19.99912, 0.195, 7.9575000000000005, 25, 0.024505183788878417
DataValue, -4.8000000000000006E-06, 20.000020000000003, 0.19590000000000002, 7.9220000000000006, 25, 0.024728603887907093
DataValue, -2.3E-06, 19.9999, 0.1945, 7.9235, 25, 0.024547232914747273
DataValue, -4.9000000000000005E-06, 19.99996, 0.1956, 7.94, 25, 0.024634760705289672
DataValue, -6.0000000000000008E-07, 20.00026, 0.1963, 7.9435, 25, 0.024712028702712909
DataValue, -1.3E-06, 20.00072, 0.196, 7.913, 25, 0.024769366864653104
DataValue, -2.2E-06, 19.99996, 0.1966, 7.9305, 25, 0.024790366307294621
DataValue, -5.6000000000000006E-06, 20.000200000000003, 0.19740000000000002, 7.9275, 25, 0.024900662251655631
DataValue, -2.0000000000000003E-06, 20.000220000000002, 0.1971, 7.939, 25, 0.024826804383423603
DataValue, -5.0000000000000008E-07, 20.000420000000002, 0.19590000000000002, 7.9075, 25, 0.02477394878280114
DataValue, -3.8000000000000005E-06, 20.000100000000003, 0.1963, 7.9355, 25, 0.024736941591582129
DataValue, -4.7000000000000007E-06, 19.998720000000002, 0.1955, 7.942, 25, 0.024615965751699824
DataValue, -4.1000000000000006E-06, 19.999640000000003, 0.1976, 7.932, 25, 0.024911749873928388
DataValue, -5.2E-06, 19.99902, 0.197, 7.9365000000000006, 25, 0.024822024822024821
DataValue, -3.2000000000000003E-06, 20.00044, 0.1963, 7.942, 25, 0.024716696046335935
DataValue, -1.5E-06, 20.000200000000003, 0.1963, 7.9515, 25, 0.024687165943532666
DataValue, -2.7000000000000004E-06, 19.99944, 0.1975, 7.9225, 25, 0.024928999684443041
DataValue, -1.3E-06, 19.9998, 0.1958, 7.9415000000000004, 25, 0.024655291821444311
DataValue, -2.3E-06, 20.000140000000002, 0.1973, 7.941, 25, 0.024845737312681023
DataValue, -3E-06, 19.99942, 0.1963, 7.923, 25, 0.024775968698725229
DataValue, -4.1000000000000006E-06, 20.00028, 0.195, 7.942, 25, 0.024553009317552252
DataValue, -3.6000000000000003E-06, 19.99972, 0.1967, 7.939, 25, 0.024776420204055929
DataValue, -5.0000000000000008E-07, 20.00028, 0.1951, 7.9165, 25, 0.024644729362723425
DataValue, -5.5000000000000007E-06, 20.000020000000003, 0.1958, 7.939, 25, 0.024663055800478648
DataValue, -2.3E-06, 20.00024, 0.1956, 7.913, 25, 0.024718817136357891
DataValue, -2.7000000000000004E-06, 19.99962, 0.1955, 7.923, 25, 0.024674996844629562
DataValue, -3.1000000000000004E-06, 20.000140000000002, 0.19590000000000002, 7.9445000000000006, 25, 0.024658568821197054
DataValue, -3.6000000000000003E-06, 20.00028, 0.1965, 7.9265, 25, 0.024790260518513848
DataValue, -3.2000000000000003E-06, 19.99958, 0.1968, 7.966, 25, 0.024704996233994476
DataValue, -1.6000000000000001E-06, 19.999940000000002, 0.196, 7.92, 25, 0.024747474747474747
DataValue, -2.6E-06, 20.000300000000003, 0.1943, 7.9285000000000005, 25, 0.0245065270858296
DataValue, -3E-06, 20.000980000000002, 0.196, 7.931, 25, 0.024713150926743161
DataValue, -2.1000000000000002E-06, 20.00056, 0.197, 7.923, 25, 0.024864319071058943
DataValue, -1.0000000000000001E-07, 19.99996, 0.19590000000000002, 7.9505, 25, 0.024639959750959062
DataValue, -1.4000000000000002E-06, 20.000100000000003, 0.19720000000000001, 7.9275, 25, 0.024875433617155471
DataValue, -1.9000000000000002E-06, 20.00046, 0.1967, 7.9395, 25, 0.024774859877826062
DataValue, -1.8000000000000001E-06, 19.99986, 0.1965, 7.9475, 25, 0.024724756212645489
DataValue, -4.1000000000000006E-06, 19.999840000000003, 0.195, 7.91, 25, 0.024652338811630849
DataValue, -2.9E-06, 20.00028, 0.19740000000000002, 7.9375, 25, 0.024869291338582681
DataValue, -3.2000000000000003E-06, 20.000100000000003, 0.1971, 7.9315, 25, 0.024850280527012544
DataValue, -5.0000000000000008E-07, 19, 0.0033, 0.101, 25, 0.032673267326732668
DataValue, -1.8000000000000001E-06, 18.999840000000003, 0.0072000000000000007, 0.28400000000000003, 25, 0.025352112676056339
DataValue, -2.5E-06, 18.99944, 0.0142, 0.548, 25, 0.025912408759124088
DataValue, -4.3E-06, 18.9993, 0.019700000000000002, 0.745, 25, 0.026442953020134233
DataValue, -3.6000000000000003E-06, 19.00024, 0.025500000000000002, 1.0045, 25, 0.025385764061722254
DataValue, -2.9E-06, 19.000200000000003, 0.032, 1.229, 25, 0.026037428803905614
DataValue, -1.6000000000000001E-06, 18.99986, 0.0375, 1.4585000000000001, 25, 0.025711347274597184
DataValue, -3.7E-06, 19.000300000000003, 0.043500000000000004, 1.6595, 25, 0.026212714673094308
DataValue, -4.6E-06, 18.9999, 0.0492, 1.8645, 25, 0.026387771520514882
DataValue, -2.3E-06, 19.00016, 0.0531, 2.086, 25, 0.025455417066155325
DataValue, -2.8000000000000003E-06, 19.00016, 0.059800000000000006, 2.283, 25, 0.02619360490582567
DataValue, -6.1000000000000009E-06, 18.99958, 0.0646, 2.5145, 25, 0.025690992244979123
DataValue, -2.6E-06, 19.00016, 0.069600000000000009, 2.7015000000000002, 25, 0.025763464741810106
DataValue, -1.9000000000000002E-06, 19.000400000000003, 0.075400000000000009, 2.926, 25, 0.025768967874231035
DataValue, -3.6000000000000003E-06, 18.9996, 0.08030000000000001, 3.1270000000000002, 25, 0.025679565078349856
DataValue, -4.4E-06, 19.000140000000002, 0.0845, 3.322, 25, 0.025436484045755572
DataValue, -6.0000000000000008E-07, 19.00056, 0.090000000000000011, 3.5465, 25, 0.025377132384040605
DataValue, -5.4000000000000008E-06, 18.9999, 0.095, 3.72, 25, 0.025537634408602149
DataValue, -4.0000000000000003E-07, 18.999560000000002, 0.1027, 3.9445, 25, 0.026036253010520979
DataValue, -5.5000000000000007E-06, 19.00006, 0.1077, 4.1415, 25, 0.026005070626584574
DataValue, 1.0000000000000002E-06, 19.00084, 0.1114, 4.352, 25, 0.025597426470588235
DataValue, -5.3E-06, 19.00018, 0.11810000000000001, 4.53, 25, 0.026070640176600442
DataValue, -4.0000000000000007E-06, 18.99986, 0.1246, 4.759, 25, 0.02618197100231141
DataValue, -1.3E-06, 19.000020000000003, 0.1269, 4.954, 25, 0.025615664109810258
DataValue, -1.9000000000000002E-06, 19.000200000000003, 0.13240000000000002, 5.1345, 25, 0.0257863472587399
DataValue, -2.0000000000000003E-06, 18.999280000000002, 0.1374, 5.354, 25, 0.025663055659320134
DataValue, -1.5E-06, 19.000220000000002, 0.14400000000000002, 5.5445, 25, 0.025971683650464428
DataValue, 4.0000000000000003E-07, 19.00052, 0.1499, 5.7540000000000004, 25, 0.026051442474800138
DataValue, -2.7000000000000004E-06, 18.999840000000003, 0.1537, 5.9405, 25, 0.025873242993014058
DataValue, -2.8000000000000003E-06, 18.99912, 0.1582, 6.1605, 25, 0.0256797337878419
DataValue, -4.7000000000000007E-06, 18.99932, 0.1648, 6.3425, 25, 0.02598344501379582
DataValue, -2.1000000000000002E-06, 18.999840000000003, 0.1693, 6.5445, 25, 0.025869050347620139
DataValue, -1.5E-06, 19.00054, 0.17470000000000002, 6.7505, 25, 0.025879564476705433
DataValue, -4.3E-06, 18.99932, 0.18130000000000002, 6.947, 25, 0.026097596084640854
DataValue, -5.2E-06, 19.00052, 0.1831, 7.1065000000000005, 25, 0.025765144585942448
DataValue, -3.8000000000000005E-06, 18.999840000000003, 0.18860000000000002, 7.283, 25, 0.025895922010160648
DataValue, -5.5000000000000007E-06, 18.9999, 0.19060000000000002, 7.42, 25, 0.025687331536388143
DataValue, -2.4000000000000003E-06, 18.999560000000002, 0.1963, 7.551, 25, 0.025996556747450668
DataValue, -4.0000000000000007E-06, 19.000100000000003, 0.1971, 7.6255, 25, 0.025847485410792737
DataValue, -2.2E-06, 18.999840000000003, 0.1986, 7.7225, 25, 0.025717060537390739
DataValue, -5.6000000000000006E-06, 18.99914, 0.2006, 7.7525, 25, 0.025875524024508222
DataValue, -2.9E-06, 18.9996, 0.20120000000000002, 7.8005, 25, 0.025793218383436959
DataValue, -2.5E-06, 19.000020000000003, 0.2024, 7.8285, 25, 0.025854250494986266
DataValue, 1.0000000000000001E-07, 19.000300000000003, 0.2023, 7.8255, 25, 0.02585138329819181
DataValue, -2.9E-06, 19.00006, 0.20220000000000002, 7.8645000000000005, 25, 0.025710471104329582
DataValue, 1.5E-06, 19.0009, 0.20270000000000002, 7.8515000000000006, 25, 0.025816722919187417
DataValue, -4.1000000000000006E-06, 19.00026, 0.2024, 7.869, 25, 0.025721184394459272
DataValue, -3.8000000000000005E-06, 19.000200000000003, 0.2031, 7.87, 25, 0.025806861499364675
DataValue, -1.9000000000000002E-06, 19.000980000000002, 0.2036, 7.8595000000000006, 25, 0.025904955785991474
DataValue, -3.2000000000000003E-06, 18.99972, 0.20220000000000002, 7.875, 25, 0.025676190476190477
DataValue, -2.5E-06, 18.999820000000003, 0.20320000000000002, 7.8715, 25, 0.0258146477799657
DataValue, -4.4E-06, 18.999460000000003, 0.20220000000000002, 7.8845, 25, 0.025645253345170906
DataValue, -3.3E-06, 19.000140000000002, 0.20270000000000002, 7.8900000000000006, 25, 0.025690747782002536
DataValue, -2.7000000000000004E-06, 19.000220000000002, 0.20350000000000001, 7.875, 25, 0.025841269841269842
DataValue, -3.3E-06, 18.99988, 0.2041, 7.902, 25, 0.025828904074917742
DataValue, -1.0000000000000002E-06, 19.00064, 0.20270000000000002, 7.8795, 25, 0.025724982549654166
DataValue, -2.6E-06, 19.00064, 0.2033, 7.884, 25, 0.025786402841197362
DataValue, -4.8000000000000006E-06, 18.99962, 0.2025, 7.894, 25, 0.025652394223460856
DataValue, -2.4000000000000003E-06, 19.00046, 0.2034, 7.8660000000000005, 25, 0.025858123569794049
