
SetupTitle, ID-VGS
PrimitiveTest, Multi Channel I/V Sweep
TestParameter, Channel.UnitType, SMU, SMU
TestParameter, Channel.Unit, SMU2:MC, SMU3:UHC500
TestParameter, Channel.IName, IG, ID
TestParameter, Channel.VName, VGS, VDS
TestParameter, Channel.Mode, VPULSE, VPULSE
TestParameter, Channel.Func, VAR1, CONST
TestParameter, Channel.Index, 
TestParameter, Channel.Time, 
TestParameter, Measurement.Port.Unit, SMU2:MC, SMU3:UHC500
TestParameter, Measurement.Port.SeriesResistor, NONE, NONE
TestParameter, Measurement.Port.Filter, OFF, OFF
TestParameter, Measurement.Port.OutputVoltageComparison, 0, 0
TestParameter, Measurement.Primary.Start, 0
TestParameter, Measurement.Primary.Stop, 10
TestParameter, Measurement.Primary.Compliance, 0.099999999999999992
TestParameter, Measurement.Primary.PowerCompliance, 0
TestParameter, Measurement.Primary.Locus, Single
TestParameter, Measurement.Primary.Scale, LINEAR
TestParameter, Measurement.Primary.Count, 2001
TestParameter, Measurement.Aborting.Condition, CONTINUE AT ANY
TestParameter, Measurement.PostOutput.Value, START
TestParameter, Measurement.PostOutput.Retention, OFF
TestParameter, Measurement.Bias.Source, 0, 3
TestParameter, Measurement.Bias.Compliance, 0.099999999999999992, 5
TestParameter, Measurement.Pulse.Delay, 0, 9.9999999999999991E-05
TestParameter, Measurement.Pulse.Duration, 0.001, 4.9999999999999996E-05
TestParameter, Measurement.Pulse.Base, 0, 0
TestParameter, Measurement.Pulse.Period, 0
TestParameter, Measurement.Pulse.MeasurementDelay, 0
TestParameter, Measurement.Pulse.AveragingCount, 1
TestParameter, Measurement.Monitor.Unit, SMU2:MC, SMU3:UHC500
TestParameter, Measurement.Monitor.Adc, HS ADC, HS ADC
TestParameter, Measurement.Monitor.Measurement, Force and Compliance Sides, Force and Compliance Sides
TestParameter, Measurement.Timing.Hold, 0
TestParameter, Measurement.Timing.Delay, 0
TestParameter, Measurement.Adc.HighSpeed.Mode, TIME
TestParameter, Measurement.Adc.HighSpeed.Coeff, 9.9999999999999991E-06
TestParameter, Measurement.Adc.HighResolution.AutoZero, OFF
TestParameter, Measurement.Adc.HighResolution.Mode, AUTO
TestParameter, Measurement.Adc.HighResolution.Coeff, 6
TestParameter, Measurement.WaitTime.Source.Coeff, 1
TestParameter, Measurement.WaitTime.Source.Offset, 0
TestParameter, Measurement.WaitTime.Monitor.Coeff, 1
TestParameter, Measurement.WaitTime.Monitor.Offset, 0
TestParameter, Output.Graph.Enabled, true
TestParameter, Output.Graph.AutoScaling, false
TestParameter, Output.Graph.XAxis.Data, VGS
TestParameter, Output.Graph.XAxis.Scale, Linear
TestParameter, Output.Graph.XAxis.Left, -5.4
TestParameter, Output.Graph.XAxis.Right, 12.6
TestParameter, Output.Graph.XAxis.RunTimeAutoScale, false
TestParameter, Output.Graph.YAxis.Data, ID
TestParameter, Output.Graph.YAxis.Scale, Linear
TestParameter, Output.Graph.YAxis.Bottom, 0
TestParameter, Output.Graph.YAxis.Top, 10
TestParameter, Output.Graph.YAxis.Group, 
TestParameter, Output.Graph.YAxis.RunTimeAutoScale, false
TestParameter, Output.List.Data, VGS, ID
TestParameter, AutoAnalysis.Interpolation, false
TestParameter, AutoAnalysis.Line1.Enabled, false
TestParameter, AutoAnalysis.Line1.Type, 1
TestParameter, AutoAnalysis.Line1.Fix, True
TestParameter, AutoAnalysis.Line1.YAxis, 0
TestParameter, AutoAnalysis.Line1.Point1.Type, 0
TestParameter, AutoAnalysis.Line1.Point1.XY.X, 
TestParameter, AutoAnalysis.Line1.Point1.XY.Y, 
TestParameter, AutoAnalysis.Line1.Point1.Data.Var, 
TestParameter, AutoAnalysis.Line1.Point1.Data.Condition, 
TestParameter, AutoAnalysis.Line1.Point1.Data.Start, false
TestParameter, AutoAnalysis.Line1.Point1.Data.StartVar, 
TestParameter, AutoAnalysis.Line1.Point1.Data.StartCondition, 
TestParameter, AutoAnalysis.Line1.Point2.Type, 0
TestParameter, AutoAnalysis.Line1.Point2.XY.X, 
TestParameter, AutoAnalysis.Line1.Point2.XY.Y, 
TestParameter, AutoAnalysis.Line1.Point2.Data.Var, 
TestParameter, AutoAnalysis.Line1.Point2.Data.Condition, 
TestParameter, AutoAnalysis.Line1.Point2.Data.Start, false
TestParameter, AutoAnalysis.Line1.Point2.Data.StartVar, 
TestParameter, AutoAnalysis.Line1.Point2.Data.StartCondition, 
TestParameter, AutoAnalysis.Line1.GradientExpr, 0
TestParameter, AutoAnalysis.Line2.Enabled, false
TestParameter, AutoAnalysis.Line2.Type, 1
TestParameter, AutoAnalysis.Line2.Fix, True
TestParameter, AutoAnalysis.Line2.YAxis, 0
TestParameter, AutoAnalysis.Line2.Point1.Type, 0
TestParameter, AutoAnalysis.Line2.Point1.XY.X, 
TestParameter, AutoAnalysis.Line2.Point1.XY.Y, 
TestParameter, AutoAnalysis.Line2.Point1.Data.Var, 
TestParameter, AutoAnalysis.Line2.Point1.Data.Condition, 
TestParameter, AutoAnalysis.Line2.Point1.Data.Start, false
TestParameter, AutoAnalysis.Line2.Point1.Data.StartVar, 
TestParameter, AutoAnalysis.Line2.Point1.Data.StartCondition, 
TestParameter, AutoAnalysis.Line2.Point2.Type, 0
TestParameter, AutoAnalysis.Line2.Point2.XY.X, 
TestParameter, AutoAnalysis.Line2.Point2.XY.Y, 
TestParameter, AutoAnalysis.Line2.Point2.Data.Var, 
TestParameter, AutoAnalysis.Line2.Point2.Data.Condition, 
TestParameter, AutoAnalysis.Line2.Point2.Data.Start, false
TestParameter, AutoAnalysis.Line2.Point2.Data.StartVar, 
TestParameter, AutoAnalysis.Line2.Point2.Data.StartCondition, 
TestParameter, AutoAnalysis.Line2.GradientExpr, 0
TestParameter, AutoAnalysis.Marker.Enabled, false
TestParameter, AutoAnalysis.Marker.Data.Var, 
TestParameter, AutoAnalysis.Marker.Data.Condition, 
TestParameter, AutoAnalysis.Marker.Data.Start, false
TestParameter, AutoAnalysis.Marker.Data.StartVar, 
TestParameter, AutoAnalysis.Marker.Data.StartCondition, 
MetaData, TestRecord.EntryPoint, true
MetaData, TestRecord.RecordTime, 04/30/2021 10:03:09
MetaData, TestRecord.TestTarget, 
MetaData, TestRecord.IterationIndex, 1
MetaData, TestRecord.Preservation, true
MetaData, TestRecord.Flag, 
MetaData, TestRecord.Remarks, 
MetaData, TestRecord.LinkKey, cf192f91-0c26-445c-82e2-100f47845e8c
Dimension1, 2001, 2001
Dimension2, 1, 1
DataName, VGS, ID
DataValue, 6.0000000000000008E-05, -0.0165
DataValue, 0.0049200000000000008, -0.023
DataValue, 0.0097, -0.0205
DataValue, 0.015160000000000002, -0.0305
DataValue, 0.020280000000000003, -0.012
DataValue, 0.025500000000000002, 0.0075
DataValue, 0.030680000000000002, -0.033
DataValue, 0.034760000000000006, -0.018000000000000002
DataValue, 0.039580000000000004, -0.0175
DataValue, 0.045140000000000007, -0.01
DataValue, 0.0495, 0.0015
DataValue, 0.055380000000000006, -0.0205
DataValue, 0.0594, -0.023
DataValue, 0.06578, 0.002
DataValue, 0.07034, -0.027
DataValue, 0.07456, -0.04
DataValue, 0.079520000000000007, 0.006
DataValue, 0.08482, -0.023
DataValue, 0.090100000000000013, -0.026000000000000002
DataValue, 0.09496, -0.003
DataValue, 0.10016000000000001, -0.028
DataValue, 0.10514000000000001, -0.0090000000000000011
DataValue, 0.10956, -0.0105
DataValue, 0.11562000000000001, -0.02
DataValue, 0.12000000000000001, -0.0095
DataValue, 0.12472000000000001, -0.001
DataValue, 0.12990000000000002, -0.033
DataValue, 0.13456, -0.0105
DataValue, 0.14018, -0.0095
DataValue, 0.14524, -0.0325
DataValue, 0.15002000000000001, 0
DataValue, 0.15478, -0.0065000000000000006
DataValue, 0.15990000000000001, -0.016
DataValue, 0.16466, -0.0075
DataValue, 0.16988, -0.0105
DataValue, 0.17450000000000002, -0.031
DataValue, 0.17996, 0
DataValue, 0.18518, -0.018000000000000002
DataValue, 0.19012, -0.043000000000000003
DataValue, 0.19518000000000002, -0.006
DataValue, 0.1998, -0.024
DataValue, 0.20540000000000003, -0.0265
DataValue, 0.20994000000000002, -0.019
DataValue, 0.21526, -0.0045000000000000005
DataValue, 0.22002000000000002, -0.032
DataValue, 0.22456, -0.0075
DataValue, 0.22988000000000003, -0.036000000000000004
DataValue, 0.23478000000000002, -0.025
DataValue, 0.23956000000000002, -0.005
DataValue, 0.2449, -0.025
DataValue, 0.24924000000000002, -0.013000000000000001
DataValue, 0.25472, 0.002
DataValue, 0.25984, -0.026000000000000002
DataValue, 0.26524000000000003, -0.0095
DataValue, 0.27052000000000004, -0.004
DataValue, 0.2747, -0.015
DataValue, 0.27996000000000004, -0.0315
DataValue, 0.28464, -0.013000000000000001
DataValue, 0.29008, -0.007
DataValue, 0.29488000000000003, -0.029
DataValue, 0.29960000000000003, -0.014
DataValue, 0.30482000000000004, -0.024
DataValue, 0.30952, -0.034
DataValue, 0.31562, -0.026000000000000002
DataValue, 0.32004000000000005, -0.014
DataValue, 0.32520000000000004, -0.026000000000000002
DataValue, 0.33016, -0.034
DataValue, 0.33570000000000005, -0.005
DataValue, 0.33998, -0.0325
DataValue, 0.34526, -0.0095
DataValue, 0.35026, 0.001
DataValue, 0.35446000000000005, -0.0165
DataValue, 0.36040000000000005, -0.021500000000000002
DataValue, 0.36458, -0.0055
DataValue, 0.37104000000000004, -0.012
DataValue, 0.37498000000000004, -0.026000000000000002
DataValue, 0.38060000000000005, 0.0005
DataValue, 0.38526000000000005, -0.0045000000000000005
DataValue, 0.39096000000000003, -0.022
DataValue, 0.3955, -0.0075
DataValue, 0.40022, -0.001
DataValue, 0.40476, -0.0305
DataValue, 0.40978000000000003, -0.0205
DataValue, 0.41490000000000005, -0.0045000000000000005
DataValue, 0.42006000000000004, -0.0065000000000000006
DataValue, 0.42544000000000004, -0.032
DataValue, 0.4298, -0.0275
DataValue, 0.4348, -0.0175
DataValue, 0.44036000000000003, -0.0305
DataValue, 0.44522000000000006, -0.0165
DataValue, 0.44932000000000005, -0.018000000000000002
DataValue, 0.4554, -0.0375
DataValue, 0.46006, -0.0205
DataValue, 0.46536000000000005, -0.0035
DataValue, 0.46982, -0.019
DataValue, 0.4752, -0.029
DataValue, 0.47954, 0.003
DataValue, 0.48522000000000004, -0.0125
DataValue, 0.49048, -0.022
DataValue, 0.49444000000000005, -0.032
DataValue, 0.49992000000000003, -0.017
DataValue, 0.5051, -0.017
DataValue, 0.51050000000000006, -0.0385
DataValue, 0.51496000000000008, -0.0175
DataValue, 0.51986, -0.0090000000000000011
DataValue, 0.52560000000000007, -0.034
DataValue, 0.52956, -0.036000000000000004
DataValue, 0.53544, -0.017
DataValue, 0.54002000000000006, -0.0115
DataValue, 0.54492000000000007, -0.028
DataValue, 0.55004000000000008, 0.0005
DataValue, 0.55514000000000008, -0.0075
DataValue, 0.56028, -0.0265
DataValue, 0.5651, -0.018000000000000002
DataValue, 0.56988, -0.0205
DataValue, 0.5753, -0.0135
DataValue, 0.57996, -0.0245
DataValue, 0.5850200000000001, -0.0125
DataValue, 0.5903, -0.023
DataValue, 0.59498000000000006, -0.041
DataValue, 0.59978000000000009, -0.025
DataValue, 0.60506, -0.008
DataValue, 0.6102200000000001, -0.028
DataValue, 0.6150000000000001, -0.027
DataValue, 0.61974000000000007, 0.004
DataValue, 0.6248800000000001, -0.033
DataValue, 0.62992, -0.021500000000000002
DataValue, 0.635, -0.014
DataValue, 0.63932, -0.0325
DataValue, 0.6450800000000001, -0.008
DataValue, 0.65002, -0.016
DataValue, 0.65488, -0.0235
DataValue, 0.65976, -0.032
DataValue, 0.66504000000000008, -0.0025
DataValue, 0.67034, -0.0345
DataValue, 0.6751, -0.0365
DataValue, 0.67974, -0.001
DataValue, 0.68496, -0.012
DataValue, 0.69022000000000006, -0.029500000000000002
DataValue, 0.69488, 0.0035
DataValue, 0.70004000000000011, -0.019
DataValue, 0.70464, -0.0115
DataValue, 0.71084, 0.0065000000000000006
DataValue, 0.71474, -0.021
DataValue, 0.7194, -0.0265
DataValue, 0.72518, -0.0045000000000000005
DataValue, 0.72994, -0.029
DataValue, 0.7353400000000001, -0.0175
DataValue, 0.7402200000000001, -0.013000000000000001
DataValue, 0.74516, -0.022
DataValue, 0.75068, -0.035
DataValue, 0.7547600000000001, 0.003
DataValue, 0.76014, -0.008
DataValue, 0.76528000000000007, -0.0365
DataValue, 0.76992, -0.0135
DataValue, 0.7747, -0.004
DataValue, 0.78008000000000011, -0.0265
DataValue, 0.78502, -0.0175
DataValue, 0.78934, -0.01
DataValue, 0.7960600000000001, -0.0305
DataValue, 0.80032, -0.0225
DataValue, 0.80522, 0.0005
DataValue, 0.8093800000000001, -0.019
DataValue, 0.81434000000000006, -0.026000000000000002
DataValue, 0.8201, -0.0035
DataValue, 0.82484, -0.0125
DataValue, 0.83074, -0.021
DataValue, 0.83464, -0.0085
DataValue, 0.84032000000000007, -0.0135
DataValue, 0.84480000000000011, -0.0425
DataValue, 0.84972, -0.007
DataValue, 0.85510000000000008, -0.0265
DataValue, 0.85952000000000006, -0.0315
DataValue, 0.86508000000000007, -0.0135
DataValue, 0.8697, -0.0155
DataValue, 0.87520000000000009, -0.0375
DataValue, 0.87962000000000007, -0.021500000000000002
DataValue, 0.88540000000000008, -0.017
DataValue, 0.88950000000000007, -0.0225
DataValue, 0.89496000000000009, -0.0145
DataValue, 0.89976000000000012, -0.004
DataValue, 0.9049600000000001, -0.019
DataValue, 0.91046, -0.0105
DataValue, 0.91434, -0.026000000000000002
DataValue, 0.92076, -0.024
DataValue, 0.9249400000000001, -0.021
DataValue, 0.92948000000000008, 0.0035
DataValue, 0.93442, -0.033
DataValue, 0.9403800000000001, -0.0275
DataValue, 0.9451, -0.0015
DataValue, 0.95036000000000009, -0.01
DataValue, 0.95488000000000006, -0.0095
DataValue, 0.95942, -0.0090000000000000011
DataValue, 0.96454000000000006, 0.003
DataValue, 0.96982000000000013, -0.026000000000000002
DataValue, 0.9751200000000001, -0.003
DataValue, 0.97992000000000012, -0.0095
DataValue, 0.98508000000000007, -0.022
DataValue, 0.98974000000000006, -0.0090000000000000011
DataValue, 0.99492, -0.0185
DataValue, 0.99998000000000009, -0.024
DataValue, 1.00506, -0.0075
DataValue, 1.01018, -0.01
DataValue, 1.01516, -0.028
DataValue, 1.0198200000000002, -0.007
DataValue, 1.0245600000000001, -0.0090000000000000011
DataValue, 1.0298800000000001, -0.033
DataValue, 1.0356, -0.0175
DataValue, 1.0407000000000002, -0.0185
DataValue, 1.04518, -0.043500000000000004
DataValue, 1.0506600000000002, -0.026000000000000002
DataValue, 1.05492, -0.0155
DataValue, 1.05976, -0.0445
DataValue, 1.06502, -0.003
DataValue, 1.0704200000000002, -0.0315
DataValue, 1.0749600000000001, -0.0315
DataValue, 1.0799800000000002, -0.0185
DataValue, 1.0850000000000002, -0.0385
DataValue, 1.09034, -0.028
DataValue, 1.09566, -0.004
DataValue, 1.1002, -0.0275
DataValue, 1.10434, -0.019
DataValue, 1.11006, -0.004
DataValue, 1.11522, -0.026000000000000002
DataValue, 1.12032, -0.0205
DataValue, 1.1251200000000001, -0.002
DataValue, 1.1302800000000002, -0.029500000000000002
DataValue, 1.1348200000000002, -0.034
DataValue, 1.14022, -0.0090000000000000011
DataValue, 1.14596, -0.015
DataValue, 1.1502400000000002, -0.038
DataValue, 1.1551, -0.0095
DataValue, 1.16012, -0.006
DataValue, 1.16518, -0.028
DataValue, 1.16964, -0.0075
DataValue, 1.17476, -0.0155
DataValue, 1.1798000000000002, -0.025
DataValue, 1.1844800000000002, 0.0005
DataValue, 1.1894200000000001, -0.015
DataValue, 1.1947800000000002, -0.024
DataValue, 1.19984, 0.0015
DataValue, 1.2051, -0.0285
DataValue, 1.21036, -0.017
DataValue, 1.21544, -0.0055
DataValue, 1.22008, -0.023
DataValue, 1.22492, -0.02
DataValue, 1.23106, -0.006
DataValue, 1.2348000000000001, -0.023
DataValue, 1.24008, -0.0275
DataValue, 1.24486, 0.0045000000000000005
DataValue, 1.24956, 0.0055
DataValue, 1.25506, -0.021
DataValue, 1.2602600000000002, -0.0105
DataValue, 1.26502, -0.0235
DataValue, 1.2696800000000001, -0.0135
DataValue, 1.27472, -0.0115
DataValue, 1.2800200000000002, -0.0175
DataValue, 1.28502, -0.0315
DataValue, 1.2901, -0.0115
DataValue, 1.2956800000000002, -0.013000000000000001
DataValue, 1.3004200000000001, -0.029
DataValue, 1.3048600000000001, 0.005
DataValue, 1.3103600000000002, -0.01
DataValue, 1.3152400000000002, -0.0375
DataValue, 1.31976, -0.0095
DataValue, 1.3252000000000002, -0.0095
DataValue, 1.3303600000000002, -0.022
DataValue, 1.3348200000000001, -0.014
DataValue, 1.3402200000000002, -0.029500000000000002
DataValue, 1.3453400000000002, -0.035
DataValue, 1.3504800000000001, 0.0095
DataValue, 1.35548, -0.0145
DataValue, 1.3600400000000001, -0.04
DataValue, 1.3651200000000001, 0.0045000000000000005
DataValue, 1.3698000000000001, -0.016
DataValue, 1.3748600000000002, -0.013000000000000001
DataValue, 1.3801, -0.0085
DataValue, 1.38488, -0.0305
DataValue, 1.3897400000000002, -0.0245
DataValue, 1.39494, -0.015
DataValue, 1.4000400000000002, -0.032
DataValue, 1.4049600000000002, -0.006
DataValue, 1.41036, -0.0205
DataValue, 1.4146, -0.029
DataValue, 1.41982, -0.023
DataValue, 1.4251600000000002, -0.0155
DataValue, 1.4302000000000001, -0.0235
DataValue, 1.4349, -0.0025
DataValue, 1.4400000000000002, 0.0005
DataValue, 1.4451, -0.0285
DataValue, 1.45062, -0.013000000000000001
DataValue, 1.4548800000000002, -0.015
DataValue, 1.4588200000000002, -0.02
DataValue, 1.4652, -0.0005
DataValue, 1.47022, -0.011
DataValue, 1.47516, -0.0365
DataValue, 1.4796, -0.0045000000000000005
DataValue, 1.48496, -0.018000000000000002
DataValue, 1.4897200000000002, -0.018000000000000002
DataValue, 1.4947000000000001, -0.008
DataValue, 1.4996600000000002, -0.017
DataValue, 1.5047400000000002, -0.029
DataValue, 1.5094, -0.0005
DataValue, 1.51472, -0.0015
DataValue, 1.51974, -0.0155
DataValue, 1.52506, -0.011
DataValue, 1.5298600000000002, -0.015
DataValue, 1.5352800000000002, -0.029
DataValue, 1.5400800000000001, -0.0185
DataValue, 1.54516, -0.0185
DataValue, 1.54906, -0.0345
DataValue, 1.55542, -0.025500000000000002
DataValue, 1.5601200000000002, -0.012
DataValue, 1.5651400000000002, -0.023
DataValue, 1.5704600000000002, -0.0090000000000000011
DataValue, 1.5749400000000002, -0.004
DataValue, 1.58006, -0.0225
DataValue, 1.5856800000000002, -0.0095
DataValue, 1.5894400000000002, -0.0095
DataValue, 1.5951600000000001, -0.0305
DataValue, 1.6004, -0.01
DataValue, 1.6049600000000002, -0.006
DataValue, 1.6091000000000002, -0.025
DataValue, 1.6151200000000001, -0.0105
DataValue, 1.6196400000000002, -0.017
DataValue, 1.62498, -0.0205
DataValue, 1.63036, -0.018000000000000002
DataValue, 1.63568, -0.0205
DataValue, 1.6398000000000002, -0.0315
DataValue, 1.64436, -0.0205
DataValue, 1.65012, -0.01
DataValue, 1.6547200000000002, -0.0345
DataValue, 1.6602800000000002, -0.021
DataValue, 1.66524, 0.0090000000000000011
DataValue, 1.6699400000000002, -0.026000000000000002
DataValue, 1.67538, -0.0235
DataValue, 1.68056, -0.008
DataValue, 1.68442, -0.0305
DataValue, 1.6901800000000002, -0.015
DataValue, 1.6951200000000002, -0.0085
DataValue, 1.70036, -0.0325
DataValue, 1.7052800000000001, -0.006
DataValue, 1.7098600000000002, -0.0125
DataValue, 1.7152, -0.029500000000000002
DataValue, 1.71974, -0.0025
DataValue, 1.7252600000000002, -0.0075
DataValue, 1.7300000000000002, -0.029500000000000002
DataValue, 1.73544, -0.019
DataValue, 1.7392200000000002, -0.0245
DataValue, 1.7451400000000001, -0.013000000000000001
DataValue, 1.7509400000000002, -0.0275
DataValue, 1.7548400000000002, 0
DataValue, 1.7606600000000001, -0.02
DataValue, 1.7650000000000001, -0.026000000000000002
DataValue, 1.76994, -0.022
DataValue, 1.7750800000000002, -0.025
DataValue, 1.7802000000000002, -0.02
DataValue, 1.7856800000000002, -0.0075
DataValue, 1.7897, -0.0155
DataValue, 1.7941200000000002, -0.032
DataValue, 1.8001000000000003, -0.008
DataValue, 1.80482, -0.029500000000000002
DataValue, 1.81004, -0.04
DataValue, 1.8144200000000001, -0.021500000000000002
DataValue, 1.82004, -0.012
DataValue, 1.82468, -0.0305
DataValue, 1.83048, -0.007
DataValue, 1.8345600000000002, -0.0275
DataValue, 1.8394000000000002, -0.025500000000000002
DataValue, 1.8453000000000002, -0.022
DataValue, 1.84922, -0.018000000000000002
DataValue, 1.8550200000000001, -0.0325
DataValue, 1.8603, -0.0125
DataValue, 1.8650000000000002, -0.0235
DataValue, 1.8701200000000002, -0.0315
DataValue, 1.8749600000000002, -0.0025
DataValue, 1.88054, -0.016
DataValue, 1.8852000000000002, -0.028
DataValue, 1.88996, -0.006
