
SetupTitle, IG-VGS-VDS_0
PrimitiveTest, Multi Channel I/V Sweep
TestParameter, Channel.UnitType, SMU, SMU
TestParameter, Channel.Unit, SMU2:MC, SMU5:HC
TestParameter, Channel.IName, IG, ID
TestParameter, Channel.VName, VGS, VDS
TestParameter, Channel.Mode, VPULSE, VPULSE
TestParameter, Channel.Func, VAR1, CONST
TestParameter, Channel.Index, 
TestParameter, Channel.Time, 
TestParameter, Measurement.Port.Unit, SMU2:MC, SMU5:HC
TestParameter, Measurement.Port.SeriesResistor, NONE, NONE
TestParameter, Measurement.Port.Filter, OFF, OFF
TestParameter, Measurement.Port.OutputVoltageComparison, 0, 0
TestParameter, Measurement.Primary.Start, 0
TestParameter, Measurement.Primary.Stop, 15.000000000000002
TestParameter, Measurement.Primary.Compliance, 0.099999999999999992
TestParameter, Measurement.Primary.PowerCompliance, 0
TestParameter, Measurement.Primary.Locus, Single
TestParameter, Measurement.Primary.Scale, LINEAR
TestParameter, Measurement.Primary.Count, 101
TestParameter, Measurement.Aborting.Condition, CONTINUE AT ANY
TestParameter, Measurement.PostOutput.Value, START
TestParameter, Measurement.PostOutput.Retention, OFF
TestParameter, Measurement.Bias.Source, 0, 0
TestParameter, Measurement.Bias.Compliance, 0.099999999999999992, 20
TestParameter, Measurement.Pulse.Delay, 0, 0
TestParameter, Measurement.Pulse.Duration, 0.001, 0.00019999999999999998
TestParameter, Measurement.Pulse.Base, 0, 0
TestParameter, Measurement.Pulse.Period, 0
TestParameter, Measurement.Pulse.MeasurementDelay, 0
TestParameter, Measurement.Pulse.AveragingCount, 1
TestParameter, Measurement.Monitor.Unit, SMU2:MC, SMU5:HC
TestParameter, Measurement.Monitor.Adc, HS ADC, HS ADC
TestParameter, Measurement.Monitor.Measurement, Force and Compliance Sides, Force and Compliance Sides
TestParameter, Measurement.Timing.Hold, 0
TestParameter, Measurement.Timing.Delay, 0
TestParameter, Measurement.Adc.HighSpeed.Mode, TIME
TestParameter, Measurement.Adc.HighSpeed.Coeff, 4.9999999999999996E-05
TestParameter, Measurement.Adc.HighResolution.AutoZero, OFF
TestParameter, Measurement.Adc.HighResolution.Mode, AUTO
TestParameter, Measurement.Adc.HighResolution.Coeff, 6
TestParameter, Measurement.WaitTime.Source.Coeff, 1
TestParameter, Measurement.WaitTime.Source.Offset, 0
TestParameter, Measurement.WaitTime.Monitor.Coeff, 1
TestParameter, Measurement.WaitTime.Monitor.Offset, 0
TestParameter, Output.Graph.Enabled, true
TestParameter, Output.Graph.AutoScaling, false
TestParameter, Output.Graph.XAxis.Data, VGS
TestParameter, Output.Graph.XAxis.Scale, Linear
TestParameter, Output.Graph.XAxis.Left, -5
TestParameter, Output.Graph.XAxis.Right, 20
TestParameter, Output.Graph.XAxis.RunTimeAutoScale, false
TestParameter, Output.Graph.YAxis.Data, IG
TestParameter, Output.Graph.YAxis.Scale, Linear
TestParameter, Output.Graph.YAxis.Bottom, -2E-06
TestParameter, Output.Graph.YAxis.Top, 2E-06
TestParameter, Output.Graph.YAxis.Group, 
TestParameter, Output.Graph.YAxis.RunTimeAutoScale, false
TestParameter, Output.List.Data, VGS, IG
TestParameter, AutoAnalysis.Interpolation, false
TestParameter, AutoAnalysis.Line1.Enabled, false
TestParameter, AutoAnalysis.Line1.Type, 1
TestParameter, AutoAnalysis.Line1.Fix, True
TestParameter, AutoAnalysis.Line1.YAxis, 0
TestParameter, AutoAnalysis.Line1.Point1.Type, 0
TestParameter, AutoAnalysis.Line1.Point1.XY.X, 
TestParameter, AutoAnalysis.Line1.Point1.XY.Y, 
TestParameter, AutoAnalysis.Line1.Point1.Data.Var, 
TestParameter, AutoAnalysis.Line1.Point1.Data.Condition, 
TestParameter, AutoAnalysis.Line1.Point1.Data.Start, false
TestParameter, AutoAnalysis.Line1.Point1.Data.StartVar, 
TestParameter, AutoAnalysis.Line1.Point1.Data.StartCondition, 
TestParameter, AutoAnalysis.Line1.Point2.Type, 0
TestParameter, AutoAnalysis.Line1.Point2.XY.X, 
TestParameter, AutoAnalysis.Line1.Point2.XY.Y, 
TestParameter, AutoAnalysis.Line1.Point2.Data.Var, 
TestParameter, AutoAnalysis.Line1.Point2.Data.Condition, 
TestParameter, AutoAnalysis.Line1.Point2.Data.Start, false
TestParameter, AutoAnalysis.Line1.Point2.Data.StartVar, 
TestParameter, AutoAnalysis.Line1.Point2.Data.StartCondition, 
TestParameter, AutoAnalysis.Line1.GradientExpr, 0
TestParameter, AutoAnalysis.Line2.Enabled, false
TestParameter, AutoAnalysis.Line2.Type, 1
TestParameter, AutoAnalysis.Line2.Fix, True
TestParameter, AutoAnalysis.Line2.YAxis, 0
TestParameter, AutoAnalysis.Line2.Point1.Type, 0
TestParameter, AutoAnalysis.Line2.Point1.XY.X, 
TestParameter, AutoAnalysis.Line2.Point1.XY.Y, 
TestParameter, AutoAnalysis.Line2.Point1.Data.Var, 
TestParameter, AutoAnalysis.Line2.Point1.Data.Condition, 
TestParameter, AutoAnalysis.Line2.Point1.Data.Start, false
TestParameter, AutoAnalysis.Line2.Point1.Data.StartVar, 
TestParameter, AutoAnalysis.Line2.Point1.Data.StartCondition, 
TestParameter, AutoAnalysis.Line2.Point2.Type, 0
TestParameter, AutoAnalysis.Line2.Point2.XY.X, 
TestParameter, AutoAnalysis.Line2.Point2.XY.Y, 
TestParameter, AutoAnalysis.Line2.Point2.Data.Var, 
TestParameter, AutoAnalysis.Line2.Point2.Data.Condition, 
TestParameter, AutoAnalysis.Line2.Point2.Data.Start, false
TestParameter, AutoAnalysis.Line2.Point2.Data.StartVar, 
TestParameter, AutoAnalysis.Line2.Point2.Data.StartCondition, 
TestParameter, AutoAnalysis.Line2.GradientExpr, 0
TestParameter, AutoAnalysis.Marker.Enabled, false
TestParameter, AutoAnalysis.Marker.Data.Var, 
TestParameter, AutoAnalysis.Marker.Data.Condition, 
TestParameter, AutoAnalysis.Marker.Data.Start, false
TestParameter, AutoAnalysis.Marker.Data.StartVar, 
TestParameter, AutoAnalysis.Marker.Data.StartCondition, 
MetaData, TestRecord.EntryPoint, true
MetaData, TestRecord.RecordTime, 04/30/2021 10:03:56
MetaData, TestRecord.TestTarget, 
MetaData, TestRecord.IterationIndex, 1
MetaData, TestRecord.Preservation, true
MetaData, TestRecord.Flag, 
MetaData, TestRecord.Remarks, 
MetaData, TestRecord.LinkKey, 2f70fb6a-ca1b-47f1-b0ac-8d0cd5d36d87
Dimension1, 101, 101
Dimension2, 1, 1
DataName, IG, VGS
DataValue, 4.0000000000000003E-07, 0.00012000000000000002
DataValue, 9.0000000000000007E-07, 0.14992000000000003
DataValue, 2.0000000000000002E-07, 0.29996
DataValue, 6.0000000000000008E-07, 0.4499
DataValue, 1.1E-06, 0.60004
DataValue, 6.0000000000000008E-07, 0.75002
DataValue, 4.0000000000000003E-07, 0.90010000000000012
DataValue, 4.0000000000000003E-07, 1.05004
DataValue, 2.0000000000000002E-07, 1.19998
DataValue, 8.0000000000000007E-07, 1.3499400000000001
DataValue, 8.0000000000000007E-07, 1.5000200000000001
DataValue, 6.0000000000000008E-07, 1.6499800000000002
DataValue, 1.0000000000000001E-07, 1.80004
DataValue, 8.0000000000000007E-07, 1.9500800000000003
DataValue, 1.0000000000000001E-07, 2.09994
DataValue, 3.0000000000000004E-07, 2.24994
DataValue, 8.0000000000000007E-07, 2.4001200000000003
DataValue, 5.0000000000000008E-07, 2.5500200000000004
DataValue, 1.5E-06, 2.7000200000000003
DataValue, 3.0000000000000004E-07, 2.8499000000000003
DataValue, 2.0000000000000002E-07, 2.99994
DataValue, 9.0000000000000007E-07, 3.1500600000000003
DataValue, 5.0000000000000008E-07, 3.30012
DataValue, 3.0000000000000004E-07, 3.4500800000000003
DataValue, 2.0000000000000002E-07, 3.6
DataValue, 3.0000000000000004E-07, 3.75002
DataValue, 3.0000000000000004E-07, 3.8999800000000002
DataValue, 4.0000000000000003E-07, 4.05008
DataValue, 4.0000000000000003E-07, 4.19996
DataValue, 1.0000000000000001E-07, 4.34998
DataValue, 4.0000000000000003E-07, 4.4999800000000008
DataValue, 0, 4.6500200000000005
DataValue, 2.0000000000000002E-07, 4.7999
DataValue, -2.0000000000000002E-07, 4.95
DataValue, 6.0000000000000008E-07, 5.09984
DataValue, 1.0000000000000001E-07, 5.25
DataValue, 2.0000000000000002E-07, 5.39998
DataValue, -1.0000000000000001E-07, 5.5499600000000004
DataValue, 2.0000000000000002E-07, 5.6999400000000007
DataValue, 3.0000000000000004E-07, 5.84994
DataValue, 1.0000000000000001E-07, 5.9998000000000005
DataValue, 0, 6.14996
DataValue, 4.0000000000000003E-07, 6.2999600000000004
DataValue, 0, 6.4499600000000008
DataValue, -1.0000000000000001E-07, 6.60012
DataValue, 0, 6.7499600000000006
DataValue, 1.0000000000000001E-07, 6.9000800000000009
DataValue, -4.0000000000000003E-07, 7.050040000000001
DataValue, -2.0000000000000002E-07, 7.20014
DataValue, 0, 7.3500600000000009
DataValue, 4.0000000000000003E-07, 7.4999
DataValue, -4.0000000000000003E-07, 7.65
DataValue, -2.0000000000000002E-07, 7.7999800000000006
DataValue, -1.0000000000000001E-07, 7.9501800000000005
DataValue, -3.0000000000000004E-07, 8.10012
DataValue, 0, 8.249880000000001
DataValue, 4.0000000000000003E-07, 8.40006
DataValue, -2.0000000000000002E-07, 8.5501200000000015
DataValue, -1.0000000000000001E-07, 8.69998
DataValue, -1.0000000000000001E-07, 8.85012
DataValue, -5.0000000000000008E-07, 8.9999600000000015
DataValue, -1.0000000000000001E-07, 9.1500600000000016
DataValue, -2.0000000000000002E-07, 9.30014
DataValue, 1.0000000000000001E-07, 9.4500000000000011
DataValue, -5.0000000000000008E-07, 9.59994
DataValue, -5.0000000000000008E-07, 9.750020000000001
DataValue, -4.0000000000000003E-07, 9.90004
DataValue, -6.0000000000000008E-07, 10.050120000000002
DataValue, 4.0000000000000003E-07, 10.200140000000001
DataValue, -4.0000000000000003E-07, 10.35008
DataValue, -5.0000000000000008E-07, 10.49998
DataValue, -1.0000000000000002E-06, 10.64996
DataValue, -3.0000000000000004E-07, 10.799940000000001
DataValue, -5.0000000000000008E-07, 10.94988
DataValue, -4.0000000000000003E-07, 11.099900000000002
DataValue, -3.0000000000000004E-07, 11.250060000000001
DataValue, -6.0000000000000008E-07, 11.39994
DataValue, -4.0000000000000003E-07, 11.54996
DataValue, -2.0000000000000002E-07, 11.699900000000001
DataValue, -5.0000000000000008E-07, 11.850040000000002
DataValue, -3.0000000000000004E-07, 12.000100000000002
DataValue, -4.0000000000000003E-07, 12.1499
DataValue, -3.0000000000000004E-07, 12.29992
DataValue, -5.0000000000000008E-07, 12.450120000000002
DataValue, -1.0000000000000001E-07, 12.599860000000001
DataValue, -6.0000000000000008E-07, 12.74994
DataValue, -5.0000000000000008E-07, 12.9
DataValue, -7.0000000000000007E-07, 13.050080000000001
DataValue, -4.0000000000000003E-07, 13.199840000000002
DataValue, 0, 13.350060000000001
DataValue, -2.0000000000000002E-07, 13.500020000000001
DataValue, -4.0000000000000003E-07, 13.650020000000001
DataValue, 3.0000000000000004E-07, 13.799900000000001
DataValue, -2.0000000000000002E-07, 13.949980000000002
DataValue, -5.0000000000000008E-07, 14.100060000000001
DataValue, 1.0000000000000001E-07, 14.250000000000002
DataValue, 0, 14.40004
DataValue, 4.0000000000000003E-07, 14.55
DataValue, 4.0000000000000003E-07, 14.700040000000001
DataValue, 6.0000000000000008E-07, 14.849940000000002
DataValue, 2.0000000000000002E-07, 14.99998