
SetupTitle, Rds-Id
ApplicationTest, Rds-Id, Public
TestParameter, Name, Memo, Scale, HoldTime, PulseBase, PulseAvgCnt, Gate, VgStart, VgStop, VgStep, IgLimit, Source, MeasurementTime, Drain, IdStart, IdStop, IdLinearStep, VdLimit, VdStop, PulsePeriodMode, ManualPulsePeriod, PulseWidth
TestParameter, Value, , LINEAR, 0, 0, 1, SMU2:MC	MCSMU, 15, 5, 1, 0.1, GNDU:GND	GNDU, 1E-05, SMU3:UHC500	UHCU500A, 0.5, 30, 0.2, 2, 0, 0, 0.05, 0.0002
DutParameter, Name, Polarity, Temp, YAxisRdsMin, YAxisRdsMax
DutParameter, Value, 1, 25, 0.001, 1
MetaData, TestRecord.EntryPoint, true
MetaData, TestRecord.RecordTime, 04/30/2021 10:01:58
MetaData, TestRecord.TestTarget, 
MetaData, TestRecord.IterationIndex, 1
MetaData, TestRecord.Preservation, true
MetaData, TestRecord.Flag, 
MetaData, TestRecord.Remarks, 
MetaData, TestRecord.LinkKey, 29383f69-f776-4b33-8b76-446bd038dd74
Dimension1, 148, 148, 148, 148, 148, 148
Dimension2, 11, 11, 11, 11, 11, 11
DataName, Igate, Vgate, Vdrain, Idrain, Ta, Rds
DataValue, -1.0000000000000002E-06, 15.00012, 0.0076, 0.10200000000000001, 25, 0.074509803921568626
DataValue, -6.0000000000000008E-07, 14.999720000000002, 0.0198, 0.28450000000000003, 25, 0.0695957820738137
DataValue, -1.1E-06, 15.000160000000001, 0.033800000000000004, 0.47900000000000004, 25, 0.070563674321503136
DataValue, -8.0000000000000007E-07, 14.999860000000002, 0.0458, 0.70300000000000007, 25, 0.065149359886201991
DataValue, -7.0000000000000007E-07, 15.000000000000002, 0.0574, 0.94500000000000006, 25, 0.060740740740740734
DataValue, -1.6000000000000001E-06, 14.999360000000001, 0.0707, 1.1475, 25, 0.061612200435729847
DataValue, -1.9000000000000002E-06, 14.999720000000002, 0.0815, 1.3595, 25, 0.059948510481794781
DataValue, 9.0000000000000007E-07, 15.000720000000001, 0.0949, 1.577, 25, 0.060177552314521245
DataValue, 1.1E-06, 14.999360000000001, 0.1048, 1.7650000000000001, 25, 0.059376770538243626
DataValue, 1.2000000000000002E-06, 14.999960000000002, 0.11560000000000001, 2.0045, 25, 0.0576702419555999
DataValue, -1.6000000000000001E-06, 15.000060000000001, 0.1253, 2.194, 25, 0.057110300820419325
DataValue, -2.0000000000000002E-07, 14.999920000000001, 0.13870000000000002, 2.407, 25, 0.057623597839634409
DataValue, -5.0000000000000008E-07, 14.99994, 0.1529, 2.612, 25, 0.0585375191424196
DataValue, 1.6000000000000001E-06, 14.999780000000001, 0.16290000000000002, 2.834, 25, 0.057480592801693722
DataValue, -1.4000000000000002E-06, 15.000340000000001, 0.17470000000000002, 3.028, 25, 0.05769484808454426
DataValue, -2.0000000000000002E-07, 14.999500000000001, 0.187, 3.237, 25, 0.057769539697250537
DataValue, 2.0000000000000002E-07, 14.9998, 0.1986, 3.456, 25, 0.057465277777777775
DataValue, 0, 14.999900000000002, 0.2088, 3.6315, 25, 0.057496902106567535
DataValue, -1.8000000000000001E-06, 15.000140000000002, 0.2202, 3.843, 25, 0.057298985167837629
DataValue, -5.0000000000000008E-07, 15.000300000000001, 0.2323, 4.025, 25, 0.057714285714285711
DataValue, -1.3E-06, 15.000240000000002, 0.2434, 4.2165, 25, 0.057725601802442787
DataValue, 8.0000000000000007E-07, 14.99932, 0.2564, 4.436, 25, 0.057799819657348969
DataValue, -8.0000000000000007E-07, 14.999400000000001, 0.2677, 4.6325, 25, 0.057787371829465729
DataValue, -1.2000000000000002E-06, 15.000520000000002, 0.27690000000000004, 4.831, 25, 0.057317325605464708
DataValue, -2.0000000000000002E-07, 15.000800000000002, 0.2898, 5.0275, 25, 0.057642963699651918
DataValue, -1.2000000000000002E-06, 15.001080000000002, 0.3004, 5.2305, 25, 0.05743236784246248
DataValue, -1.0000000000000001E-07, 15.00008, 0.3123, 5.4375, 25, 0.057434482758620696
DataValue, 1.3E-06, 14.999540000000001, 0.3226, 5.615, 25, 0.057453250222617984
DataValue, -9.0000000000000007E-07, 14.99952, 0.33340000000000003, 5.785, 25, 0.057631806395851345
DataValue, -1.2000000000000002E-06, 14.99928, 0.3411, 5.945, 25, 0.057375946173254838
DataValue, -1.6000000000000001E-06, 15.00022, 0.3493, 6.0925, 25, 0.057332786212556421
DataValue, 1.0000000000000001E-07, 15.000900000000002, 0.3547, 6.2065, 25, 0.057149762345927654
DataValue, -3.0000000000000004E-07, 15.00022, 0.36000000000000004, 6.304, 25, 0.057106598984771578
DataValue, -7.0000000000000007E-07, 15.000100000000002, 0.3607, 6.3595, 25, 0.05671829546347984
DataValue, 4.0000000000000003E-07, 14.999480000000002, 0.3638, 6.3935, 25, 0.0569015406271995
DataValue, -1.1E-06, 14.999780000000001, 0.3645, 6.4215, 25, 0.056762438682550806
DataValue, -1.7000000000000002E-06, 14.999880000000001, 0.3652, 6.4615, 25, 0.056519384043952646
DataValue, 7.0000000000000007E-07, 14.999400000000001, 0.3649, 6.4635, 25, 0.056455480776668988
DataValue, 0, 15.000020000000001, 0.3672, 6.4735000000000005, 25, 0.056723565304703794
DataValue, 2.0000000000000003E-06, 15.000380000000002, 0.3655, 6.4675, 25, 0.05651333591032083
DataValue, -3.0000000000000004E-07, 15.000100000000002, 0.36660000000000004, 6.4885, 25, 0.056499961470293604
DataValue, -1.1E-06, 14.999820000000002, 0.3672, 6.493, 25, 0.05655321115046974
DataValue, 4.0000000000000003E-07, 14.999880000000001, 0.3664, 6.481, 25, 0.056534485418916834
DataValue, 8.0000000000000007E-07, 15.000020000000001, 0.3677, 6.4795, 25, 0.056748205880083342
DataValue, -5.0000000000000008E-07, 14.999640000000001, 0.36610000000000004, 6.4695, 25, 0.056588608084086875
DataValue, -5.0000000000000008E-07, 15.000320000000002, 0.3659, 6.484, 25, 0.056431215299198027
DataValue, 0, 15.000020000000001, 0.3669, 6.497, 25, 0.056472217946744653
DataValue, -8.0000000000000007E-07, 14.99952, 0.36610000000000004, 6.4990000000000006, 25, 0.056331743345130018
DataValue, -2.0000000000000003E-06, 14.99994, 0.3672, 6.4885, 25, 0.05659243276566233
DataValue, -8.0000000000000007E-07, 15.000160000000001, 0.3653, 6.484, 25, 0.056338679827267119
DataValue, -9.0000000000000007E-07, 14.99932, 0.3668, 6.4925, 25, 0.056495956873315371
DataValue, -2.0000000000000003E-06, 15.000520000000002, 0.3655, 6.5095, 25, 0.056148705737767875
DataValue, -3.0000000000000004E-07, 14.999600000000001, 0.36660000000000004, 6.505, 25, 0.05635664873174482
DataValue, 2.8000000000000003E-06, 15.000340000000001, 0.3668, 6.5005, 25, 0.056426428736251061
DataValue, -7.0000000000000007E-07, 15.001000000000001, 0.3687, 6.4885, 25, 0.056823611004084153
DataValue, 0, 15.00054, 0.3667, 6.4725, 25, 0.056655079181151029
DataValue, -3.0000000000000004E-07, 15.000560000000002, 0.3684, 6.496, 25, 0.05671182266009852
DataValue, 1.2000000000000002E-06, 15.000040000000002, 0.3677, 6.508, 25, 0.056499692685925022
DataValue, -8.0000000000000007E-07, 15.000320000000002, 0.36760000000000004, 6.4875, 25, 0.056662813102119465
DataValue, -4.0000000000000003E-07, 15.000520000000002, 0.3665, 6.4895000000000005, 25, 0.05647584559673318
DataValue, -2.1000000000000002E-06, 15.000280000000002, 0.3679, 6.5005, 25, 0.056595646488731638
DataValue, 7.0000000000000007E-07, 15.000280000000002, 0.3662, 6.492, 25, 0.0564078866296981
DataValue, -7.0000000000000007E-07, 14.999740000000001, 0.36860000000000004, 6.5095, 25, 0.05662493279053691
DataValue, 2.0000000000000002E-07, 14.999780000000001, 0.367, 6.513, 25, 0.0563488407799785
DataValue, 3.0000000000000004E-07, 15.000760000000001, 0.36760000000000004, 6.497, 25, 0.056579959981529947
DataValue, -1.8000000000000001E-06, 15.000180000000002, 0.36560000000000004, 6.486, 25, 0.056367560900400869
DataValue, -4.0000000000000003E-07, 15.000520000000002, 0.3679, 6.503, 25, 0.056573888974319544
DataValue, -4.0000000000000003E-07, 14.999620000000002, 0.3675, 6.516, 25, 0.056399631675874771
DataValue, 8.0000000000000007E-07, 15.000040000000002, 0.3673, 6.485, 25, 0.056638396299151891
DataValue, -6.0000000000000008E-07, 15.000520000000002, 0.3682, 6.489, 25, 0.056742179072276168
DataValue, -1.3E-06, 15.000320000000002, 0.3683, 6.5115, 25, 0.05656146817169623
DataValue, 8.0000000000000007E-07, 14.999860000000002, 0.3664, 6.509, 25, 0.056291288984483018
DataValue, -2.0000000000000002E-07, 14.999860000000002, 0.3653, 6.493, 25, 0.05626058832588942
DataValue, 6.0000000000000008E-07, 15.00012, 0.3675, 6.4985, 25, 0.056551511887358623
DataValue, -2.0000000000000002E-07, 14.999900000000002, 0.3678, 6.5005, 25, 0.056580263056687952
DataValue, -9.0000000000000007E-07, 14.9998, 0.36860000000000004, 6.511, 25, 0.056611887574873294
DataValue, 7.0000000000000007E-07, 15.000300000000001, 0.3673, 6.4990000000000006, 25, 0.056516387136482535
DataValue, 1.0000000000000001E-07, 14.999600000000001, 0.3669, 6.506, 25, 0.05639409775591761
DataValue, -1.3E-06, 14.999220000000001, 0.36760000000000004, 6.5280000000000005, 25, 0.056311274509803923
DataValue, 1.5E-06, 15.000440000000001, 0.3678, 6.503, 25, 0.056558511456250959
DataValue, -2.4000000000000003E-06, 15.00022, 0.3669, 6.49, 25, 0.056533127889060092
DataValue, 1.3E-06, 15.000440000000001, 0.369, 6.49, 25, 0.05685670261941448
DataValue, 9.0000000000000007E-07, 15.00074, 0.3689, 6.5235, 25, 0.0565493983291178
DataValue, 7.0000000000000007E-07, 14.999680000000002, 0.3688, 6.5005, 25, 0.056734097377124842
DataValue, -9.0000000000000007E-07, 14.999860000000002, 0.3682, 6.4835, 25, 0.056790313873679339
DataValue, 1.6000000000000001E-06, 15.0004, 0.369, 6.5040000000000004, 25, 0.056734317343173427
DataValue, -1.0000000000000001E-07, 14.99984, 0.3675, 6.4995, 25, 0.056542810985460414
DataValue, 1.0000000000000002E-06, 14.999460000000001, 0.368, 6.5120000000000005, 25, 0.056511056511056507
DataValue, -5.0000000000000008E-07, 14.999880000000001, 0.3684, 6.4815000000000005, 25, 0.056838694746586434
DataValue, 6.0000000000000008E-07, 15.00026, 0.367, 6.5065, 25, 0.056405133328210254
DataValue, -4.0000000000000003E-07, 14.999960000000002, 0.368, 6.5045, 25, 0.056576216465523868
DataValue, 7.0000000000000007E-07, 14.999600000000001, 0.36710000000000004, 6.51, 25, 0.056390168970814142
DataValue, -1.0000000000000002E-06, 15.000620000000001, 0.36660000000000004, 6.492, 25, 0.056469500924214426
DataValue, 8.0000000000000007E-07, 15.00054, 0.3677, 6.4910000000000005, 25, 0.056647665999075641
DataValue, -9.0000000000000007E-07, 15.000420000000002, 0.3682, 6.4985, 25, 0.056659229052858355
DataValue, 5.0000000000000008E-07, 15.000040000000002, 0.3693, 6.518, 25, 0.056658484197606634
DataValue, 1.1E-06, 15.000000000000002, 0.3672, 6.4925, 25, 0.056557566422795538
DataValue, 3.0000000000000004E-07, 14.999780000000001, 0.3672, 6.4910000000000005, 25, 0.056570636265598523
DataValue, -6.0000000000000008E-07, 15.000620000000001, 0.36760000000000004, 6.51, 25, 0.056466973886328729
DataValue, -5.0000000000000008E-07, 14.99942, 0.3687, 6.51, 25, 0.056635944700460836
DataValue, 6.0000000000000008E-07, 15.000000000000002, 0.3673, 6.503, 25, 0.056481623865908041
DataValue, 1.1E-06, 15.000480000000001, 0.3678, 6.492, 25, 0.0566543438077634
DataValue, -1.5E-06, 14.999960000000002, 0.369, 6.516, 25, 0.056629834254143648
DataValue, 5.0000000000000008E-07, 14.999740000000001, 0.36710000000000004, 6.519, 25, 0.05631231784015954
DataValue, 1.4000000000000002E-06, 14.999920000000001, 0.3687, 6.501, 25, 0.056714351638209509
DataValue, 1.0000000000000001E-07, 15.000140000000002, 0.3689, 6.4885, 25, 0.056854434769207061
DataValue, -3.0000000000000004E-07, 14.9997, 0.369, 6.503, 25, 0.056743041673073966
DataValue, 1.5E-06, 15.00064, 0.36760000000000004, 6.477, 25, 0.056754670372085848
DataValue, 2.0000000000000002E-07, 15.000000000000002, 0.3685, 6.5135000000000005, 25, 0.056574806171797033
DataValue, -9.0000000000000007E-07, 14.99998, 0.3687, 6.5200000000000005, 25, 0.056549079754601224
DataValue, 8.0000000000000007E-07, 14.99994, 0.3677, 6.484, 25, 0.056708821714990754
DataValue, -9.0000000000000007E-07, 15.000240000000002, 0.36860000000000004, 6.5070000000000006, 25, 0.056646688181957894
DataValue, -1.1E-06, 15.001040000000002, 0.3675, 6.4965, 25, 0.056568921727083811
DataValue, -8.0000000000000007E-07, 14.999640000000001, 0.36920000000000003, 6.492, 25, 0.056869993838570554
DataValue, -8.0000000000000007E-07, 15.0004, 0.368, 6.506, 25, 0.056563172456194279
DataValue, -2.1000000000000002E-06, 15.000060000000001, 0.3694, 6.5035, 25, 0.056800184516029834
DataValue, 0, 14.999480000000002, 0.3679, 6.4925, 25, 0.056665383134385836
DataValue, 5.0000000000000008E-07, 15.000180000000002, 0.3695, 6.5040000000000004, 25, 0.056811193111931113
DataValue, -1.2000000000000002E-06, 14.99932, 0.3687, 6.5230000000000006, 25, 0.056523072206040165
DataValue, 1.0000000000000001E-07, 14.999920000000001, 0.368, 6.498, 25, 0.056632810095413974
DataValue, 1.0000000000000002E-06, 15.00026, 0.36860000000000004, 6.489, 25, 0.056803821852365551
DataValue, 0, 15.000060000000001, 0.3683, 6.5135000000000005, 25, 0.056544100713901896
DataValue, 2.0000000000000002E-07, 15.000100000000002, 0.36860000000000004, 6.506, 25, 0.056655395019981562
DataValue, 2.0000000000000002E-07, 14.99956, 0.36860000000000004, 6.4815000000000005, 25, 0.056869551801280567
DataValue, -5.0000000000000008E-07, 14.999580000000002, 0.36810000000000004, 6.494, 25, 0.056683092085001545
DataValue, -1.5E-06, 15.00036, 0.3682, 6.5005, 25, 0.056641796784862711
DataValue, 1.3E-06, 15.000160000000001, 0.36810000000000004, 6.49, 25, 0.056718027734976889
DataValue, -8.0000000000000007E-07, 15.000040000000002, 0.368, 6.4965, 25, 0.056645886246440388
DataValue, 1.7000000000000002E-06, 15.00036, 0.3682, 6.5105, 25, 0.056554796098609937
DataValue, -1.7000000000000002E-06, 14.999620000000002, 0.3678, 6.51, 25, 0.056497695852534564
DataValue, 8.0000000000000007E-07, 14.99914, 0.36810000000000004, 6.496, 25, 0.056665640394088675
DataValue, -2.0000000000000003E-06, 15.000200000000001, 0.3685, 6.5005, 25, 0.05668794708099377
DataValue, 6.0000000000000008E-07, 15.000040000000002, 0.3678, 6.509, 25, 0.056506375787371332
DataValue, -3.0000000000000004E-07, 14.99984, 0.3689, 6.4975000000000005, 25, 0.056775682954982684
DataValue, -3.0000000000000004E-07, 15.00022, 0.3693, 6.508, 25, 0.056745543945912726
DataValue, -1.0000000000000001E-07, 15.000200000000001, 0.3683, 6.4750000000000005, 25, 0.056880308880308879
DataValue, -6.0000000000000008E-07, 14.99984, 0.37020000000000003, 6.502, 25, 0.056936327283912645
DataValue, -3.0000000000000004E-07, 15.00026, 0.3673, 6.506, 25, 0.056455579465109131
DataValue, -2.0000000000000002E-07, 15.000160000000001, 0.36660000000000004, 6.4915, 25, 0.056473850419779717
DataValue, -2.0000000000000002E-07, 14.999340000000002, 0.3693, 6.516, 25, 0.056675874769797421
DataValue, 4.0000000000000003E-07, 15.0005, 0.3679, 6.502, 25, 0.056582589972316216
DataValue, 6.0000000000000008E-07, 15.000420000000002, 0.36910000000000004, 6.5070000000000006, 25, 0.056723528507760877
DataValue, -1.0000000000000001E-07, 14.9998, 0.36910000000000004, 6.522, 25, 0.056593069610548913
DataValue, 1.7000000000000002E-06, 15.000140000000002, 0.3672, 6.503, 25, 0.056466246347839463
DataValue, 1.2000000000000002E-06, 14.999220000000001, 0.3678, 6.482, 25, 0.056741746374575748
DataValue, 6.0000000000000008E-07, 15.0005, 0.36810000000000004, 6.522, 25, 0.056439742410303591
DataValue, 1.4000000000000002E-06, 14.999620000000002, 0.369, 6.4845, 25, 0.056904927133934767
DataValue, 9.0000000000000007E-07, 15.000320000000002, 0.37010000000000004, 6.5005, 25, 0.0569340819936928
DataValue, 2.0000000000000002E-07, 14.000020000000001, 0.0076, 0.1205, 25, 0.063070539419087135
DataValue, -3.0000000000000004E-07, 14.000100000000002, 0.0193, 0.28650000000000003, 25, 0.067364746945898779
DataValue, -2.0000000000000002E-07, 14.000020000000001, 0.0337, 0.5225, 25, 0.0644976076555024
DataValue, -3.1000000000000004E-06, 13.999640000000001, 0.046700000000000005, 0.708, 25, 0.065960451977401136
DataValue, -1.6000000000000001E-06, 13.999600000000001, 0.0606, 0.94500000000000006, 25, 0.06412698412698413
DataValue, 8.0000000000000007E-07, 13.999300000000002, 0.073900000000000007, 1.169, 25, 0.063216424294268617
DataValue, 5.0000000000000008E-07, 14.00004, 0.0867, 1.372, 25, 0.063192419825072885
DataValue, -1.1E-06, 13.999480000000002, 0.0988, 1.578, 25, 0.062610899873257284
DataValue, -2.0000000000000003E-06, 14.000240000000002, 0.11040000000000001, 1.7945, 25, 0.061521315129562562
DataValue, -2.0000000000000002E-07, 13.99928, 0.1227, 1.9905, 25, 0.061642803315749818
DataValue, -8.0000000000000007E-07, 14.000280000000002, 0.13440000000000002, 2.2065, 25, 0.060910944935418085
DataValue, -3.0000000000000004E-07, 13.99998, 0.1463, 2.3995, 25, 0.060971035632423419
DataValue, 0, 13.999920000000001, 0.16060000000000002, 2.608, 25, 0.061579754601227
DataValue, -6.0000000000000008E-07, 13.999680000000002, 0.171, 2.8285, 25, 0.060456072123033416
DataValue, -4.0000000000000003E-07, 13.999540000000001, 0.18380000000000002, 3.0140000000000002, 25, 0.060982083609820839
DataValue, 1.0000000000000001E-07, 14.00046, 0.1942, 3.2195, 25, 0.060319925454263089
DataValue, -8.0000000000000007E-07, 13.999820000000002, 0.2074, 3.428, 25, 0.060501750291715284
DataValue, 1.0000000000000001E-07, 13.999860000000002, 0.21880000000000002, 3.6315, 25, 0.060250585157648362
DataValue, 1.5E-06, 13.999600000000001, 0.23140000000000002, 3.8315, 25, 0.060394101526817179
DataValue, 1.6000000000000001E-06, 14.000020000000001, 0.24380000000000002, 4.0315, 25, 0.060473769068584891
DataValue, -2.6E-06, 14.00018, 0.2541, 4.225, 25, 0.060142011834319532
DataValue, 8.0000000000000007E-07, 14.000300000000001, 0.2651, 4.444, 25, 0.059653465346534658
DataValue, -1.4000000000000002E-06, 14.000000000000002, 0.2783, 4.609, 25, 0.060381861575179
DataValue, 1.2000000000000002E-06, 14.000380000000002, 0.2922, 4.8275, 25, 0.060528223718280691
DataValue, 1.0000000000000002E-06, 14.000380000000002, 0.3027, 5.0155, 25, 0.060352905991426578
DataValue, -9.0000000000000007E-07, 14.000760000000001, 0.3156, 5.194, 25, 0.0607624181748171
DataValue, 1.2000000000000002E-06, 13.9998, 0.3264, 5.3985, 25, 0.060461239233120315
DataValue, 1.4000000000000002E-06, 14.00032, 0.338, 5.6175, 25, 0.06016911437472186
DataValue, 1.1E-06, 14.00012, 0.3482, 5.771, 25, 0.060336163576503211
DataValue, 2.0000000000000003E-06, 14.000660000000002, 0.3584, 5.926, 25, 0.06047924400944988
DataValue, -1.0000000000000001E-07, 14.000000000000002, 0.36460000000000004, 6.066, 25, 0.060105506099571389
DataValue, -2.0000000000000003E-06, 13.99994, 0.37020000000000003, 6.1675, 25, 0.060024321037697607
DataValue, -1.7000000000000002E-06, 13.999460000000001, 0.3739, 6.2620000000000005, 25, 0.059709358032577452
DataValue, -1.1E-06, 13.999880000000001, 0.3774, 6.308, 25, 0.059828788839568804
DataValue, -3.0000000000000004E-07, 13.999360000000001, 0.3793, 6.3565000000000005, 25, 0.059671202705891609
DataValue, 1.9000000000000002E-06, 14.000100000000002, 0.38120000000000004, 6.361, 25, 0.059927684326363785
DataValue, 3.0000000000000004E-07, 14.00036, 0.38, 6.3815, 25, 0.059547128418083524
DataValue, -2.0000000000000002E-07, 13.999920000000001, 0.3798, 6.3950000000000005, 25, 0.059390148553557467
DataValue, 1.0000000000000001E-07, 14.00022, 0.383, 6.3895, 25, 0.059942092495500435
DataValue, -2.5E-06, 14.000340000000001, 0.38170000000000004, 6.432, 25, 0.059343905472636821
DataValue, -3.0000000000000004E-07, 13.99956, 0.38, 6.409, 25, 0.059291621157746922
DataValue, 1.0000000000000002E-06, 13.999740000000001, 0.3816, 6.4155, 25, 0.059480944587327569
DataValue, 1.3E-06, 14.000140000000002, 0.38280000000000003, 6.43, 25, 0.059533437013996895
DataValue, 8.0000000000000007E-07, 13.999880000000001, 0.3831, 6.425, 25, 0.059626459143968871
DataValue, 7.0000000000000007E-07, 13.99952, 0.38180000000000003, 6.432, 25, 0.059359452736318409
DataValue, 4.0000000000000003E-07, 13.999820000000002, 0.3814, 6.439, 25, 0.059232800124242896
DataValue, 1.3E-06, 14.000340000000001, 0.38220000000000004, 6.444, 25, 0.059310986964618256
DataValue, 3.0000000000000004E-07, 14.00008, 0.3829, 6.433, 25, 0.059521218715995652
