
SetupTitle, Rds-Id
ApplicationTest, Rds-Id, Public
TestParameter, Name, Memo, Scale, HoldTime, PulseBase, PulseAvgCnt, Gate, VgStart, VgStop, VgStep, IgLimit, Source, MeasurementTime, Drain, IdStart, IdStop, IdLinearStep, VdLimit, VdStop, PulsePeriodMode, ManualPulsePeriod, PulseWidth
TestParameter, Value, , LINEAR, 0, 0, 1, SMU2:MC	MCSMU, 20, 5, 1, 0.1, GNDU:GND	GNDU, 1E-05, SMU3:UHC500	UHCU500A, 0.5, 5, 0.2, 2, 0, 0, 0.05, 0.0002
DutParameter, Name, Polarity, Temp, YAxisRdsMin, YAxisRdsMax
DutParameter, Value, 1, 25, 0.001, 1
MetaData, TestRecord.EntryPoint, true
MetaData, TestRecord.RecordTime, 04/20/2021 10:36:33
MetaData, TestRecord.TestTarget, 
MetaData, TestRecord.IterationIndex, 1
MetaData, TestRecord.Preservation, true
MetaData, TestRecord.Flag, 
MetaData, TestRecord.Remarks, 
MetaData, TestRecord.LinkKey, 5f58b641-6f7d-432b-b260-5df7e0031f11
Dimension1, 23, 23, 23, 23, 23, 23
Dimension2, 16, 16, 16, 16, 16, 16
DataName, Igate, Vgate, Vdrain, Idrain, Ta, Rds
DataValue, -4.0000000000000003E-07, 20.000420000000002, 0.0896, 0.05, 25, 1.7919999999999998
DataValue, -2.5E-06, 20.00008, 0.1923, 0.125, 25, 1.5384
DataValue, -6.0000000000000008E-07, 20.000200000000003, 0.29760000000000003, 0.194, 25, 1.5340206185567011
DataValue, -1.6000000000000001E-06, 20.000500000000002, 0.4203, 0.2725, 25, 1.5423853211009173
DataValue, -7.0000000000000007E-07, 19.999280000000002, 0.55090000000000006, 0.358, 25, 1.5388268156424583
DataValue, -6.0000000000000008E-07, 20.000380000000003, 0.68680000000000008, 0.446, 25, 1.5399103139013455
DataValue, -1.3E-06, 20.00018, 0.8055, 0.5215, 25, 1.5445829338446788
DataValue, -7.0000000000000007E-07, 19.999740000000003, 0.9485, 0.62750000000000006, 25, 1.5115537848605576
DataValue, -7.0000000000000007E-07, 19.9995, 1.061, 0.708, 25, 1.4985875706214689
DataValue, -1.4000000000000002E-06, 20.00024, 1.1983000000000001, 0.796, 25, 1.5054020100502514
DataValue, -1.0000000000000002E-06, 20.00036, 1.3347, 0.877, 25, 1.5218928164196124
DataValue, -1.7000000000000002E-06, 20.00052, 1.4552, 0.95900000000000007, 25, 1.5174139728884253
DataValue, -2.0000000000000003E-06, 19.999820000000003, 1.5815000000000001, 1.035, 25, 1.5280193236714978
DataValue, 0, 20.000120000000003, 1.6569, 1.101, 25, 1.5049046321525885
DataValue, 1.0000000000000001E-07, 19.999760000000002, 1.6809, 1.078, 25, 1.5592764378478663
DataValue, -1.2000000000000002E-06, 19.9999, 1.6915, 1.091, 25, 1.5504124656278644
DataValue, -6.0000000000000008E-07, 20.000600000000002, 1.6969, 1.0935, 25, 1.5518061271147692
DataValue, -1.0000000000000002E-06, 20.000220000000002, 1.6976, 1.093, 25, 1.553156450137237
DataValue, 4.0000000000000003E-07, 19.999560000000002, 1.6986, 1.105, 25, 1.5371945701357468
DataValue, -2.1000000000000002E-06, 20.000020000000003, 1.6993, 1.1135, 25, 1.5260889088459813
DataValue, 2.0000000000000002E-07, 20.000480000000003, 1.701, 1.1115, 25, 1.5303643724696359
DataValue, 1.4000000000000002E-06, 19.999660000000002, 1.7012, 1.1135, 25, 1.5277952402334982
DataValue, -9.0000000000000007E-07, 19.999660000000002, 1.7027, 1.0825, 25, 1.5729330254041571
DataValue, -3.0000000000000004E-07, 18.9998, 0.0864, 0.0665, 25, 1.299248120300752
DataValue, -1.2000000000000002E-06, 19.00006, 0.1893, 0.105, 25, 1.8028571428571429
DataValue, -9.0000000000000007E-07, 19.000200000000003, 0.3065, 0.1805, 25, 1.6980609418282548
DataValue, -8.0000000000000007E-07, 18.99958, 0.42060000000000003, 0.268, 25, 1.5694029850746269
DataValue, -1.3E-06, 18.99972, 0.554, 0.3655, 25, 1.515731874145007
DataValue, -1.3E-06, 19.00038, 0.6832, 0.4595, 25, 1.4868335146898803
DataValue, -1.0000000000000002E-06, 18.99972, 0.8174, 0.532, 25, 1.5364661654135339
DataValue, -6.0000000000000008E-07, 19.00018, 0.9361, 0.6075, 25, 1.5409053497942387
DataValue, -2.6E-06, 18.999540000000003, 1.0713000000000001, 0.679, 25, 1.5777614138438882
DataValue, -1.6000000000000001E-06, 19.00016, 1.1989, 0.768, 25, 1.5610677083333333
DataValue, -4.0000000000000003E-07, 19.00028, 1.3323, 0.875, 25, 1.5226285714285714
DataValue, -1.6000000000000001E-06, 19.00072, 1.47, 0.94700000000000006, 25, 1.5522703273495246
DataValue, -4.0000000000000003E-07, 19.00008, 1.5817, 1.0170000000000001, 25, 1.5552605703048179
DataValue, -5.0000000000000008E-07, 18.999760000000002, 1.6580000000000001, 1.045, 25, 1.5866028708133975
DataValue, -6.0000000000000008E-07, 19.00024, 1.6859000000000002, 1.074, 25, 1.5697392923649907
DataValue, -1.0000000000000001E-07, 19, 1.6961000000000002, 1.098, 25, 1.5447176684881603
DataValue, -1.3E-06, 18.999640000000003, 1.6997, 1.096, 25, 1.5508211678832116
DataValue, -2.3E-06, 18.99986, 1.7018, 1.0695000000000001, 25, 1.5912108461898082
DataValue, -8.0000000000000007E-07, 19.000680000000003, 1.7028, 1.0775000000000001, 25, 1.5803248259860787
DataValue, -1.7000000000000002E-06, 19.000400000000003, 1.7042000000000002, 1.0955, 25, 1.555636695572798
DataValue, -7.0000000000000007E-07, 18.9996, 1.7048, 1.096, 25, 1.5554744525547446
DataValue, -1.2000000000000002E-06, 19.00062, 1.7058, 1.081, 25, 1.5779833487511563
DataValue, -1.1E-06, 19.000020000000003, 1.7041000000000002, 1.088, 25, 1.5662683823529413
DataValue, -4.0000000000000003E-07, 17.99986, 0.0853, 0.064, 25, 1.3328125
DataValue, -1.0000000000000001E-07, 17.99982, 0.20070000000000002, 0.1405, 25, 1.4284697508896798
DataValue, -1.1E-06, 17.99998, 0.3047, 0.1985, 25, 1.5350125944584383
DataValue, -2.0000000000000002E-07, 17.99996, 0.4335, 0.267, 25, 1.6235955056179774
DataValue, -4.0000000000000003E-07, 17.999360000000003, 0.5632, 0.362, 25, 1.5558011049723759
DataValue, 1.0000000000000001E-07, 17.99962, 0.6794, 0.4365, 25, 1.5564719358533792
DataValue, -6.0000000000000008E-07, 18.00028, 0.8176, 0.512, 25, 1.596875
DataValue, 3.0000000000000004E-07, 17.999640000000003, 0.9566, 0.616, 25, 1.552922077922078
DataValue, -5.0000000000000008E-07, 17.999540000000003, 1.0697, 0.6815, 25, 1.5696258253851798
DataValue, -3.0000000000000004E-07, 18.0009, 1.2105000000000001, 0.762, 25, 1.5885826771653544
DataValue, -5.0000000000000008E-07, 18.000300000000003, 1.3395000000000001, 0.8465, 25, 1.5823981098641466
DataValue, 0, 17.99912, 1.476, 0.94000000000000006, 25, 1.5702127659574467
DataValue, -1.0000000000000002E-06, 17.999740000000003, 1.5882, 0.9905, 25, 1.6034326097930338
DataValue, -1.0000000000000002E-06, 17.99998, 1.6622000000000001, 1.06, 25, 1.5681132075471698
DataValue, 1.0000000000000001E-07, 18.00054, 1.6884000000000001, 1.0705, 25, 1.5772069126576367
DataValue, -1.1E-06, 17.99978, 1.7004000000000001, 1.056, 25, 1.6102272727272728
DataValue, 0, 18.000500000000002, 1.7044000000000001, 1.07, 25, 1.5928971962616823
DataValue, 2.0000000000000002E-07, 18.000700000000002, 1.7068, 1.0855000000000001, 25, 1.5723629663749423
DataValue, 0, 18.00018, 1.7066000000000001, 1.064, 25, 1.6039473684210526
DataValue, -1.5E-06, 17.99998, 1.7080000000000002, 1.0615, 25, 1.6090438059349976
DataValue, -7.0000000000000007E-07, 17.999740000000003, 1.7076, 1.087, 25, 1.5709291628334867
DataValue, -6.0000000000000008E-07, 18.00044, 1.7080000000000002, 1.0815000000000001, 25, 1.5792880258899675
DataValue, -1.6000000000000001E-06, 17.99988, 1.7071, 1.0685, 25, 1.5976602714085166
DataValue, -7.0000000000000007E-07, 17.0001, 0.093, 0.0405, 25, 2.2962962962962963
DataValue, -2.5E-06, 16.999760000000002, 0.1894, 0.11, 25, 1.7218181818181819
DataValue, -4.0000000000000003E-07, 17.000140000000002, 0.30920000000000003, 0.20400000000000002, 25, 1.5156862745098039
DataValue, -3.0000000000000004E-07, 17.000680000000003, 0.43520000000000003, 0.258, 25, 1.6868217054263566
DataValue, -1.2000000000000002E-06, 16.99962, 0.5664, 0.363, 25, 1.5603305785123969
DataValue, -1.9000000000000002E-06, 17.000860000000003, 0.6864, 0.4195, 25, 1.6362336114421932
DataValue, -6.0000000000000008E-07, 16.9999, 0.8192, 0.5, 25, 1.6384
DataValue, -4.0000000000000003E-07, 16.9996, 0.95600000000000007, 0.6095, 25, 1.5684987694831829
DataValue, -1.1E-06, 17.00006, 1.076, 0.6415, 25, 1.6773187840997663
DataValue, -1.2000000000000002E-06, 16.999840000000003, 1.2134, 0.75150000000000006, 25, 1.6146373918829009
DataValue, -1.0000000000000002E-06, 17.00052, 1.3508, 0.8425, 25, 1.6033234421364984
DataValue, -1.6000000000000001E-06, 16.99972, 1.4902, 0.914, 25, 1.6304157549234135
DataValue, -7.0000000000000007E-07, 17, 1.5948, 0.993, 25, 1.6060422960725076
DataValue, -1.2000000000000002E-06, 16.999260000000003, 1.6696, 1.056, 25, 1.5810606060606061
DataValue, 2.0000000000000002E-07, 17.0001, 1.695, 1.044, 25, 1.6235632183908046
DataValue, 1.3E-06, 17, 1.7044000000000001, 1.065, 25, 1.6003755868544602
DataValue, -3.0000000000000004E-07, 17.00104, 1.7073, 1.0475, 25, 1.6298806682577565
DataValue, 3.0000000000000004E-07, 17.000300000000003, 1.7101000000000002, 1.0565, 25, 1.6186464742072884
DataValue, 1.0000000000000002E-06, 17.00008, 1.7112, 1.0375, 25, 1.6493493975903613
DataValue, 7.0000000000000007E-07, 17.001, 1.711, 1.0495, 25, 1.6303001429252024
DataValue, 1.0000000000000001E-07, 17.00028, 1.7118, 1.061, 25, 1.613383600377003
DataValue, -1.0000000000000001E-07, 16.999640000000003, 1.7141000000000002, 1.059, 25, 1.6186024551463647
DataValue, -7.0000000000000007E-07, 17.000140000000002, 1.7132, 1.0505, 25, 1.6308424559733461
DataValue, -9.0000000000000007E-07, 15.999860000000002, 0.088000000000000009, 0.039, 25, 2.2564102564102568
DataValue, 0, 16.00076, 0.19390000000000002, 0.117, 25, 1.6572649572649574
DataValue, -4.0000000000000003E-07, 16.00056, 0.3038, 0.2005, 25, 1.515211970074813
DataValue, -1.1E-06, 16.000220000000002, 0.4304, 0.249, 25, 1.7285140562248997
DataValue, 1.2000000000000002E-06, 15.99998, 0.56480000000000008, 0.35100000000000003, 25, 1.6091168091168091
DataValue, -1.0000000000000002E-06, 15.999760000000002, 0.6893, 0.428, 25, 1.6105140186915889
DataValue, -9.0000000000000007E-07, 15.999540000000001, 0.8232, 0.496, 25, 1.6596774193548387
DataValue, -1.2000000000000002E-06, 15.999860000000002, 0.9618000000000001, 0.591, 25, 1.6274111675126906
DataValue, 0, 16.00034, 1.0766, 0.6445, 25, 1.67044220325834
DataValue, -1.2000000000000002E-06, 16.00036, 1.2303, 0.75250000000000006, 25, 1.6349501661129566
DataValue, -1.3E-06, 16.00052, 1.3584, 0.8105, 25, 1.6760024676125849
DataValue, -1.4000000000000002E-06, 16.0002, 1.4945000000000002, 0.9145, 25, 1.6342263531984693
DataValue, -2.6E-06, 16.00028, 1.604, 0.988, 25, 1.6234817813765183
DataValue, -1.1E-06, 15.999900000000002, 1.6786, 1.006, 25, 1.6685884691848907
DataValue, 4.0000000000000003E-07, 16.000020000000003, 1.7013, 1.0365, 25, 1.6413892908827787
DataValue, -2.0000000000000002E-07, 16.000120000000003, 1.7084000000000001, 1.024, 25, 1.668359375
DataValue, -1.0000000000000001E-07, 15.999760000000002, 1.7124000000000001, 1.036, 25, 1.6528957528957531
DataValue, -2.0000000000000002E-07, 15.999520000000002, 1.7161000000000002, 1.0285, 25, 1.6685464268351971
DataValue, -7.0000000000000007E-07, 15.999880000000001, 1.7176, 1.0495, 25, 1.6365888518342067
DataValue, -9.0000000000000007E-07, 16.000220000000002, 1.7177, 1.031, 25, 1.6660523763336568
DataValue, -3.0000000000000004E-07, 15.999400000000001, 1.7173, 1.0475, 25, 1.6394272076372314
DataValue, 1.0000000000000001E-07, 16, 1.7178, 1.025, 25, 1.6759024390243904
DataValue, -4.0000000000000003E-07, 16.000420000000002, 1.7176, 1.04, 25, 1.6515384615384614
DataValue, -9.0000000000000007E-07, 14.999640000000001, 0.0916, 0.029, 25, 3.1586206896551721
DataValue, -9.0000000000000007E-07, 14.999720000000002, 0.19410000000000002, 0.1085, 25, 1.7889400921658989
DataValue, 0, 15.000300000000001, 0.3079, 0.1525, 25, 2.0190163934426231
DataValue, -6.0000000000000008E-07, 14.99984, 0.43660000000000004, 0.26, 25, 1.6792307692307693
DataValue, -3.0000000000000004E-07, 15.000320000000002, 0.5707, 0.3225, 25, 1.7696124031007752
DataValue, 0, 15.000440000000001, 0.6931, 0.4275, 25, 1.6212865497076026
DataValue, -1.2000000000000002E-06, 14.999880000000001, 0.83180000000000009, 0.50250000000000006, 25, 1.6553233830845771
DataValue, -1.1E-06, 15.000340000000001, 0.9674, 0.58, 25, 1.6679310344827587
DataValue, -9.0000000000000007E-07, 14.99998, 1.0895000000000001, 0.6595, 25, 1.6520090978013649
DataValue, -6.0000000000000008E-07, 14.999720000000002, 1.2304000000000002, 0.7145, 25, 1.7220433869839049
DataValue, 5.0000000000000008E-07, 14.999480000000002, 1.3706, 0.8365, 25, 1.6384937238493724
DataValue, -1.1E-06, 14.99998, 1.498, 0.88750000000000007, 25, 1.6878873239436618
DataValue, -4.0000000000000003E-07, 14.999620000000002, 1.6195000000000002, 0.979, 25, 1.6542390194075589
DataValue, -1.0000000000000002E-06, 15.00008, 1.6840000000000002, 0.997, 25, 1.6890672016048147
DataValue, -8.0000000000000007E-07, 14.999960000000002, 1.7074, 1.0170000000000001, 25, 1.6788593903638149
DataValue, -1.3E-06, 15.000280000000002, 1.7151, 1.0095, 25, 1.6989598811292719
DataValue, 0, 15.000620000000001, 1.7209, 1.0090000000000001, 25, 1.7055500495540137
DataValue, 7.0000000000000007E-07, 14.999720000000002, 1.7224000000000002, 1.0230000000000001, 25, 1.6836754643206255
DataValue, -8.0000000000000007E-07, 14.999580000000002, 1.7207000000000001, 1.0115, 25, 1.7011369253583786
DataValue, -4.0000000000000003E-07, 15.000160000000001, 1.7225000000000001, 1.0045, 25, 1.7147834743653561
DataValue, 4.0000000000000003E-07, 15.00054, 1.7235, 1.012, 25, 1.7030632411067195
DataValue, -1.0000000000000001E-07, 15.00046, 1.7251, 1.0165, 25, 1.697097884899164
DataValue, 2.0000000000000002E-07, 15.000480000000001, 1.7237, 1.0155, 25, 1.6973904480551452
DataValue, -1.4000000000000002E-06, 14.000380000000002, 0.0945, 0.0585, 25, 1.6153846153846152
DataValue, -2.0000000000000003E-06, 13.999740000000001, 0.1993, 0.1305, 25, 1.5272030651340995
DataValue, 1.0000000000000001E-07, 14.000440000000001, 0.3189, 0.17500000000000002, 25, 1.8222857142857143
DataValue, -4.0000000000000003E-07, 14.00022, 0.43460000000000004, 0.2615, 25, 1.6619502868068834
DataValue, -1.4000000000000002E-06, 13.999920000000001, 0.56890000000000007, 0.334, 25, 1.7032934131736528
DataValue, -6.0000000000000008E-07, 14.000160000000001, 0.7072, 0.422, 25, 1.6758293838862561
DataValue, -1.0000000000000001E-07, 14.000680000000001, 0.84710000000000008, 0.499, 25, 1.6975951903807618
DataValue, -4.0000000000000003E-07, 14.00036, 0.9685, 0.5505, 25, 1.7593097184377839
DataValue, -2.2E-06, 14.00026, 1.1093, 0.6495, 25, 1.7079291762894535
DataValue, -7.0000000000000007E-07, 14.000020000000001, 1.2511, 0.7215, 25, 1.734026334026334
DataValue, -2.0000000000000002E-07, 14.000440000000001, 1.3800000000000001, 0.8, 25, 1.725
DataValue, -9.0000000000000007E-07, 13.999760000000002, 1.5115, 0.8525, 25, 1.7730205278592375
DataValue, -7.0000000000000007E-07, 14.000160000000001, 1.6357000000000002, 0.95300000000000007, 25, 1.7163693599160546
DataValue, -4.0000000000000003E-07, 13.9997, 1.6960000000000002, 0.972, 25, 1.7448559670781896
DataValue, 5.0000000000000008E-07, 14.000160000000001, 1.7181000000000002, 0.9965, 25, 1.7241344706472654
DataValue, 6.0000000000000008E-07, 14.00026, 1.724, 0.9975, 25, 1.7283208020050125
DataValue, 3.0000000000000004E-07, 14.0005, 1.7279, 0.991, 25, 1.7435923309788093
DataValue, -8.0000000000000007E-07, 14.000420000000002, 1.7292, 0.9915, 25, 1.7440242057488653
DataValue, -7.0000000000000007E-07, 13.999080000000001, 1.7306000000000001, 0.9925, 25, 1.7436775818639798
DataValue, -5.0000000000000008E-07, 13.999820000000002, 1.7315, 0.9975, 25, 1.7358395989974937
DataValue, -1.1E-06, 14.000620000000001, 1.7321, 0.979, 25, 1.7692543411644535
DataValue, -3.0000000000000004E-07, 13.999760000000002, 1.7302000000000002, 0.9845, 25, 1.7574403250380906
DataValue, -1.2000000000000002E-06, 13.99966, 1.7324000000000002, 1.0015, 25, 1.7298052920619071
DataValue, -1.4000000000000002E-06, 12.999920000000001, 0.0947, 0.0505, 25, 1.8752475247524754
DataValue, -1.0000000000000001E-07, 13.000140000000002, 0.2039, 0.122, 25, 1.6713114754098362
DataValue, -1.6000000000000001E-06, 12.999960000000002, 0.3126, 0.1795, 25, 1.7415041782729805
DataValue, -1.4000000000000002E-06, 12.999480000000002, 0.44870000000000004, 0.23450000000000001, 25, 1.9134328358208956
DataValue, -1.5E-06, 13.00032, 0.5854, 0.3265, 25, 1.7929555895865237
DataValue, -1.5E-06, 13.00008, 0.71010000000000006, 0.403, 25, 1.7620347394540943
DataValue, -6.0000000000000008E-07, 13.000140000000002, 0.85010000000000008, 0.47700000000000004, 25, 1.7821802935010482
DataValue, -1.6000000000000001E-06, 12.99976, 0.9727, 0.5625, 25, 1.7292444444444444
DataValue, -1.0000000000000002E-06, 12.99966, 1.1322, 0.62550000000000006, 25, 1.8100719424460432
DataValue, -1.1E-06, 13.000700000000002, 1.2622, 0.717, 25, 1.7603905160390516
DataValue, -1.5E-06, 13.000140000000002, 1.4034, 0.784, 25, 1.7900510204081632
DataValue, -6.0000000000000008E-07, 13.00008, 1.5448000000000002, 0.862, 25, 1.792111368909513
DataValue, -7.0000000000000007E-07, 13.00018, 1.6524, 0.903, 25, 1.8299003322259138
DataValue, -7.0000000000000007E-07, 12.999860000000002, 1.7067, 0.9445, 25, 1.8069878242456328
DataValue, -1.4000000000000002E-06, 12.999460000000001, 1.7274, 0.96, 25, 1.7993750000000002
DataValue, 2.0000000000000002E-07, 12.99994, 1.7342000000000002, 0.9515, 25, 1.8225959012086181
DataValue, 1.0000000000000001E-07, 12.999340000000002, 1.7403000000000002, 0.95900000000000007, 25, 1.8147028154327425
DataValue, -9.0000000000000007E-07, 12.99994, 1.7378, 0.9615, 25, 1.8073842953718149
DataValue, 3.0000000000000004E-07, 13.000440000000001, 1.7391, 0.9355, 25, 1.8590058792089792
DataValue, -6.0000000000000008E-07, 13.00032, 1.7405000000000002, 0.95500000000000007, 25, 1.8225130890052357
DataValue, -6.0000000000000008E-07, 12.999620000000002, 1.7409000000000001, 0.94300000000000006, 25, 1.8461293743372216
DataValue, 4.0000000000000003E-07, 12.99956, 1.7411, 0.9485, 25, 1.8356352134949923
DataValue, -9.0000000000000007E-07, 13.000020000000001, 1.7398, 0.97, 25, 1.7936082474226804
DataValue, -3.0000000000000004E-07, 11.999820000000002, 0.0965, 0.055, 25, 1.7545454545454546
DataValue, -4.0000000000000003E-07, 12.0004, 0.2018, 0.0845, 25, 2.3881656804733726
DataValue, -9.0000000000000007E-07, 11.99966, 0.323, 0.17350000000000002, 25, 1.8616714697406338
DataValue, 0, 11.9999, 0.4546, 0.2515, 25, 1.8075546719681908
DataValue, -5.0000000000000008E-07, 11.99962, 0.5947, 0.3285, 25, 1.8103500761035007
DataValue, -4.0000000000000003E-07, 11.999780000000001, 0.7243, 0.4005, 25, 1.8084893882646691
DataValue, -8.0000000000000007E-07, 11.999860000000002, 0.8628, 0.455, 25, 1.8962637362637362
DataValue, -6.0000000000000008E-07, 11.99932, 1.0010000000000001, 0.5405, 25, 1.8519888991674378
DataValue, -1.2000000000000002E-06, 11.999400000000001, 1.129, 0.5895, 25, 1.9151823579304494
DataValue, -1.9000000000000002E-06, 12.000000000000002, 1.2796, 0.678, 25, 1.8873156342182891
DataValue, -1.0000000000000002E-06, 12.000300000000001, 1.4275, 0.75650000000000006, 25, 1.8869795109054857
DataValue, -1.2000000000000002E-06, 12.00036, 1.5681, 0.8155, 25, 1.9228694052728388
DataValue, -1.6000000000000001E-06, 11.99998, 1.6735, 0.884, 25, 1.8930995475113122
DataValue, 3.0000000000000004E-07, 11.99962, 1.7227000000000001, 0.888, 25, 1.9399774774774776
DataValue, -1.1E-06, 11.99998, 1.7394, 0.911, 25, 1.909330406147091
DataValue, -2.0000000000000002E-07, 12.000100000000002, 1.7465000000000002, 0.916, 25, 1.9066593886462884
DataValue, -1.0000000000000002E-06, 12.000940000000002, 1.7503000000000002, 0.8995, 25, 1.9458588104502503
DataValue, 3.0000000000000004E-07, 11.999120000000001, 1.7492, 0.8995, 25, 1.9446359088382437
DataValue, -1.2000000000000002E-06, 11.99956, 1.7526000000000002, 0.908, 25, 1.9301762114537446
DataValue, -7.0000000000000007E-07, 12.000380000000002, 1.7508000000000001, 0.933, 25, 1.8765273311897106
