
SetupTitle, Rds-Id
ApplicationTest, Rds-Id, Public
TestParameter, Name, Memo, Scale, HoldTime, PulseBase, PulseAvgCnt, Gate, VgStart, VgStop, VgStep, IgLimit, Source, MeasurementTime, Drain, IdStart, IdStop, IdLinearStep, VdLimit, VdStop, PulsePeriodMode, ManualPulsePeriod, PulseWidth
TestParameter, Value, , LINEAR, 0, 0, 1, SMU2:MC	MCSMU, 15, 5, 1, 0.1, GNDU:GND	GNDU, 1E-05, SMU3:UHC500	UHCU500A, 0.5, 30, 0.2, 2, 0, 0, 0.05, 0.0002
DutParameter, Name, Polarity, Temp, YAxisRdsMin, YAxisRdsMax
DutParameter, Value, 1, 25, 0.001, 1
MetaData, TestRecord.EntryPoint, true
MetaData, TestRecord.RecordTime, 04/20/2021 09:42:54
MetaData, TestRecord.TestTarget, 
MetaData, TestRecord.IterationIndex, 1
MetaData, TestRecord.Preservation, true
MetaData, TestRecord.Flag, 
MetaData, TestRecord.Remarks, 
MetaData, TestRecord.LinkKey, 63a6a4a1-54b4-4f46-b800-397ba21f3970
Dimension1, 148, 148, 148, 148, 148, 148
Dimension2, 11, 11, 11, 11, 11, 11
DataName, Igate, Vgate, Vdrain, Idrain, Ta, Rds
DataValue, 0, 15.000900000000002, 0.0071, 0.101, 25, 0.07029702970297029
DataValue, 1.0000000000000001E-07, 15.000620000000001, 0.0179, 0.3045, 25, 0.058784893267651885
DataValue, -1.0000000000000001E-07, 15.00008, 0.0297, 0.506, 25, 0.058695652173913045
DataValue, -2.4000000000000003E-06, 15.00008, 0.0413, 0.74, 25, 0.055810810810810817
DataValue, -1.4000000000000002E-06, 14.999920000000001, 0.0541, 0.975, 25, 0.055487179487179489
DataValue, -6.0000000000000008E-07, 15.00026, 0.06430000000000001, 1.1635, 25, 0.055264288783841868
DataValue, -1.2000000000000002E-06, 14.999580000000002, 0.0766, 1.3895, 25, 0.0551277437927312
DataValue, -1.1E-06, 15.000200000000001, 0.0887, 1.5935000000000001, 25, 0.055663633511138996
DataValue, -2.2E-06, 14.9997, 0.0984, 1.786, 25, 0.055095184770436727
DataValue, 2.4000000000000003E-06, 15.000340000000001, 0.1102, 2.0085, 25, 0.054866816031864572
DataValue, -1.0000000000000002E-06, 14.9998, 0.1216, 2.2015000000000002, 25, 0.055235066999772875
DataValue, -6.0000000000000008E-07, 14.999960000000002, 0.1318, 2.4205, 25, 0.054451559595124974
DataValue, -2.8000000000000003E-06, 14.99994, 0.14350000000000002, 2.6095, 25, 0.054991377658555281
DataValue, -1.4000000000000002E-06, 14.99956, 0.1547, 2.826, 25, 0.054741684359518754
DataValue, -1.2000000000000002E-06, 14.999600000000001, 0.16590000000000002, 3.02, 25, 0.054933774834437094
DataValue, -8.0000000000000007E-07, 14.999760000000002, 0.1757, 3.226, 25, 0.054463732176069438
DataValue, -1.1E-06, 15.000580000000001, 0.1872, 3.4435000000000002, 25, 0.054363293161028024
DataValue, -5.0000000000000008E-07, 14.999860000000002, 0.1978, 3.6305, 25, 0.054482853601432311
DataValue, -5.0000000000000008E-07, 15.000100000000002, 0.20950000000000002, 3.8365, 25, 0.054607063729962213
DataValue, -4.0000000000000003E-07, 15.00026, 0.2185, 4.009, 25, 0.054502369668246439
DataValue, -3.0000000000000004E-07, 15.000240000000002, 0.2286, 4.199, 25, 0.054441533698499647
DataValue, -2.0000000000000003E-06, 14.999960000000002, 0.2416, 4.4065, 25, 0.0548280948598661
DataValue, 5.0000000000000008E-07, 15.00046, 0.251, 4.6265, 25, 0.054252674808170323
DataValue, -1.8000000000000001E-06, 14.99998, 0.2625, 4.822, 25, 0.054437992534218167
DataValue, 1.3E-06, 14.999620000000002, 0.2728, 5.014, 25, 0.054407658556043077
DataValue, 9.0000000000000007E-07, 14.99984, 0.28200000000000003, 5.1930000000000005, 25, 0.054303870595031771
DataValue, -4.0000000000000003E-07, 14.999680000000002, 0.2928, 5.383, 25, 0.054393460895411479
DataValue, 1.1E-06, 15.0004, 0.3032, 5.5605, 25, 0.054527470551209427
DataValue, -2.4000000000000003E-06, 14.998640000000002, 0.312, 5.774, 25, 0.054035330793210948
DataValue, -2.4000000000000003E-06, 15.000340000000001, 0.3216, 5.939, 25, 0.054150530392321941
DataValue, 9.0000000000000007E-07, 14.999900000000002, 0.3287, 6.061, 25, 0.054231974921630094
DataValue, 2.0000000000000002E-07, 14.999780000000001, 0.3357, 6.191, 25, 0.054223873364561463
DataValue, -2.0000000000000002E-07, 14.999440000000002, 0.3403, 6.258, 25, 0.054378395653563436
DataValue, 1.2000000000000002E-06, 15.00046, 0.3407, 6.3525, 25, 0.053632428177882725
DataValue, -6.0000000000000008E-07, 15.000140000000002, 0.3438, 6.3725000000000005, 25, 0.053950568850529616
DataValue, -1.5E-06, 15.00008, 0.34440000000000004, 6.3895, 25, 0.053900931215275068
DataValue, -1.0000000000000002E-06, 15.000420000000002, 0.34650000000000003, 6.4155, 25, 0.054009819967266781
DataValue, -1.5E-06, 14.999920000000001, 0.34740000000000004, 6.4350000000000005, 25, 0.053986013986013985
DataValue, 1.0000000000000002E-06, 14.999600000000001, 0.3467, 6.422, 25, 0.053986297103706012
DataValue, -2.5E-06, 14.999920000000001, 0.3458, 6.4485, 25, 0.053624874001705819
DataValue, -4.0000000000000003E-07, 15.000180000000002, 0.34750000000000003, 6.4435, 25, 0.053930317374097932
DataValue, -1.0000000000000001E-07, 15.000240000000002, 0.3483, 6.4345, 25, 0.054130080037298939
DataValue, -5.0000000000000008E-07, 14.999880000000001, 0.3486, 6.4445000000000006, 25, 0.054092637132438511
DataValue, -1.2000000000000002E-06, 14.9998, 0.34750000000000003, 6.4675, 25, 0.053730189408581368
DataValue, -1.6000000000000001E-06, 15.000420000000002, 0.3483, 6.4545, 25, 0.053962351847548218
DataValue, -8.0000000000000007E-07, 15.000340000000001, 0.3471, 6.4625, 25, 0.053709864603481622
DataValue, 2.0000000000000002E-07, 14.9997, 0.34750000000000003, 6.458, 25, 0.053809228863425214
DataValue, -2.1000000000000002E-06, 14.99998, 0.34790000000000004, 6.4715, 25, 0.0537587885343429
DataValue, -8.0000000000000007E-07, 15.00054, 0.3481, 6.4745, 25, 0.053764769480268752
DataValue, -4.0000000000000003E-07, 15.000320000000002, 0.34840000000000004, 6.4595, 25, 0.0539360631627835
DataValue, -2.0000000000000003E-06, 14.999900000000002, 0.34850000000000003, 6.4705, 25, 0.053859825361254929
DataValue, -1.6000000000000001E-06, 14.999460000000001, 0.34950000000000003, 6.4745, 25, 0.053981002394007264
DataValue, 2.1000000000000002E-06, 15.00036, 0.34890000000000004, 6.468, 25, 0.053942486085343237
DataValue, -5.0000000000000008E-07, 15.0006, 0.3487, 6.4615, 25, 0.053965797415460807
DataValue, -9.0000000000000007E-07, 14.999780000000001, 0.3492, 6.4665, 25, 0.054001391788448157
DataValue, 5.0000000000000008E-07, 14.999960000000002, 0.34740000000000004, 6.4670000000000005, 25, 0.053718880470078861
DataValue, -1.1E-06, 15.000420000000002, 0.3477, 6.458, 25, 0.053840198203778257
DataValue, -1.0000000000000002E-06, 14.999500000000001, 0.34650000000000003, 6.4350000000000005, 25, 0.053846153846153849
DataValue, 4.0000000000000003E-07, 14.999760000000002, 0.3493, 6.449, 25, 0.054163436191657623
DataValue, 5.0000000000000008E-07, 15.000300000000001, 0.3487, 6.448, 25, 0.054078784119106695
DataValue, 1.4000000000000002E-06, 15.000000000000002, 0.3481, 6.4670000000000005, 25, 0.053827122313282821
DataValue, 3.0000000000000004E-07, 14.99966, 0.34900000000000003, 6.442, 25, 0.05417572182552003
DataValue, 7.0000000000000007E-07, 14.999780000000001, 0.3483, 6.452, 25, 0.053983261004339742
DataValue, 2.0000000000000002E-07, 15.000000000000002, 0.34840000000000004, 6.4565, 25, 0.053961124448230473
DataValue, -1.0000000000000001E-07, 15.00054, 0.3471, 6.4645, 25, 0.053693247737644056
DataValue, -1.6000000000000001E-06, 15.000280000000002, 0.3487, 6.4665, 25, 0.053924070207995056
DataValue, -8.0000000000000007E-07, 15.000180000000002, 0.34790000000000004, 6.4735000000000005, 25, 0.053742179655518654
DataValue, -3.3E-06, 15.000060000000001, 0.34890000000000004, 6.481, 25, 0.053834284832587571
DataValue, -3.0000000000000004E-07, 14.9998, 0.3481, 6.478, 25, 0.053735720901512816
DataValue, -8.0000000000000007E-07, 14.999780000000001, 0.34850000000000003, 6.4575000000000005, 25, 0.053968253968253971
DataValue, 8.0000000000000007E-07, 14.99966, 0.34940000000000004, 6.4455, 25, 0.054208362423396175
DataValue, -4.0000000000000003E-07, 15.00008, 0.34840000000000004, 6.4685, 25, 0.05386101878333463
DataValue, -2.0000000000000002E-07, 14.999880000000001, 0.3482, 6.4525000000000006, 25, 0.053963580007748931
DataValue, -9.0000000000000007E-07, 15.00012, 0.3483, 6.469, 25, 0.0538413974339156
DataValue, 1.6000000000000001E-06, 15.00078, 0.3496, 6.4665, 25, 0.054063249052810645
DataValue, -6.0000000000000008E-07, 14.999780000000001, 0.34900000000000003, 6.4670000000000005, 25, 0.053966290397402195
DataValue, -1.3E-06, 15.000000000000002, 0.3487, 6.444, 25, 0.054112352576039732
DataValue, -6.0000000000000008E-07, 15.000620000000001, 0.34900000000000003, 6.458, 25, 0.054041498916073093
DataValue, 2.0000000000000002E-07, 14.999440000000002, 0.35000000000000003, 6.453, 25, 0.054238338757167215
DataValue, 8.0000000000000007E-07, 15.000020000000001, 0.3482, 6.453, 25, 0.0539593987292732
DataValue, -3.0000000000000004E-07, 14.99924, 0.34900000000000003, 6.4555, 25, 0.054062427387499036
DataValue, -1.7000000000000002E-06, 14.99994, 0.3488, 6.4825, 25, 0.053806401851137678
DataValue, 6.0000000000000008E-07, 15.000480000000001, 0.34850000000000003, 6.4735000000000005, 25, 0.053834865219742026
DataValue, -1.1E-06, 14.999720000000002, 0.3483, 6.4670000000000005, 25, 0.053858048554198235
DataValue, 7.0000000000000007E-07, 15.00036, 0.34950000000000003, 6.4645, 25, 0.054064506148967441
DataValue, -9.0000000000000007E-07, 15.000240000000002, 0.3478, 6.4545, 25, 0.0538848865132853
DataValue, -1.0000000000000001E-07, 14.999720000000002, 0.3503, 6.4535, 25, 0.054280622917796548
DataValue, -1.0000000000000002E-06, 14.999580000000002, 0.35000000000000003, 6.463, 25, 0.054154417453195117
DataValue, -1.1E-06, 14.999440000000002, 0.34900000000000003, 6.488, 25, 0.053791615289765719
DataValue, -1.4000000000000002E-06, 14.999880000000001, 0.34950000000000003, 6.4875, 25, 0.053872832369942204
DataValue, 1.0000000000000001E-07, 14.999780000000001, 0.3498, 6.4795, 25, 0.053985647040666718
DataValue, -3.5000000000000004E-06, 14.99924, 0.34890000000000004, 6.481, 25, 0.053834284832587571
DataValue, -1.1E-06, 15.000180000000002, 0.34790000000000004, 6.479, 25, 0.053696558110819574
DataValue, -2.2E-06, 14.999760000000002, 0.34940000000000004, 6.4350000000000005, 25, 0.0542968142968143
DataValue, -3.0000000000000004E-07, 14.999580000000002, 0.3493, 6.477, 25, 0.053929288250733363
DataValue, -2.9E-06, 14.99994, 0.34800000000000003, 6.477, 25, 0.053728578045391384
DataValue, 3.0000000000000004E-07, 14.99984, 0.3501, 6.462, 25, 0.054178272980501395
DataValue, -8.0000000000000007E-07, 14.99966, 0.34800000000000003, 6.4590000000000005, 25, 0.0538783093358105
DataValue, -9.0000000000000007E-07, 14.999880000000001, 0.34790000000000004, 6.47, 25, 0.053771251931993828
DataValue, 4.0000000000000003E-07, 14.9998, 0.3478, 6.4735000000000005, 25, 0.053726732061481423
DataValue, -2.2E-06, 15.00012, 0.3496, 6.4875, 25, 0.053888246628131027
DataValue, -9.0000000000000007E-07, 14.999540000000001, 0.3488, 6.4625, 25, 0.05397292069632495
DataValue, 1.0000000000000002E-06, 15.000200000000001, 0.34950000000000003, 6.452, 25, 0.054169249845009308
DataValue, -5.0000000000000008E-07, 15.000040000000002, 0.3488, 6.4745, 25, 0.053872885937138
DataValue, -3.0000000000000004E-07, 14.999760000000002, 0.34950000000000003, 6.471, 25, 0.054010199350950396
DataValue, 1.0000000000000002E-06, 15.000440000000001, 0.3493, 6.4745, 25, 0.053950111977758904
DataValue, -2.3E-06, 14.999760000000002, 0.3493, 6.4515, 25, 0.054142447492831119
DataValue, 1.7000000000000002E-06, 15.000440000000001, 0.3492, 6.469, 25, 0.05398052249188437
DataValue, -1.6000000000000001E-06, 14.999760000000002, 0.34990000000000004, 6.4865, 25, 0.05394280428582441
DataValue, -1.2000000000000002E-06, 15.000180000000002, 0.34850000000000003, 6.4670000000000005, 25, 0.053888974795113655
DataValue, 0, 15.00064, 0.35000000000000003, 6.4645, 25, 0.054141851651326477
DataValue, 1.0000000000000001E-07, 14.999120000000001, 0.34940000000000004, 6.4795, 25, 0.053923913882244011
DataValue, 9.0000000000000007E-07, 15.00046, 0.3507, 6.4665, 25, 0.054233356529807472
DataValue, -1.4000000000000002E-06, 15.00026, 0.3492, 6.4535, 25, 0.054110172774463471
DataValue, -7.0000000000000007E-07, 15.00012, 0.3491, 6.4745, 25, 0.053919221561510543
DataValue, -6.0000000000000008E-07, 14.99994, 0.34890000000000004, 6.466, 25, 0.05395917104856171
DataValue, -1.0000000000000002E-06, 15.000980000000002, 0.3483, 6.464, 25, 0.053883044554455445
DataValue, -1.7000000000000002E-06, 14.99998, 0.3492, 6.466, 25, 0.05400556758428704
DataValue, -7.0000000000000007E-07, 15.00026, 0.34800000000000003, 6.4885, 25, 0.053633351313862994
DataValue, 3.0000000000000004E-07, 15.000140000000002, 0.3493, 6.473, 25, 0.053962613934806121
DataValue, 1.0000000000000001E-07, 14.999480000000002, 0.34890000000000004, 6.446, 25, 0.054126590133416079
DataValue, 7.0000000000000007E-07, 15.000180000000002, 0.3503, 6.479, 25, 0.054066985645933013
DataValue, -1.5E-06, 15.0004, 0.3486, 6.477, 25, 0.05382121352477999
DataValue, -2.7000000000000004E-06, 15.000000000000002, 0.34950000000000003, 6.462, 25, 0.054085422469823591
DataValue, 1.5E-06, 15.000060000000001, 0.34850000000000003, 6.465, 25, 0.05390564578499614
DataValue, -1.1E-06, 15.000560000000002, 0.3492, 6.4645, 25, 0.054018098847552015
DataValue, -2.0000000000000002E-07, 15.000100000000002, 0.34900000000000003, 6.4795, 25, 0.05386218072382129
DataValue, -3.0000000000000004E-07, 14.999860000000002, 0.3483, 6.4645, 25, 0.053878876943305745
DataValue, 1.0000000000000002E-06, 14.999600000000001, 0.34940000000000004, 6.465, 25, 0.05404485692188709
DataValue, -2.2E-06, 14.999740000000001, 0.3497, 6.472, 25, 0.0540327564894932
DataValue, 0, 14.999400000000001, 0.3496, 6.488, 25, 0.053884093711467324
DataValue, -2.0000000000000002E-07, 15.000860000000001, 0.34890000000000004, 6.469, 25, 0.05393414747256145
DataValue, 1.1E-06, 14.999920000000001, 0.35000000000000003, 6.4605000000000006, 25, 0.054175373423109664
DataValue, -2.1000000000000002E-06, 14.9998, 0.3492, 6.449, 25, 0.054147929911614205
DataValue, 6.0000000000000008E-07, 15.000040000000002, 0.34990000000000004, 6.47, 25, 0.05408037094281299
DataValue, 1.0000000000000001E-07, 15.000160000000001, 0.3482, 6.479, 25, 0.05374286155270875
DataValue, -9.0000000000000007E-07, 15.00008, 0.3487, 6.489, 25, 0.053737093542918786
DataValue, -1.4000000000000002E-06, 15.000060000000001, 0.3491, 6.4635, 25, 0.05401098476057864
DataValue, -9.0000000000000007E-07, 14.999860000000002, 0.34850000000000003, 6.46, 25, 0.05394736842105264
DataValue, -1.2000000000000002E-06, 15.00026, 0.3496, 6.469, 25, 0.054042355850981605
DataValue, 2.4000000000000003E-06, 14.999540000000001, 0.34900000000000003, 6.4815000000000005, 25, 0.05384556044125588
DataValue, -7.0000000000000007E-07, 15.000300000000001, 0.3504, 6.4895000000000005, 25, 0.053994914862470135
DataValue, -5.0000000000000008E-07, 14.999720000000002, 0.3481, 6.469, 25, 0.053810480754366979
DataValue, 1.2000000000000002E-06, 15.000240000000002, 0.35000000000000003, 6.4645, 25, 0.054141851651326477
DataValue, -6.0000000000000008E-07, 15.000240000000002, 0.3501, 6.4830000000000005, 25, 0.054002776492364644
DataValue, -1.9000000000000002E-06, 14.99966, 0.34800000000000003, 6.47, 25, 0.053786707882534784
DataValue, -1.5E-06, 14.9997, 0.3492, 6.4775, 25, 0.0539096873793902
DataValue, 5.0000000000000008E-07, 15.000000000000002, 0.3504, 6.4670000000000005, 25, 0.054182774083810108
DataValue, -3.9E-06, 13.99984, 0.0077, 0.11, 25, 0.07
DataValue, -5.0000000000000008E-07, 13.999600000000001, 0.0187, 0.3215, 25, 0.058164852255054432
DataValue, -1.2000000000000002E-06, 14.00036, 0.0315, 0.525, 25, 0.06
DataValue, -1.5E-06, 13.99984, 0.0417, 0.749, 25, 0.05567423230974633
DataValue, -1.0000000000000001E-07, 14.000200000000001, 0.055900000000000005, 0.9585, 25, 0.058320292123109026
DataValue, -6.0000000000000008E-07, 14.0004, 0.0675, 1.179, 25, 0.057251908396946563
DataValue, 4.0000000000000003E-07, 14.000760000000001, 0.0805, 1.3695, 25, 0.058780576852866015
DataValue, 2.1000000000000002E-06, 14.000680000000001, 0.0925, 1.6075, 25, 0.057542768273716953
DataValue, -6.0000000000000008E-07, 14.000140000000002, 0.1023, 1.805, 25, 0.056675900277008313
DataValue, -1.4000000000000002E-06, 14.000020000000001, 0.1154, 2.0075, 25, 0.057484433374844338
DataValue, -3.0000000000000004E-07, 13.999860000000002, 0.1246, 2.1995, 25, 0.056649238463287115
DataValue, -1.0000000000000001E-07, 14.000680000000001, 0.13570000000000002, 2.3985, 25, 0.056577027308734637
DataValue, -2.1000000000000002E-06, 13.999540000000001, 0.1471, 2.603, 25, 0.0565117172493277
DataValue, -6.0000000000000008E-07, 14.000580000000001, 0.1592, 2.797, 25, 0.0569181265641759
DataValue, 5.0000000000000008E-07, 14.000860000000001, 0.17, 3.0195, 25, 0.05630071203841696
DataValue, -5.0000000000000008E-07, 14.0004, 0.18050000000000002, 3.231, 25, 0.055865057257814925
DataValue, -1.6000000000000001E-06, 13.99858, 0.19240000000000002, 3.414, 25, 0.056356180433509082
DataValue, 3E-06, 14.000280000000002, 0.2041, 3.6105, 25, 0.056529566542030188
DataValue, 1.1E-06, 14.00036, 0.2139, 3.8280000000000003, 25, 0.055877742946708463
DataValue, -2.6E-06, 13.999460000000001, 0.22640000000000002, 4.008, 25, 0.0564870259481038
DataValue, -1.3E-06, 13.999540000000001, 0.2356, 4.2175, 25, 0.055862477771191459
DataValue, -2.9E-06, 13.9997, 0.24650000000000003, 4.4135, 25, 0.055851365129715648
DataValue, -1.2000000000000002E-06, 14.00036, 0.2575, 4.6005, 25, 0.055972176937289425
DataValue, 1.1E-06, 14.000100000000002, 0.2696, 4.8045, 25, 0.056114059735664482
DataValue, 1.4000000000000002E-06, 14.000800000000002, 0.2807, 4.989, 25, 0.056263780316696738
DataValue, -1.7000000000000002E-06, 14.00036, 0.2909, 5.203, 25, 0.055910051893138572
DataValue, -8.0000000000000007E-07, 14.000020000000001, 0.3014, 5.3950000000000005, 25, 0.055866543095458757
DataValue, 1.0000000000000001E-07, 14.00004, 0.3145, 5.5920000000000005, 25, 0.056241058655221741
DataValue, 1.6000000000000001E-06, 14.000580000000001, 0.32180000000000003, 5.756, 25, 0.055906879777623354
DataValue, -2.1000000000000002E-06, 13.999760000000002, 0.3309, 5.9105, 25, 0.055985111242703667
DataValue, -2.0000000000000003E-06, 13.999500000000001, 0.3388, 6.0545, 25, 0.055958378065901392
DataValue, -2.7000000000000004E-06, 14.00012, 0.3438, 6.1815, 25, 0.055617568551322494
DataValue, -8.0000000000000007E-07, 13.99956, 0.34890000000000004, 6.23, 25, 0.056003210272873194
DataValue, -1.4000000000000002E-06, 13.99956, 0.3506, 6.2895, 25, 0.05574369981715558
DataValue, 1.0000000000000001E-07, 13.999760000000002, 0.3546, 6.351, 25, 0.055833726972130376
DataValue, -4.0000000000000003E-07, 14.000160000000001, 0.3556, 6.367, 25, 0.055850479032511391
DataValue, 6.0000000000000008E-07, 13.9998, 0.3544, 6.3675, 25, 0.0556576364350216
DataValue, -2.0000000000000002E-07, 13.999900000000002, 0.3554, 6.412, 25, 0.055427323767935119
DataValue, -9.0000000000000007E-07, 13.999880000000001, 0.35760000000000003, 6.413, 25, 0.055761733977857476
DataValue, 6.0000000000000008E-07, 13.999960000000002, 0.3567, 6.394, 25, 0.055786675007819836
DataValue, 1.5E-06, 14.000060000000001, 0.3582, 6.4285000000000005, 25, 0.0557206191179902
DataValue, -2.0000000000000002E-07, 14.00064, 0.35600000000000004, 6.409, 25, 0.055546887189889226
DataValue, -6.0000000000000008E-07, 14.00004, 0.3588, 6.415, 25, 0.05593141075604053
DataValue, -3.0000000000000004E-07, 14.001120000000002, 0.35650000000000004, 6.418, 25, 0.055546899345590532
DataValue, -2.0000000000000002E-07, 14.000020000000001, 0.35550000000000004, 6.4085, 25, 0.05547319965670594
DataValue, 1.0000000000000001E-07, 14.000160000000001, 0.3573, 6.431, 25, 0.055559011040273672
DataValue, -1.3E-06, 14.000240000000002, 0.35800000000000004, 6.4315, 25, 0.055663531058073555
