
SetupTitle, Rds-Id
ApplicationTest, Rds-Id, Public
TestParameter, Name, Memo, Scale, HoldTime, PulseBase, PulseAvgCnt, Gate, VgStart, VgStop, VgStep, IgLimit, Source, MeasurementTime, Drain, IdStart, IdStop, IdLinearStep, VdLimit, VdStop, PulsePeriodMode, ManualPulsePeriod, PulseWidth
TestParameter, Value, , LINEAR, 0, 0, 1, SMU2:MC	MCSMU, 20, 5, 1, 0.1, GNDU:GND	GNDU, 1E-05, SMU3:UHC500	UHCU500A, 0.5, 30, 0.2, 2, 0, 0, 0.05, 0.0002
DutParameter, Name, Polarity, Temp, YAxisRdsMin, YAxisRdsMax
DutParameter, Value, 1, 25, 0.001, 1
MetaData, TestRecord.EntryPoint, true
MetaData, TestRecord.RecordTime, 04/16/2021 14:31:02
MetaData, TestRecord.TestTarget, 
MetaData, TestRecord.IterationIndex, 1
MetaData, TestRecord.Preservation, true
MetaData, TestRecord.Flag, 
MetaData, TestRecord.Remarks, 
MetaData, TestRecord.LinkKey, e94c21c3-3b74-46a5-a73c-be8667910392
Dimension1, 148, 148, 148, 148, 148, 148
Dimension2, 16, 16, 16, 16, 16, 16
DataName, Igate, Vgate, Vdrain, Idrain, Ta, Rds
DataValue, -2.0000000000000003E-06, 19.999760000000002, 0.0038, 0.105, 25, 0.03619047619047619
DataValue, -4.1000000000000006E-06, 19.99996, 0.0111, 0.28300000000000003, 25, 0.0392226148409894
DataValue, -4.8000000000000006E-06, 19.99986, 0.0213, 0.519, 25, 0.041040462427745665
DataValue, -3.5000000000000004E-06, 19.999760000000002, 0.030100000000000002, 0.76, 25, 0.039605263157894741
DataValue, -1.6000000000000001E-06, 19.9995, 0.0398, 0.9805, 25, 0.040591534931157573
DataValue, -2.7000000000000004E-06, 19.99952, 0.05, 1.1885000000000001, 25, 0.042069835927639881
DataValue, -2.9E-06, 20, 0.0575, 1.439, 25, 0.039958304378040307
DataValue, -3.2000000000000003E-06, 20.000300000000003, 0.0653, 1.6335, 25, 0.039975512702785432
DataValue, -1.8000000000000001E-06, 20.00036, 0.074400000000000008, 1.8435000000000001, 25, 0.0403580146460537
DataValue, -3.6000000000000003E-06, 19.99986, 0.084100000000000008, 2.072, 25, 0.04058880308880309
DataValue, -4.4E-06, 19.999760000000002, 0.0903, 2.2755, 25, 0.039683586025049442
DataValue, -3.8000000000000005E-06, 20.000040000000002, 0.0995, 2.4705, 25, 0.040275247925521153
DataValue, -5.2E-06, 19.999640000000003, 0.1101, 2.6965, 25, 0.040830706471351758
DataValue, -3E-06, 20.000600000000002, 0.11620000000000001, 2.9, 25, 0.040068965517241387
DataValue, -4.5E-06, 19.999820000000003, 0.1263, 3.1015, 25, 0.040722231178462034
DataValue, -1.5E-06, 20.00046, 0.1337, 3.2985, 25, 0.040533575867818708
DataValue, -2.1000000000000002E-06, 19.99988, 0.1426, 3.5125, 25, 0.040597864768683274
DataValue, -4.2000000000000004E-06, 19.99988, 0.1494, 3.7115, 25, 0.040253266873231851
DataValue, -3.1000000000000004E-06, 20.00092, 0.1577, 3.9155, 25, 0.040275826842038051
DataValue, -4.1000000000000006E-06, 19.999640000000003, 0.1673, 4.1095, 25, 0.040710548728555791
DataValue, -2.4000000000000003E-06, 20.000140000000002, 0.1756, 4.327, 25, 0.040582389646406286
DataValue, -3.2000000000000003E-06, 19.99934, 0.1829, 4.522, 25, 0.040446704997788588
DataValue, -4.1000000000000006E-06, 19.9997, 0.19010000000000002, 4.732, 25, 0.040173288250211332
DataValue, -5.8E-06, 19.999940000000002, 0.19990000000000002, 4.914, 25, 0.040679690679690683
DataValue, -2.6E-06, 20.000040000000002, 0.20520000000000002, 5.1115, 25, 0.040144771593465717
DataValue, -3.7E-06, 20.000140000000002, 0.2144, 5.3185, 25, 0.040312118078405568
DataValue, -2.9E-06, 19.999840000000003, 0.2247, 5.524, 25, 0.040677045619116586
DataValue, -1.1E-06, 19.99986, 0.23040000000000002, 5.7170000000000005, 25, 0.040300857092880879
DataValue, -4.5E-06, 20.00044, 0.23950000000000002, 5.925, 25, 0.040421940928270048
DataValue, -3E-06, 20.000120000000003, 0.24680000000000002, 6.1315, 25, 0.040251162032129174
DataValue, -3.4000000000000005E-06, 20.000300000000003, 0.2549, 6.2985, 25, 0.040469953163451616
DataValue, -4.1000000000000006E-06, 19.99972, 0.26430000000000003, 6.4830000000000005, 25, 0.040768162887552063
DataValue, -2.1000000000000002E-06, 20.00054, 0.27190000000000003, 6.6945000000000006, 25, 0.040615430577339608
DataValue, -2.6E-06, 20.000500000000002, 0.2791, 6.869, 25, 0.04063182413742903
DataValue, -2.3E-06, 20.000040000000002, 0.2854, 7.0245, 25, 0.040629226279450495
DataValue, -3.3E-06, 19.999920000000003, 0.2896, 7.141, 25, 0.040554544181487191
DataValue, -1.1E-06, 20.000320000000002, 0.2932, 7.2485, 25, 0.04044974822377044
DataValue, -3.5000000000000004E-06, 20.000480000000003, 0.2964, 7.3175, 25, 0.040505637171165017
DataValue, -4.6E-06, 20.000040000000002, 0.2998, 7.3705, 25, 0.040675666508378
DataValue, -3.6000000000000003E-06, 19.999000000000002, 0.3009, 7.421, 25, 0.040547096078695589
DataValue, -1.0000000000000002E-06, 20.000680000000003, 0.29910000000000003, 7.4350000000000005, 25, 0.040228648285137864
DataValue, -4.9000000000000005E-06, 19.99978, 0.30260000000000004, 7.4495000000000005, 25, 0.040620175850728239
DataValue, -2.7000000000000004E-06, 20.000320000000002, 0.30210000000000004, 7.4795, 25, 0.040390400427836093
DataValue, -5.7000000000000005E-06, 20.00008, 0.3017, 7.4835, 25, 0.040315360459677957
DataValue, -3.5000000000000004E-06, 20.00026, 0.301, 7.478, 25, 0.040251404118748328
DataValue, -4.9000000000000005E-06, 19.999760000000002, 0.303, 7.4995, 25, 0.040402693512900857
DataValue, -4.1000000000000006E-06, 19.999560000000002, 0.3029, 7.4895000000000005, 25, 0.040443287268843046
DataValue, -4.3E-06, 19.99988, 0.3007, 7.493, 25, 0.040130788736153743
DataValue, -2.6E-06, 20.00084, 0.303, 7.4910000000000005, 25, 0.040448538245895067
DataValue, -2.3E-06, 19.9995, 0.3015, 7.5025, 25, 0.040186604465178272
DataValue, -3.5000000000000004E-06, 20, 0.3028, 7.5085, 25, 0.040327628687487516
DataValue, -3.5000000000000004E-06, 19.99958, 0.3029, 7.4985, 25, 0.040394745615789825
DataValue, -3.2000000000000003E-06, 19.9996, 0.3025, 7.4965, 25, 0.040352164343360232
DataValue, -1.9000000000000002E-06, 19.99988, 0.3037, 7.4995, 25, 0.040496033068871257
DataValue, -3.8000000000000005E-06, 19.99968, 0.3029, 7.517, 25, 0.040295330584009574
DataValue, -3.2000000000000003E-06, 20.000100000000003, 0.30260000000000004, 7.5, 25, 0.04034666666666667
DataValue, -3.1000000000000004E-06, 20.00054, 0.3035, 7.509, 25, 0.040418164868824075
DataValue, -2.3E-06, 19.999560000000002, 0.3023, 7.508, 25, 0.040263718700053276
DataValue, -1.2000000000000002E-06, 20.00066, 0.30260000000000004, 7.5215000000000005, 25, 0.040231336834408035
DataValue, -4.1000000000000006E-06, 19.999540000000003, 0.305, 7.5085, 25, 0.040620629952720248
DataValue, -3.9E-06, 19.99988, 0.3044, 7.4915, 25, 0.0406327170793566
DataValue, -2.6E-06, 20.000020000000003, 0.3032, 7.5105, 25, 0.040370148458824313
DataValue, -2.1000000000000002E-06, 20.000120000000003, 0.3037, 7.511, 25, 0.0404340300892025
DataValue, -3.9E-06, 19.99988, 0.30360000000000004, 7.5305, 25, 0.040316048071177217
DataValue, -2.0000000000000003E-06, 19.99996, 0.3033, 7.497, 25, 0.0404561824729892
DataValue, -1.5E-06, 19.999740000000003, 0.3032, 7.516, 25, 0.040340606705694525
DataValue, -1.7000000000000002E-06, 20.000480000000003, 0.30310000000000004, 7.5310000000000006, 25, 0.040246979152834948
DataValue, -2.3E-06, 20.000100000000003, 0.3024, 7.527, 25, 0.040175368672777996
DataValue, -2.8000000000000003E-06, 19.999940000000002, 0.3028, 7.5155, 25, 0.040290067194464776
DataValue, -3.5000000000000004E-06, 19.999200000000002, 0.3038, 7.516, 25, 0.040420436402341671
DataValue, -2.0000000000000003E-06, 20.000380000000003, 0.303, 7.5125, 25, 0.040332778702163057
DataValue, -2.5E-06, 19.999840000000003, 0.30360000000000004, 7.493, 25, 0.0405178166288536
DataValue, -2.5E-06, 20.00036, 0.30410000000000004, 7.5045, 25, 0.040522353254713844
DataValue, -3.8000000000000005E-06, 20.000200000000003, 0.3037, 7.509, 25, 0.040444799573844718
DataValue, -3.2000000000000003E-06, 19.999380000000002, 0.30310000000000004, 7.5155, 25, 0.0403299846982902
DataValue, -3.0000000000000004E-07, 20.000040000000002, 0.303, 7.5215000000000005, 25, 0.040284517715881138
DataValue, -2.5E-06, 20, 0.30260000000000004, 7.5285, 25, 0.04019392973367869
DataValue, -2.2E-06, 19.999660000000002, 0.3033, 7.5185, 25, 0.040340493449491255
DataValue, -3.4000000000000005E-06, 20.000580000000003, 0.303, 7.5335, 25, 0.040220349107320634
DataValue, -2.7000000000000004E-06, 20.000220000000002, 0.3047, 7.5200000000000005, 25, 0.0405186170212766
DataValue, -3E-06, 20.00018, 0.3024, 7.5145, 25, 0.040242198416394967
DataValue, -4.6E-06, 20.00028, 0.3032, 7.518, 25, 0.040329874966746476
DataValue, -2.9E-06, 20.00034, 0.30260000000000004, 7.514, 25, 0.040271493212669686
DataValue, -2.5E-06, 20.000380000000003, 0.30360000000000004, 7.4965, 25, 0.040498899486427
DataValue, -4.5E-06, 19.99932, 0.3037, 7.5075, 25, 0.040452880452880452
DataValue, 6.0000000000000008E-07, 20.00034, 0.3018, 7.5095, 25, 0.040189093814501635
DataValue, -3.4000000000000005E-06, 20.000120000000003, 0.3009, 7.5285, 25, 0.039968121139669258
DataValue, -2.7000000000000004E-06, 20.00072, 0.3029, 7.5255, 25, 0.040249817287887846
DataValue, -4.0000000000000007E-06, 20.000880000000002, 0.30410000000000004, 7.529, 25, 0.040390490104927616
DataValue, -4.2000000000000004E-06, 20.00052, 0.3039, 7.5230000000000006, 25, 0.040396118569719523
DataValue, -2.1000000000000002E-06, 19.9996, 0.3033, 7.518, 25, 0.040343176376695933
DataValue, -3.5000000000000004E-06, 19.99972, 0.3032, 7.51, 25, 0.0403728362183755
DataValue, -2.0000000000000003E-06, 20.00018, 0.3035, 7.5150000000000006, 25, 0.04038589487691284
DataValue, -2.0000000000000003E-06, 20.00008, 0.3032, 7.517, 25, 0.040335240122389253
DataValue, -3.3E-06, 20.00024, 0.3047, 7.517, 25, 0.040534787814287619
DataValue, -4.7000000000000007E-06, 19.99934, 0.3038, 7.5045, 25, 0.040482377240322477
DataValue, -3.2000000000000003E-06, 19.999740000000003, 0.3027, 7.503, 25, 0.040343862455018
DataValue, -1.7000000000000002E-06, 19.999660000000002, 0.3025, 7.5075, 25, 0.040293040293040289
DataValue, -2.7000000000000004E-06, 20.00034, 0.3034, 7.5195, 25, 0.040348427422036044
DataValue, -3.4000000000000005E-06, 20.00024, 0.304, 7.5070000000000006, 25, 0.040495537498334885
DataValue, -1.2000000000000002E-06, 20.000320000000002, 0.3044, 7.503, 25, 0.040570438491270157
DataValue, -2.8000000000000003E-06, 20.000120000000003, 0.3043, 7.517, 25, 0.04048157509644805
DataValue, -3.5000000000000004E-06, 19.99924, 0.3028, 7.5045, 25, 0.040349123859017927
DataValue, -2.4000000000000003E-06, 20.00008, 0.3028, 7.513, 25, 0.040303473978437379
DataValue, -1.5E-06, 20.00016, 0.3027, 7.5125, 25, 0.0402928452579035
DataValue, -1.6000000000000001E-06, 20.000500000000002, 0.3035, 7.508, 25, 0.040423548215237082
DataValue, -2.3E-06, 19.99998, 0.3033, 7.5105, 25, 0.040383463151587778
DataValue, -3.8000000000000005E-06, 19.999480000000002, 0.304, 7.5115, 25, 0.040471277374692138
DataValue, -1.8000000000000001E-06, 19.9998, 0.30260000000000004, 7.5075, 25, 0.040306360306360312
DataValue, -5.1E-06, 19.99968, 0.3027, 7.5105, 25, 0.040303574995006988
DataValue, -3.1000000000000004E-06, 20.000320000000002, 0.30360000000000004, 7.5045, 25, 0.040455726564061566
DataValue, -1.3E-06, 20.000480000000003, 0.30260000000000004, 7.513, 25, 0.040276853454013051
DataValue, -2.3E-06, 19.9998, 0.30410000000000004, 7.5065, 25, 0.040511556650902558
DataValue, -3.9E-06, 19.99996, 0.30410000000000004, 7.5095, 25, 0.040495372528131041
DataValue, -3.6000000000000003E-06, 20, 0.3028, 7.5115, 25, 0.040311522332423619
DataValue, -2.1000000000000002E-06, 20.00046, 0.3042, 7.5175, 25, 0.04046558031260393
DataValue, -1.1E-06, 20.000380000000003, 0.3058, 7.51, 25, 0.040719041278295606
DataValue, -5.2E-06, 19.999160000000003, 0.30110000000000003, 7.498, 25, 0.040157375300080025
DataValue, -2.1000000000000002E-06, 19.99988, 0.3047, 7.4990000000000006, 25, 0.04063208427790372
DataValue, -2.0000000000000003E-06, 20.000120000000003, 0.3032, 7.4975000000000005, 25, 0.040440146715571855
DataValue, -3.1000000000000004E-06, 19.999360000000003, 0.3045, 7.509, 25, 0.040551338393927286
DataValue, -2.8000000000000003E-06, 19.999740000000003, 0.30410000000000004, 7.5115, 25, 0.04048459029488119
DataValue, -2.4000000000000003E-06, 19.99952, 0.30460000000000004, 7.516, 25, 0.040526875997871213
DataValue, -2.1000000000000002E-06, 19.99962, 0.3028, 7.5285, 25, 0.040220495450620973
DataValue, -3.1000000000000004E-06, 20, 0.303, 7.535, 25, 0.040212342402123423
DataValue, -1.9000000000000002E-06, 19.99968, 0.3035, 7.511, 25, 0.040407402476367989
DataValue, -2.7000000000000004E-06, 20.00066, 0.30360000000000004, 7.496, 25, 0.040501600853788691
DataValue, -2.4000000000000003E-06, 20.000100000000003, 0.3038, 7.5035, 25, 0.040487772372892653
DataValue, -2.7000000000000004E-06, 19.999360000000003, 0.3043, 7.501, 25, 0.0405679242767631
DataValue, -2.1000000000000002E-06, 19.99996, 0.3044, 7.5285, 25, 0.040433021186159261
DataValue, -4.4E-06, 19.9998, 0.30460000000000004, 7.538, 25, 0.040408596444680291
DataValue, -2.5E-06, 19.99972, 0.3048, 7.5195, 25, 0.0405346100139637
DataValue, -1.7000000000000002E-06, 19.999840000000003, 0.3038, 7.511, 25, 0.040447343895619756
DataValue, -3.1000000000000004E-06, 20.00094, 0.30360000000000004, 7.5185, 25, 0.040380395025603512
DataValue, -9.0000000000000007E-07, 20.000380000000003, 0.3055, 7.534, 25, 0.040549508893018317
DataValue, -3.2000000000000003E-06, 20.00054, 0.304, 7.5185, 25, 0.040433597127086517
DataValue, -3.5000000000000004E-06, 20.000020000000003, 0.3047, 7.508, 25, 0.040583377730420887
DataValue, -2.1000000000000002E-06, 20.000140000000002, 0.30260000000000004, 7.5235, 25, 0.040220641988436237
DataValue, -3.8000000000000005E-06, 19.999460000000003, 0.3043, 7.5405, 25, 0.040355414097208414
DataValue, -2.7000000000000004E-06, 19.9997, 0.304, 7.503, 25, 0.040517126482740237
DataValue, -2.9E-06, 19.998980000000003, 0.3045, 7.5120000000000005, 25, 0.04053514376996805
DataValue, -1.6000000000000001E-06, 20.000140000000002, 0.3038, 7.5225, 25, 0.040385510136257893
DataValue, -3.4000000000000005E-06, 20.00006, 0.30160000000000003, 7.5085, 25, 0.040167809815542389
DataValue, -5.0000000000000008E-07, 20.00066, 0.3035, 7.5165, 25, 0.040377835428723474
DataValue, -3.9E-06, 20.000300000000003, 0.3037, 7.5455000000000005, 25, 0.040249155125571534
DataValue, -3.1000000000000004E-06, 19.99998, 0.3025, 7.5225, 25, 0.040212695247590559
DataValue, -4.7000000000000007E-06, 20.00046, 0.304, 7.5185, 25, 0.040433597127086517
DataValue, -1.4000000000000002E-06, 20.00008, 0.3042, 7.534, 25, 0.040376957791345904
DataValue, -1.5E-06, 19.000200000000003, 0.0027, 0.0945, 25, 0.028571428571428574
DataValue, -4.2000000000000004E-06, 18.99968, 0.0131, 0.28400000000000003, 25, 0.046126760563380276
DataValue, -1.7000000000000002E-06, 18.9998, 0.023200000000000002, 0.5455, 25, 0.042529789184234654
DataValue, -2.2E-06, 18.99996, 0.035500000000000004, 0.76550000000000007, 25, 0.046374918354016983
DataValue, -4.2000000000000004E-06, 18.999640000000003, 0.0414, 0.975, 25, 0.04246153846153846
DataValue, -2.8000000000000003E-06, 18.99968, 0.0517, 1.208, 25, 0.042798013245033115
DataValue, -2.8000000000000003E-06, 19.0009, 0.0618, 1.4015, 25, 0.044095611844452376
DataValue, -3.6000000000000003E-06, 19.000760000000003, 0.0704, 1.6405, 25, 0.042913745809204512
DataValue, -4.4E-06, 18.9999, 0.0781, 1.8475000000000001, 25, 0.042273342354533151
DataValue, -2.2E-06, 18.99916, 0.0879, 2.0545, 25, 0.042784132392309569
DataValue, -3.2000000000000003E-06, 18.99894, 0.096800000000000011, 2.2825, 25, 0.042409638554216866
DataValue, -2.3E-06, 19.000480000000003, 0.1058, 2.4755000000000003, 25, 0.042738840638254894
DataValue, -2.3E-06, 18.99962, 0.11560000000000001, 2.704, 25, 0.04275147928994083
DataValue, -4.9000000000000005E-06, 19.00064, 0.12250000000000001, 2.9015, 25, 0.042219541616405315
DataValue, -4.6E-06, 19.000140000000002, 0.1318, 3.099, 25, 0.0425298483381736
DataValue, -1.8000000000000001E-06, 18.99978, 0.1404, 3.321, 25, 0.042276422764227641
DataValue, -3.7E-06, 19.000600000000002, 0.1497, 3.4835000000000003, 25, 0.042974020381799913
DataValue, -5.0000000000000008E-07, 18.99978, 0.1584, 3.7095000000000002, 25, 0.042701172664779623
DataValue, -4.8000000000000006E-06, 19.00016, 0.16570000000000001, 3.9085, 25, 0.042394780606370731
DataValue, -3.1000000000000004E-06, 18.9996, 0.1753, 4.073, 25, 0.043039528602995335
DataValue, -2.5E-06, 18.9999, 0.18460000000000001, 4.311, 25, 0.042820691254929252
DataValue, -4.2000000000000004E-06, 19.00038, 0.19360000000000002, 4.5245, 25, 0.042789258481600187
DataValue, -2.4000000000000003E-06, 18.999920000000003, 0.20220000000000002, 4.7135, 25, 0.042898058767370323
DataValue, -2.1000000000000002E-06, 18.99924, 0.2101, 4.9185, 25, 0.042716275287181055
DataValue, -4.4E-06, 19.00024, 0.2185, 5.127, 25, 0.042617515116052274
DataValue, -1.5E-06, 19.00024, 0.2262, 5.3005, 25, 0.042675219318932173
DataValue, -4.8000000000000006E-06, 18.99988, 0.2361, 5.5215000000000005, 25, 0.042760119532735667
DataValue, -1.1E-06, 19.00028, 0.2447, 5.719, 25, 0.042787200559538378
DataValue, -1.0000000000000002E-06, 19.00008, 0.2545, 5.9295, 25, 0.042920988278944264
DataValue, -3.6000000000000003E-06, 18.999540000000003, 0.2637, 6.1115, 25, 0.043148163298699173
DataValue, -3.9E-06, 18.99996, 0.2711, 6.3165000000000004, 25, 0.042919338241114539
DataValue, -4.3E-06, 18.99902, 0.2787, 6.4915, 25, 0.0429330663174921
DataValue, -3.5000000000000004E-06, 19.00066, 0.2863, 6.679, 25, 0.042865698457852972
DataValue, -4.5E-06, 18.99968, 0.29560000000000003, 6.856, 25, 0.043115519253208875
DataValue, -3.5000000000000004E-06, 18.999200000000002, 0.30010000000000003, 6.9875, 25, 0.042948121645796068
DataValue, -3.3E-06, 19.000040000000002, 0.30660000000000004, 7.113, 25, 0.0431041754533952
DataValue, -2.4000000000000003E-06, 19.00046, 0.30820000000000003, 7.2010000000000005, 25, 0.042799611165115957
DataValue, -3.1000000000000004E-06, 18.99996, 0.3103, 7.2615, 25, 0.042732217861323425
DataValue, -3.1000000000000004E-06, 18.999820000000003, 0.31220000000000003, 7.3285, 25, 0.042600805076072869
DataValue, -3.7E-06, 18.999820000000003, 0.3151, 7.355, 25, 0.042841604350781777
DataValue, -4.4E-06, 18.999660000000002, 0.3154, 7.391, 25, 0.042673521850899745
DataValue, -1.6000000000000001E-06, 18.9996, 0.3163, 7.396, 25, 0.042766360194699843
DataValue, -2.1000000000000002E-06, 18.99952, 0.3174, 7.392, 25, 0.042938311688311685
DataValue, -4.4E-06, 18.99958, 0.3165, 7.4265, 25, 0.042617652999394066
DataValue, -2.1000000000000002E-06, 18.999760000000002, 0.3191, 7.3935, 25, 0.043159532021370121
DataValue, -2.1000000000000002E-06, 18.99998, 0.3184, 7.4345, 25, 0.042827358934696351
DataValue, -5.5000000000000007E-06, 18.999840000000003, 0.3148, 7.4265, 25, 0.042388743014879153
DataValue, -1.8000000000000001E-06, 19.000320000000002, 0.31720000000000004, 7.4375, 25, 0.042648739495798324
DataValue, -1.4000000000000002E-06, 19.00054, 0.31870000000000004, 7.423, 25, 0.042934123669675341
DataValue, -3.1000000000000004E-06, 19.00066, 0.31670000000000004, 7.44, 25, 0.042567204301075273
DataValue, -2.1000000000000002E-06, 19.00082, 0.3164, 7.4445000000000006, 25, 0.042501175364362952
DataValue, -1.6000000000000001E-06, 19.00044, 0.31870000000000004, 7.4270000000000005, 25, 0.0429110004039316
DataValue, -2.8000000000000003E-06, 18.999180000000003, 0.31870000000000004, 7.43, 25, 0.042893674293405119
DataValue, -2.6E-06, 19.000420000000002, 0.3176, 7.4415000000000004, 25, 0.042679567291540682
DataValue, -2.7000000000000004E-06, 18.99998, 0.3173, 7.4545, 25, 0.042564893688376147
DataValue, -1.6000000000000001E-06, 19.00016, 0.31880000000000003, 7.46, 25, 0.042734584450402152
DataValue, -2.6E-06, 19.00072, 0.3175, 7.4435, 25, 0.042654665144085446
DataValue, -3E-06, 18.99986, 0.32, 7.445, 25, 0.042981867024848894
DataValue, -2.5E-06, 18.99996, 0.3173, 7.4305, 25, 0.042702375344862396
