
SetupTitle, ID-VGS
PrimitiveTest, Multi Channel I/V Sweep
TestParameter, Channel.UnitType, SMU, SMU
TestParameter, Channel.Unit, SMU2:MC, SMU3:UHC500
TestParameter, Channel.IName, IG, ID
TestParameter, Channel.VName, VGS, VDS
TestParameter, Channel.Mode, VPULSE, VPULSE
TestParameter, Channel.Func, VAR1, CONST
TestParameter, Channel.Index, 
TestParameter, Channel.Time, 
TestParameter, Measurement.Port.Unit, SMU2:MC, SMU3:UHC500
TestParameter, Measurement.Port.SeriesResistor, NONE, NONE
TestParameter, Measurement.Port.Filter, OFF, OFF
TestParameter, Measurement.Port.OutputVoltageComparison, 0, 0
TestParameter, Measurement.Primary.Start, 0
TestParameter, Measurement.Primary.Stop, 10
TestParameter, Measurement.Primary.Compliance, 0.099999999999999992
TestParameter, Measurement.Primary.PowerCompliance, 0
TestParameter, Measurement.Primary.Locus, Single
TestParameter, Measurement.Primary.Scale, LINEAR
TestParameter, Measurement.Primary.Count, 2001
TestParameter, Measurement.Aborting.Condition, CONTINUE AT ANY
TestParameter, Measurement.PostOutput.Value, START
TestParameter, Measurement.PostOutput.Retention, OFF
TestParameter, Measurement.Bias.Source, 0, 3
TestParameter, Measurement.Bias.Compliance, 0.099999999999999992, 5
TestParameter, Measurement.Pulse.Delay, 0, 9.9999999999999991E-05
TestParameter, Measurement.Pulse.Duration, 0.001, 4.9999999999999996E-05
TestParameter, Measurement.Pulse.Base, 0, 0
TestParameter, Measurement.Pulse.Period, 0
TestParameter, Measurement.Pulse.MeasurementDelay, 0
TestParameter, Measurement.Pulse.AveragingCount, 1
TestParameter, Measurement.Monitor.Unit, SMU2:MC, SMU3:UHC500
TestParameter, Measurement.Monitor.Adc, HS ADC, HS ADC
TestParameter, Measurement.Monitor.Measurement, Force and Compliance Sides, Force and Compliance Sides
TestParameter, Measurement.Timing.Hold, 0
TestParameter, Measurement.Timing.Delay, 0
TestParameter, Measurement.Adc.HighSpeed.Mode, TIME
TestParameter, Measurement.Adc.HighSpeed.Coeff, 9.9999999999999991E-06
TestParameter, Measurement.Adc.HighResolution.AutoZero, OFF
TestParameter, Measurement.Adc.HighResolution.Mode, AUTO
TestParameter, Measurement.Adc.HighResolution.Coeff, 6
TestParameter, Measurement.WaitTime.Source.Coeff, 1
TestParameter, Measurement.WaitTime.Source.Offset, 0
TestParameter, Measurement.WaitTime.Monitor.Coeff, 1
TestParameter, Measurement.WaitTime.Monitor.Offset, 0
TestParameter, Output.Graph.Enabled, true
TestParameter, Output.Graph.AutoScaling, false
TestParameter, Output.Graph.XAxis.Data, VGS
TestParameter, Output.Graph.XAxis.Scale, Linear
TestParameter, Output.Graph.XAxis.Left, -5.4
TestParameter, Output.Graph.XAxis.Right, 12.6
TestParameter, Output.Graph.XAxis.RunTimeAutoScale, false
TestParameter, Output.Graph.YAxis.Data, ID
TestParameter, Output.Graph.YAxis.Scale, Linear
TestParameter, Output.Graph.YAxis.Bottom, 0
TestParameter, Output.Graph.YAxis.Top, 10
TestParameter, Output.Graph.YAxis.Group, 
TestParameter, Output.Graph.YAxis.RunTimeAutoScale, false
TestParameter, Output.List.Data, VGS, ID
TestParameter, AutoAnalysis.Interpolation, false
TestParameter, AutoAnalysis.Line1.Enabled, false
TestParameter, AutoAnalysis.Line1.Type, 1
TestParameter, AutoAnalysis.Line1.Fix, True
TestParameter, AutoAnalysis.Line1.YAxis, 0
TestParameter, AutoAnalysis.Line1.Point1.Type, 0
TestParameter, AutoAnalysis.Line1.Point1.XY.X, 
TestParameter, AutoAnalysis.Line1.Point1.XY.Y, 
TestParameter, AutoAnalysis.Line1.Point1.Data.Var, 
TestParameter, AutoAnalysis.Line1.Point1.Data.Condition, 
TestParameter, AutoAnalysis.Line1.Point1.Data.Start, false
TestParameter, AutoAnalysis.Line1.Point1.Data.StartVar, 
TestParameter, AutoAnalysis.Line1.Point1.Data.StartCondition, 
TestParameter, AutoAnalysis.Line1.Point2.Type, 0
TestParameter, AutoAnalysis.Line1.Point2.XY.X, 
TestParameter, AutoAnalysis.Line1.Point2.XY.Y, 
TestParameter, AutoAnalysis.Line1.Point2.Data.Var, 
TestParameter, AutoAnalysis.Line1.Point2.Data.Condition, 
TestParameter, AutoAnalysis.Line1.Point2.Data.Start, false
TestParameter, AutoAnalysis.Line1.Point2.Data.StartVar, 
TestParameter, AutoAnalysis.Line1.Point2.Data.StartCondition, 
TestParameter, AutoAnalysis.Line1.GradientExpr, 0
TestParameter, AutoAnalysis.Line2.Enabled, false
TestParameter, AutoAnalysis.Line2.Type, 1
TestParameter, AutoAnalysis.Line2.Fix, True
TestParameter, AutoAnalysis.Line2.YAxis, 0
TestParameter, AutoAnalysis.Line2.Point1.Type, 0
TestParameter, AutoAnalysis.Line2.Point1.XY.X, 
TestParameter, AutoAnalysis.Line2.Point1.XY.Y, 
TestParameter, AutoAnalysis.Line2.Point1.Data.Var, 
TestParameter, AutoAnalysis.Line2.Point1.Data.Condition, 
TestParameter, AutoAnalysis.Line2.Point1.Data.Start, false
TestParameter, AutoAnalysis.Line2.Point1.Data.StartVar, 
TestParameter, AutoAnalysis.Line2.Point1.Data.StartCondition, 
TestParameter, AutoAnalysis.Line2.Point2.Type, 0
TestParameter, AutoAnalysis.Line2.Point2.XY.X, 
TestParameter, AutoAnalysis.Line2.Point2.XY.Y, 
TestParameter, AutoAnalysis.Line2.Point2.Data.Var, 
TestParameter, AutoAnalysis.Line2.Point2.Data.Condition, 
TestParameter, AutoAnalysis.Line2.Point2.Data.Start, false
TestParameter, AutoAnalysis.Line2.Point2.Data.StartVar, 
TestParameter, AutoAnalysis.Line2.Point2.Data.StartCondition, 
TestParameter, AutoAnalysis.Line2.GradientExpr, 0
TestParameter, AutoAnalysis.Marker.Enabled, false
TestParameter, AutoAnalysis.Marker.Data.Var, 
TestParameter, AutoAnalysis.Marker.Data.Condition, 
TestParameter, AutoAnalysis.Marker.Data.Start, false
TestParameter, AutoAnalysis.Marker.Data.StartVar, 
TestParameter, AutoAnalysis.Marker.Data.StartCondition, 
MetaData, TestRecord.EntryPoint, true
MetaData, TestRecord.RecordTime, 04/17/2021 13:42:44
MetaData, TestRecord.TestTarget, 
MetaData, TestRecord.IterationIndex, 1
MetaData, TestRecord.Preservation, true
MetaData, TestRecord.Flag, 
MetaData, TestRecord.Remarks, 
MetaData, TestRecord.LinkKey, 5bd084ec-49b6-44dc-8dd7-3a702db44a62
Dimension1, 2001, 2001
Dimension2, 1, 1
DataName, VGS, ID
DataValue, 4E-05, -0.0235
DataValue, 0.00568, -0.039
DataValue, 0.010700000000000001, -0.0465
DataValue, 0.01502, -0.0205
DataValue, 0.020220000000000002, -0.027
DataValue, 0.025040000000000003, -0.0375
DataValue, 0.03012, -0.0195
DataValue, 0.03536, -0.0145
DataValue, 0.039700000000000006, -0.025500000000000002
DataValue, 0.04524, -0.0465
DataValue, 0.050280000000000005, -0.022
DataValue, 0.05442, -0.0225
DataValue, 0.059640000000000006, -0.0105
DataValue, 0.065520000000000009, -0.0395
DataValue, 0.07042000000000001, -0.021
DataValue, 0.07534, -0.0195
DataValue, 0.07968, -0.0365
DataValue, 0.08508, -0.0305
DataValue, 0.0898, -0.0145
DataValue, 0.09494000000000001, -0.03
DataValue, 0.09932, -0.04
DataValue, 0.10472000000000001, -0.0315
DataValue, 0.11022000000000001, -0.0055
DataValue, 0.11524000000000001, -0.0315
DataValue, 0.12022000000000001, -0.024
DataValue, 0.12456, -0.03
DataValue, 0.12960000000000002, -0.0085
DataValue, 0.13518000000000002, -0.022
DataValue, 0.13990000000000002, -0.036000000000000004
DataValue, 0.14508000000000001, -0.025500000000000002
DataValue, 0.14986000000000002, -0.005
DataValue, 0.15468, -0.025500000000000002
DataValue, 0.16034, -0.045
DataValue, 0.16522, -0.0455
DataValue, 0.16970000000000002, -0.0195
DataValue, 0.17422, -0.0425
DataValue, 0.18006000000000003, -0.037
DataValue, 0.18474000000000002, -0.0145
DataValue, 0.18980000000000002, -0.011
DataValue, 0.19472, -0.038
DataValue, 0.19972, -0.025500000000000002
DataValue, 0.20514000000000002, -0.01
DataValue, 0.20916, -0.0265
DataValue, 0.21544000000000002, -0.0415
DataValue, 0.22034, -0.027
DataValue, 0.22488000000000002, -0.023
DataValue, 0.22976000000000002, -0.03
DataValue, 0.23516, -0.048
DataValue, 0.24016, -0.0195
DataValue, 0.24514000000000003, -0.021
DataValue, 0.25036, -0.0415
DataValue, 0.25504000000000004, -0.0305
DataValue, 0.25978, -0.0375
DataValue, 0.26512, -0.0445
DataValue, 0.27034, -0.0165
DataValue, 0.27514, -0.026000000000000002
DataValue, 0.28004, -0.0395
DataValue, 0.28436, -0.0235
DataValue, 0.28978000000000004, -0.0345
DataValue, 0.29496, -0.0395
DataValue, 0.30038000000000004, -0.037
DataValue, 0.30496, -0.0205
DataValue, 0.3099, -0.043500000000000004
DataValue, 0.31474, -0.02
DataValue, 0.3199, -0.012
DataValue, 0.32514000000000004, -0.011
DataValue, 0.32962, -0.042
DataValue, 0.33494, -0.026000000000000002
DataValue, 0.33952000000000004, -0.026000000000000002
DataValue, 0.3457, -0.0485
DataValue, 0.35054, -0.032
DataValue, 0.35472000000000004, -0.03
DataValue, 0.35990000000000005, -0.051500000000000004
DataValue, 0.36502, -0.0405
DataValue, 0.37022000000000005, -0.021500000000000002
DataValue, 0.37464000000000003, -0.0275
DataValue, 0.37976000000000004, -0.0415
DataValue, 0.38538000000000006, -0.0375
DataValue, 0.391, -0.011
DataValue, 0.39498000000000005, -0.014
DataValue, 0.39984000000000003, -0.04
DataValue, 0.40472, -0.0195
DataValue, 0.40972000000000003, -0.0075
DataValue, 0.41442, -0.034
DataValue, 0.41996000000000006, -0.035
DataValue, 0.42528000000000005, -0.02
DataValue, 0.43028000000000005, -0.017
DataValue, 0.43470000000000003, -0.042
DataValue, 0.44058, -0.045
DataValue, 0.44506, -0.026000000000000002
DataValue, 0.45010000000000006, -0.0045000000000000005
DataValue, 0.45468000000000003, -0.0335
DataValue, 0.46076000000000006, -0.041
DataValue, 0.46536000000000005, -0.025
DataValue, 0.47062000000000004, -0.042
DataValue, 0.47490000000000004, -0.0455
DataValue, 0.48016000000000003, -0.0145
DataValue, 0.48492, -0.028
DataValue, 0.4903, -0.023
DataValue, 0.49504000000000004, -0.0335
DataValue, 0.49996, -0.0075
DataValue, 0.50522, -0.0285
DataValue, 0.51016000000000006, -0.034
DataValue, 0.515, -0.0235
DataValue, 0.51958, -0.0125
DataValue, 0.52484000000000008, -0.0395
DataValue, 0.53006000000000009, -0.0425
DataValue, 0.53468, -0.011
DataValue, 0.5401, -0.039
DataValue, 0.54522, -0.014
DataValue, 0.55042, -0.026000000000000002
DataValue, 0.55552, -0.0285
DataValue, 0.55964, -0.0365
DataValue, 0.5653, -0.032
DataValue, 0.5701, -0.031
DataValue, 0.5746, -0.0335
DataValue, 0.57988000000000006, -0.013000000000000001
DataValue, 0.58532000000000006, -0.026000000000000002
DataValue, 0.59010000000000007, -0.0425
DataValue, 0.59518, -0.036000000000000004
DataValue, 0.60000000000000009, -0.012
DataValue, 0.60496, -0.0145
DataValue, 0.61058, -0.036000000000000004
DataValue, 0.61496000000000006, -0.008
DataValue, 0.62018000000000006, -0.016
DataValue, 0.6249, -0.0305
DataValue, 0.63028000000000006, -0.039
DataValue, 0.63514, -0.0165
DataValue, 0.64016000000000006, -0.0265
DataValue, 0.64524, -0.037
DataValue, 0.64994000000000007, -0.01
DataValue, 0.65456, -0.0245
DataValue, 0.66, -0.0455
DataValue, 0.66460000000000008, -0.022
DataValue, 0.66988, -0.023
DataValue, 0.67492000000000008, -0.0345
DataValue, 0.67966, -0.0445
DataValue, 0.68458000000000008, -0.0090000000000000011
DataValue, 0.69054, -0.026000000000000002
DataValue, 0.69536000000000009, -0.039
DataValue, 0.69998, -0.0165
DataValue, 0.70554000000000006, -0.0305
DataValue, 0.71028, -0.0285
DataValue, 0.7144600000000001, -0.021
DataValue, 0.72004, -0.0395
DataValue, 0.72520000000000007, -0.0545
DataValue, 0.72994, -0.03
DataValue, 0.73524, -0.0395
DataValue, 0.74010000000000009, -0.036000000000000004
DataValue, 0.74540000000000006, -0.0245
DataValue, 0.74938, -0.0365
DataValue, 0.75548, -0.056
DataValue, 0.76022, -0.0325
DataValue, 0.7656400000000001, -0.0285
DataValue, 0.77032000000000012, -0.051000000000000004
DataValue, 0.77522, -0.029
DataValue, 0.78014000000000006, -0.0245
DataValue, 0.7851, -0.0405
DataValue, 0.78976, -0.021
DataValue, 0.79522, -0.0115
DataValue, 0.79992000000000008, -0.049
DataValue, 0.80482000000000009, -0.0185
DataValue, 0.81034000000000006, -0.02
DataValue, 0.81564, -0.045
DataValue, 0.81964, -0.0315
DataValue, 0.82502000000000009, -0.0285
DataValue, 0.82972, -0.032
DataValue, 0.83572, -0.0315
DataValue, 0.83990000000000009, -0.0375
DataValue, 0.84544000000000008, -0.0405
DataValue, 0.85052, -0.03
DataValue, 0.85516, -0.0155
DataValue, 0.85998000000000008, -0.0335
DataValue, 0.86524000000000012, -0.019
DataValue, 0.87028, -0.018000000000000002
DataValue, 0.87472, -0.043500000000000004
DataValue, 0.88036, -0.031
DataValue, 0.88556000000000012, -0.0265
DataValue, 0.89012, -0.0265
DataValue, 0.89492, -0.0245
DataValue, 0.90016000000000007, 0
DataValue, 0.9049600000000001, -0.052000000000000005
DataValue, 0.91008000000000011, -0.032
DataValue, 0.9148400000000001, -0.02
DataValue, 0.92074000000000011, -0.033
DataValue, 0.92470000000000008, -0.022
DataValue, 0.9301, -0.021
DataValue, 0.93518000000000012, -0.0445
DataValue, 0.93972000000000011, -0.029
DataValue, 0.94538000000000011, -0.0195
DataValue, 0.94998, -0.036000000000000004
DataValue, 0.95462, -0.0345
DataValue, 0.9602, -0.0195
DataValue, 0.96506, -0.031
DataValue, 0.96996, -0.017
DataValue, 0.9746800000000001, -0.0225
DataValue, 0.9801200000000001, -0.0465
DataValue, 0.9852200000000001, -0.046
DataValue, 0.99064000000000008, -0.018000000000000002
DataValue, 0.99590000000000012, -0.039
DataValue, 0.99958000000000014, -0.044
DataValue, 1.00516, -0.04
DataValue, 1.01014, -0.0205
DataValue, 1.0151400000000002, -0.048
DataValue, 1.01998, -0.0325
DataValue, 1.02502, -0.0065000000000000006
DataValue, 1.0306000000000002, -0.039
DataValue, 1.0353, -0.033
DataValue, 1.0393800000000002, -0.0065000000000000006
DataValue, 1.0448000000000002, -0.0105
DataValue, 1.05082, -0.0325
DataValue, 1.0549600000000001, -0.031
DataValue, 1.0602800000000001, -0.003
DataValue, 1.0649600000000001, -0.025500000000000002
DataValue, 1.06932, -0.0345
DataValue, 1.07508, -0.0175
DataValue, 1.08024, -0.028
DataValue, 1.0851600000000001, -0.028
DataValue, 1.0905600000000002, -0.029
DataValue, 1.0945, -0.023
DataValue, 1.10068, -0.042
DataValue, 1.10504, -0.047
DataValue, 1.1096400000000002, -0.019
DataValue, 1.1152000000000002, -0.0115
DataValue, 1.11924, -0.03
DataValue, 1.12494, -0.033
DataValue, 1.12972, -0.0265
DataValue, 1.1351, -0.0045000000000000005
DataValue, 1.1397400000000002, -0.053
DataValue, 1.1453, -0.0415
DataValue, 1.15026, -0.03
DataValue, 1.15496, -0.019
DataValue, 1.1597000000000002, -0.025
DataValue, 1.16432, -0.0265
DataValue, 1.1700400000000002, -0.02
DataValue, 1.1754, -0.0385
DataValue, 1.17968, -0.029
DataValue, 1.1849200000000002, -0.012
DataValue, 1.1904400000000002, -0.032
DataValue, 1.19526, -0.0315
DataValue, 1.1995600000000002, -0.01
DataValue, 1.2048, -0.011
DataValue, 1.2100000000000002, -0.032
DataValue, 1.21486, -0.026000000000000002
DataValue, 1.22042, -0.0105
DataValue, 1.2251, -0.029500000000000002
DataValue, 1.23012, -0.0285
DataValue, 1.23496, -0.0305
DataValue, 1.24014, -0.0225
DataValue, 1.24496, -0.031
DataValue, 1.2500600000000002, -0.0315
DataValue, 1.25492, -0.0165
DataValue, 1.26028, -0.0345
DataValue, 1.2653, -0.043000000000000003
DataValue, 1.2701200000000001, -0.004
DataValue, 1.2751000000000001, -0.0285
DataValue, 1.2798800000000001, -0.0365
DataValue, 1.2845000000000002, -0.0305
DataValue, 1.29, -0.005
DataValue, 1.2956200000000002, -0.0385
DataValue, 1.2998200000000002, -0.0245
DataValue, 1.30492, -0.022
DataValue, 1.3106600000000002, -0.037
DataValue, 1.31444, -0.035
DataValue, 1.3196, -0.0090000000000000011
DataValue, 1.32526, -0.031
DataValue, 1.3305600000000002, -0.0455
DataValue, 1.33562, -0.0175
DataValue, 1.3402800000000001, -0.021
DataValue, 1.34518, -0.043000000000000003
DataValue, 1.35016, -0.0315
DataValue, 1.3549000000000002, -0.032
DataValue, 1.35948, -0.0445
DataValue, 1.3654600000000001, -0.051500000000000004
DataValue, 1.36976, -0.02
DataValue, 1.37528, -0.0325
DataValue, 1.3803800000000002, -0.0415
DataValue, 1.3849200000000002, -0.022
DataValue, 1.3904200000000002, -0.0245
DataValue, 1.3948800000000001, -0.056
DataValue, 1.3997600000000001, -0.0275
DataValue, 1.4051200000000002, -0.014
DataValue, 1.4104400000000001, -0.052000000000000005
DataValue, 1.4155200000000001, -0.045
DataValue, 1.42026, -0.015
DataValue, 1.4255600000000002, -0.039
DataValue, 1.43026, -0.0445
DataValue, 1.43494, -0.0185
DataValue, 1.43972, -0.022
DataValue, 1.44504, -0.043500000000000004
DataValue, 1.4497000000000002, -0.025
DataValue, 1.45506, -0.0235
DataValue, 1.46042, -0.049
DataValue, 1.4647800000000002, -0.0235
DataValue, 1.47046, -0.0345
DataValue, 1.4753600000000002, -0.049
DataValue, 1.4798600000000002, -0.0325
DataValue, 1.48516, -0.026000000000000002
DataValue, 1.4903400000000002, -0.039
DataValue, 1.49476, -0.0265
DataValue, 1.49974, -0.037
DataValue, 1.5050000000000001, -0.037
DataValue, 1.50974, -0.016
DataValue, 1.5150400000000002, -0.0345
DataValue, 1.52018, -0.037
DataValue, 1.5249400000000002, -0.02
DataValue, 1.5301200000000002, -0.033
DataValue, 1.5345600000000002, -0.006
DataValue, 1.5400800000000001, -0.018000000000000002
DataValue, 1.54542, -0.039
DataValue, 1.5500600000000002, -0.027
DataValue, 1.55448, -0.0225
DataValue, 1.5602200000000002, -0.0395
DataValue, 1.56556, -0.025
DataValue, 1.57054, -0.036000000000000004
DataValue, 1.57522, -0.035
DataValue, 1.58074, -0.0085
DataValue, 1.586, -0.0315
DataValue, 1.5904200000000002, -0.028
DataValue, 1.5954800000000002, -0.0305
DataValue, 1.6000400000000001, -0.045
DataValue, 1.60552, -0.0425
DataValue, 1.6098000000000001, -0.0090000000000000011
DataValue, 1.6151400000000002, -0.043500000000000004
DataValue, 1.61966, -0.036000000000000004
DataValue, 1.62488, -0.033
DataValue, 1.62996, -0.0405
DataValue, 1.6343200000000002, -0.0235
DataValue, 1.6397000000000002, -0.04
DataValue, 1.6452200000000001, -0.048
DataValue, 1.6499400000000002, -0.0175
DataValue, 1.65538, -0.031
DataValue, 1.6601800000000002, -0.0395
DataValue, 1.6648800000000001, -0.0115
DataValue, 1.6704200000000002, -0.0385
DataValue, 1.6745, -0.03
DataValue, 1.67988, -0.016
DataValue, 1.68524, -0.0565
DataValue, 1.6904800000000002, -0.035500000000000004
DataValue, 1.695, -0.026000000000000002
DataValue, 1.7006400000000002, -0.043000000000000003
DataValue, 1.7051, -0.022
DataValue, 1.7098600000000002, -0.0265
DataValue, 1.7147400000000002, -0.0405
DataValue, 1.7198200000000001, -0.0315
DataValue, 1.7248200000000002, -0.015
DataValue, 1.7298000000000002, -0.0345
DataValue, 1.7349800000000002, -0.026000000000000002
DataValue, 1.7395200000000002, -0.0305
DataValue, 1.7451400000000001, -0.029
DataValue, 1.7498200000000002, -0.024
DataValue, 1.7554400000000001, -0.0405
DataValue, 1.7604000000000002, -0.049
DataValue, 1.7646800000000003, -0.019
DataValue, 1.77062, -0.036000000000000004
DataValue, 1.7749800000000002, -0.034
DataValue, 1.7797200000000002, -0.0205
DataValue, 1.78468, -0.042
DataValue, 1.7906000000000002, -0.0285
DataValue, 1.7947400000000002, -0.021500000000000002
DataValue, 1.80072, -0.043500000000000004
DataValue, 1.8046400000000002, -0.019
DataValue, 1.81034, -0.03
DataValue, 1.8153400000000002, -0.0405
DataValue, 1.8199400000000001, -0.0265
DataValue, 1.82532, -0.028
DataValue, 1.83014, -0.043000000000000003
DataValue, 1.8350400000000002, -0.0195
DataValue, 1.8398800000000002, -0.0325
DataValue, 1.8457400000000002, -0.03
DataValue, 1.8497200000000003, -0.02
DataValue, 1.85478, -0.0185
DataValue, 1.8600200000000002, -0.0505
DataValue, 1.8646800000000001, -0.028
DataValue, 1.8695800000000002, -0.038
DataValue, 1.8752000000000002, -0.0145
DataValue, 1.8801200000000002, -0.0235
DataValue, 1.8848200000000002, -0.05
DataValue, 1.89006, -0.032
DataValue, 1.8951000000000002, -0.0090000000000000011
DataValue, 1.9002200000000002, -0.042
DataValue, 1.9046200000000002, -0.0245
