
SetupTitle, Rds-Id
ApplicationTest, Rds-Id, Public
TestParameter, Name, Memo, Scale, HoldTime, PulseBase, PulseAvgCnt, Gate, VgStart, VgStop, VgStep, IgLimit, Source, MeasurementTime, Drain, IdStart, IdStop, IdLinearStep, VdLimit, VdStop, PulsePeriodMode, ManualPulsePeriod, PulseWidth
TestParameter, Value, , LINEAR, 0, 0, 1, SMU2:MC	MCSMU, 20, 5, 1, 0.1, GNDU:GND	GNDU, 1E-05, SMU3:UHC500	UHCU500A, 0.5, 30, 0.2, 2, 0, 0, 0.05, 0.0002
DutParameter, Name, Polarity, Temp, YAxisRdsMin, YAxisRdsMax
DutParameter, Value, 1, 25, 0.001, 1
MetaData, TestRecord.EntryPoint, true
MetaData, TestRecord.RecordTime, 04/17/2021 13:40:14
MetaData, TestRecord.TestTarget, 
MetaData, TestRecord.IterationIndex, 1
MetaData, TestRecord.Preservation, true
MetaData, TestRecord.Flag, 
MetaData, TestRecord.Remarks, 
MetaData, TestRecord.LinkKey, 8b7702f6-d595-4fe4-aaa5-263603955915
Dimension1, 148, 148, 148, 148, 148, 148
Dimension2, 16, 16, 16, 16, 16, 16
DataName, Igate, Vgate, Vdrain, Idrain, Ta, Rds
DataValue, -3.1000000000000004E-06, 20.00008, 0.0045000000000000005, 0.10350000000000001, 25, 0.043478260869565216
DataValue, -4.0000000000000007E-06, 19.999840000000003, 0.011300000000000001, 0.281, 25, 0.0402135231316726
DataValue, -5.5000000000000007E-06, 20.00016, 0.020900000000000002, 0.531, 25, 0.039359698681732579
DataValue, -3.2000000000000003E-06, 19.99962, 0.0303, 0.759, 25, 0.039920948616600789
DataValue, -1.9000000000000002E-06, 20.000300000000003, 0.0371, 0.9665, 25, 0.038385928608380755
DataValue, -4.6E-06, 19.9997, 0.047400000000000005, 1.1875, 25, 0.039915789473684217
DataValue, -5.4000000000000008E-06, 19.9999, 0.057, 1.405, 25, 0.040569395017793594
DataValue, -3.9E-06, 19.99978, 0.0651, 1.617, 25, 0.040259740259740266
DataValue, -5.1E-06, 19.999480000000002, 0.0721, 1.8, 25, 0.040055555555555553
DataValue, -4.3E-06, 20.00036, 0.080700000000000008, 2.0225, 25, 0.039901112484548827
DataValue, -3.9E-06, 20, 0.0916, 2.237, 25, 0.040947697809566384
DataValue, -2.8000000000000003E-06, 19.999820000000003, 0.0983, 2.473, 25, 0.039749292357460574
DataValue, -3E-06, 19.999560000000002, 0.1085, 2.6755, 25, 0.040553167632218279
DataValue, -2.9E-06, 19.999820000000003, 0.1144, 2.8695, 25, 0.039867572747865482
DataValue, -4.8000000000000006E-06, 19.999740000000003, 0.1216, 3.074, 25, 0.039557579700715682
DataValue, -3.6000000000000003E-06, 20.00016, 0.1317, 3.2445, 25, 0.040591770688858074
DataValue, -1.4000000000000002E-06, 19.9997, 0.139, 3.4715000000000003, 25, 0.04004032838830477
DataValue, -3.9E-06, 19.99912, 0.1468, 3.6685, 25, 0.040016355458634321
DataValue, -5.3E-06, 20.000420000000002, 0.1555, 3.8925, 25, 0.039948619139370582
DataValue, -5.3E-06, 19.999840000000003, 0.1627, 4.0775, 25, 0.039901900674432868
DataValue, -3.7E-06, 20.00036, 0.1698, 4.2865, 25, 0.039612737664761463
DataValue, -2.6E-06, 20.000860000000003, 0.17980000000000002, 4.5035, 25, 0.039924503164205621
DataValue, -6.5000000000000004E-06, 19.999260000000003, 0.18730000000000002, 4.69, 25, 0.039936034115138595
DataValue, -1.1E-06, 20.000100000000003, 0.1932, 4.882, 25, 0.039573945104465387
DataValue, -3.7E-06, 20.000140000000002, 0.20220000000000002, 5.0705, 25, 0.0398777240903264
DataValue, -4.8000000000000006E-06, 19.999380000000002, 0.21050000000000002, 5.2645, 25, 0.039984803875011875
DataValue, -3.5000000000000004E-06, 19.99972, 0.2187, 5.4655000000000005, 25, 0.040014637270149117
DataValue, -2.2E-06, 20.00052, 0.2263, 5.6665, 25, 0.039936468719668224
DataValue, -2.7000000000000004E-06, 19.999460000000003, 0.2343, 5.888, 25, 0.039792798913043478
DataValue, -3.2000000000000003E-06, 20.000380000000003, 0.24380000000000002, 6.0915, 25, 0.040022982844947881
DataValue, -2.4000000000000003E-06, 20.00018, 0.2505, 6.2585, 25, 0.040025565231285455
DataValue, -3.1000000000000004E-06, 20.000200000000003, 0.2584, 6.436, 25, 0.040149160969546308
DataValue, -4.4E-06, 19.999820000000003, 0.2664, 6.6195, 25, 0.040244731475186951
DataValue, -2.9E-06, 20.00036, 0.27, 6.756, 25, 0.039964476021314387
DataValue, -4.6E-06, 19.9999, 0.275, 6.88, 25, 0.039970930232558141
DataValue, -3E-06, 20.000420000000002, 0.2786, 6.973, 25, 0.039954108705005022
DataValue, -5.3E-06, 19.99914, 0.2813, 7.041, 25, 0.039951711404630018
DataValue, -1.3E-06, 20.001240000000003, 0.2817, 7.0935000000000006, 25, 0.039712412772256289
DataValue, -3.1000000000000004E-06, 20.00034, 0.28450000000000003, 7.1355, 25, 0.039871067199215196
DataValue, -2.1000000000000002E-06, 19.999640000000003, 0.2851, 7.1495, 25, 0.039876914469543327
DataValue, -1.3E-06, 19.99996, 0.2861, 7.1555, 25, 0.039983229683460277
DataValue, -5.1E-06, 19.999640000000003, 0.2843, 7.142, 25, 0.039806776813217586
DataValue, -1.7000000000000002E-06, 20.00016, 0.2859, 7.1715, 25, 0.039866136791466215
DataValue, -2.3E-06, 20.00036, 0.2861, 7.1765, 25, 0.0398662300564342
DataValue, -3.2000000000000003E-06, 19.999740000000003, 0.28600000000000003, 7.188, 25, 0.039788536449638291
DataValue, -2.6E-06, 20.00024, 0.28650000000000003, 7.22, 25, 0.039681440443213305
DataValue, -2.1000000000000002E-06, 20.00008, 0.28650000000000003, 7.2045, 25, 0.0397668124089111
DataValue, -3.4000000000000005E-06, 19.999920000000003, 0.2856, 7.2090000000000005, 25, 0.039617145235122761
DataValue, -2.7000000000000004E-06, 19.999840000000003, 0.28700000000000003, 7.212, 25, 0.039794786466999452
DataValue, -4.9000000000000005E-06, 20.000040000000002, 0.2849, 7.2035, 25, 0.039550218643714857
DataValue, -5E-06, 20.00046, 0.28600000000000003, 7.2090000000000005, 25, 0.039672631432931059
DataValue, -2.4000000000000003E-06, 19.99968, 0.2859, 7.2095, 25, 0.039656009431999442
DataValue, -3.2000000000000003E-06, 19.999840000000003, 0.2874, 7.1895, 25, 0.039974963488420612
DataValue, -4.1000000000000006E-06, 20.00044, 0.2871, 7.1875, 25, 0.039944347826086961
DataValue, -1.4000000000000002E-06, 20.000320000000002, 0.2857, 7.1795, 25, 0.039793857510968735
DataValue, -4.3E-06, 19.99972, 0.2858, 7.1995000000000005, 25, 0.039697201194527396
DataValue, -2.9E-06, 20, 0.2867, 7.224, 25, 0.03968715393133998
DataValue, -4.3E-06, 19.9995, 0.2864, 7.2205, 25, 0.039664843154906169
DataValue, -4.6E-06, 19.999760000000002, 0.2844, 7.2115, 25, 0.039437010330721764
DataValue, -3.2000000000000003E-06, 20.00026, 0.2849, 7.187, 25, 0.039641018505635173
DataValue, -5.9E-06, 20.000680000000003, 0.28600000000000003, 7.195, 25, 0.03974982626824184
DataValue, -4.0000000000000003E-07, 20.00084, 0.2867, 7.221, 25, 0.039703642154826205
DataValue, -1.1E-06, 20.000040000000002, 0.2868, 7.21, 25, 0.039778085991678223
DataValue, -3.4000000000000005E-06, 19.999280000000002, 0.28700000000000003, 7.192, 25, 0.039905450500556175
DataValue, -2.7000000000000004E-06, 20.000020000000003, 0.2867, 7.1895, 25, 0.039877599276723
DataValue, -2.3E-06, 20.00026, 0.28600000000000003, 7.2005, 25, 0.03971946392611625
DataValue, -4.1000000000000006E-06, 19.99988, 0.2864, 7.2185000000000006, 25, 0.039675832929278933
DataValue, -3.3E-06, 19.99962, 0.2859, 7.216, 25, 0.039620288248337028
DataValue, -3.5000000000000004E-06, 19.99942, 0.2847, 7.2145, 25, 0.039462194192251714
DataValue, -3.3E-06, 19.999660000000002, 0.28650000000000003, 7.1875, 25, 0.039860869565217394
DataValue, -2.1000000000000002E-06, 20.00056, 0.2847, 7.204, 25, 0.03951971127151583
DataValue, -4.2000000000000004E-06, 20.000420000000002, 0.2862, 7.198, 25, 0.039761044734648511
DataValue, -1.7000000000000002E-06, 20.000880000000002, 0.28650000000000003, 7.2325, 25, 0.039612858624265473
DataValue, -5.7000000000000005E-06, 20.000380000000003, 0.2861, 7.2115, 25, 0.039672744921306249
DataValue, -5.1E-06, 19.999480000000002, 0.2848, 7.1975, 25, 0.039569294894060442
DataValue, -1.9000000000000002E-06, 20.000020000000003, 0.2852, 7.197, 25, 0.039627622620536339
DataValue, -5.1E-06, 20.00054, 0.2866, 7.19, 25, 0.039860917941585534
DataValue, -2.8000000000000003E-06, 20.00008, 0.2867, 7.218, 25, 0.039720144084233862
DataValue, -3.0000000000000004E-07, 20.000400000000003, 0.2871, 7.23, 25, 0.039709543568464734
DataValue, -3.9E-06, 20.000320000000002, 0.2864, 7.221, 25, 0.039662096662512115
DataValue, -2.9E-06, 20.00018, 0.2863, 7.2065, 25, 0.039728023312287516
DataValue, -5E-06, 19.99878, 0.2867, 7.207, 25, 0.039780768697100045
DataValue, -1.7000000000000002E-06, 20.000780000000002, 0.2873, 7.1930000000000005, 25, 0.039941609898512441
DataValue, -5.3E-06, 20.000140000000002, 0.2878, 7.2135, 25, 0.039897414569903651
DataValue, -1.8000000000000001E-06, 19.999840000000003, 0.2857, 7.222, 25, 0.039559678759346441
DataValue, -3.4000000000000005E-06, 20.000040000000002, 0.2873, 7.2250000000000005, 25, 0.039764705882352938
DataValue, 1.0000000000000001E-07, 20.000140000000002, 0.2862, 7.219, 25, 0.039645380246571549
DataValue, -2.9E-06, 19.999820000000003, 0.2871, 7.206, 25, 0.039841798501248957
DataValue, -3.7E-06, 20.00044, 0.2859, 7.2185000000000006, 25, 0.039606566461176142
DataValue, -3.3E-06, 19.999740000000003, 0.28750000000000003, 7.2305, 25, 0.039762118802295833
DataValue, -2.0000000000000002E-07, 19.999820000000003, 0.28700000000000003, 7.208, 25, 0.039816870144284131
DataValue, -2.1000000000000002E-06, 19.9999, 0.2869, 7.203, 25, 0.039830626128002221
DataValue, -1.9000000000000002E-06, 19.99996, 0.28650000000000003, 7.22, 25, 0.039681440443213305
DataValue, -3.7E-06, 19.999920000000003, 0.2849, 7.2305, 25, 0.039402530945301155
DataValue, -1.1E-06, 20.00046, 0.2859, 7.1965, 25, 0.039727645383172375
DataValue, -2.2E-06, 20.000140000000002, 0.2879, 7.2205, 25, 0.039872585001038706
DataValue, -4.0000000000000007E-06, 19.99978, 0.2864, 7.2145, 25, 0.039697830757502252
DataValue, -3.6000000000000003E-06, 19.999820000000003, 0.2877, 7.2010000000000005, 25, 0.039952784335508959
DataValue, -3.7E-06, 20.000380000000003, 0.2861, 7.215, 25, 0.039653499653499659
DataValue, -3.0000000000000004E-07, 20.00006, 0.2867, 7.203, 25, 0.039802859919478
DataValue, -2.3E-06, 19.9995, 0.2868, 7.205, 25, 0.039805690492713396
DataValue, -3.5000000000000004E-06, 19.999460000000003, 0.2887, 7.2170000000000005, 25, 0.040002771234585004
DataValue, -2.1000000000000002E-06, 20.00044, 0.2862, 7.2330000000000005, 25, 0.03956864371630029
DataValue, -3.9E-06, 20.00044, 0.2872, 7.2015, 25, 0.039880580434631677
DataValue, -3E-06, 19.99996, 0.2862, 7.234, 25, 0.039563173901022951
DataValue, -2.6E-06, 20.000220000000002, 0.28700000000000003, 7.213, 25, 0.039789269374740054
DataValue, -1.4000000000000002E-06, 19.99988, 0.2877, 7.215, 25, 0.039875259875259875
DataValue, -5.4000000000000008E-06, 19.999820000000003, 0.28600000000000003, 7.223, 25, 0.039595735843832205
DataValue, -2.5E-06, 20.000320000000002, 0.28600000000000003, 7.2135, 25, 0.039647882442642272
DataValue, -2.5E-06, 20.00082, 0.2868, 7.2175, 25, 0.039736750952545891
DataValue, -2.4000000000000003E-06, 20.00062, 0.2866, 7.2035, 25, 0.0397862150343583
DataValue, -4.7000000000000007E-06, 20.00044, 0.2868, 7.2095, 25, 0.039780844718773842
DataValue, -2.0000000000000002E-07, 20.000320000000002, 0.2869, 7.2095, 25, 0.039794715306193211
DataValue, -2.9E-06, 20.00016, 0.2849, 7.2250000000000005, 25, 0.039432525951557086
DataValue, -2.0000000000000003E-06, 20.000380000000003, 0.2853, 7.2205, 25, 0.03951249913440897
DataValue, -2.4000000000000003E-06, 19.99958, 0.2874, 7.212, 25, 0.039850249584026623
DataValue, -4.9000000000000005E-06, 19.99996, 0.2878, 7.2090000000000005, 25, 0.039922319323068382
DataValue, -1.0000000000000002E-06, 20.00008, 0.2874, 7.21, 25, 0.03986130374479889
DataValue, -2.6E-06, 20.000420000000002, 0.2882, 7.2195, 25, 0.039919662026456131
DataValue, -4.2000000000000004E-06, 19.999740000000003, 0.2867, 7.208, 25, 0.03977524972253052
DataValue, -4.2000000000000004E-06, 19.9996, 0.2868, 7.199, 25, 0.039838866509237396
DataValue, -2.9E-06, 20.000140000000002, 0.2873, 7.2285, 25, 0.0397454520301584
DataValue, -3.3E-06, 19.99968, 0.2863, 7.222, 25, 0.039642758238715034
DataValue, -3.3E-06, 20.000400000000003, 0.28650000000000003, 7.195, 25, 0.039819318971507991
DataValue, -6.1000000000000009E-06, 19.999840000000003, 0.2852, 7.215, 25, 0.039528759528759533
DataValue, -4.1000000000000006E-06, 19.999640000000003, 0.2849, 7.216, 25, 0.039481707317073171
DataValue, -3.3E-06, 19.99978, 0.2856, 7.202, 25, 0.039655651207997779
DataValue, -1.6000000000000001E-06, 19.999820000000003, 0.2844, 7.196, 25, 0.039521956642579209
DataValue, 1.1E-06, 20.00034, 0.28550000000000003, 7.2235000000000005, 25, 0.039523776562608158
DataValue, -5.7000000000000005E-06, 20.000140000000002, 0.2872, 7.2170000000000005, 25, 0.039794928640709437
DataValue, -5.2E-06, 19.9998, 0.2869, 7.1985, 25, 0.039855525456692367
DataValue, -6.6E-06, 19.999260000000003, 0.2864, 7.2335, 25, 0.039593557752125523
DataValue, 7.0000000000000007E-07, 19.99958, 0.2872, 7.2305, 25, 0.039720627895719521
DataValue, -4.2000000000000004E-06, 20.00044, 0.2854, 7.188, 25, 0.039705063995548136
DataValue, -3.3E-06, 20.00036, 0.2878, 7.2135, 25, 0.039897414569903651
DataValue, -8.0000000000000007E-07, 20.00046, 0.2867, 7.219, 25, 0.039714641917163042
DataValue, -4.6E-06, 20.00006, 0.2858, 7.1865000000000006, 25, 0.039769011340708267
DataValue, -1.1E-06, 20.000500000000002, 0.2861, 7.2275, 25, 0.039584918713248013
DataValue, -4.5E-06, 19.99958, 0.2851, 7.2065, 25, 0.039561506972871717
DataValue, -5E-06, 20.00016, 0.2869, 7.204, 25, 0.039825097168239863
DataValue, 0, 20.00094, 0.28700000000000003, 7.22, 25, 0.039750692520775628
DataValue, -4.1000000000000006E-06, 19.998540000000002, 0.2866, 7.2135, 25, 0.039731059818396065
DataValue, -3E-06, 20.000500000000002, 0.2864, 7.2165, 25, 0.039686828795122288
DataValue, -1.5E-06, 20.00036, 0.2878, 7.2205, 25, 0.039858735544629868
DataValue, 0, 19.999740000000003, 0.2871, 7.2090000000000005, 25, 0.039825218476903873
DataValue, -3.5000000000000004E-06, 20, 0.28700000000000003, 7.2065, 25, 0.039825157843613408
DataValue, -2.4000000000000003E-06, 20.00044, 0.2857, 7.2215, 25, 0.039562417780239563
DataValue, -4.4E-06, 19.99962, 0.2861, 7.208, 25, 0.039692008879023306
DataValue, -4.0000000000000007E-06, 18.999760000000002, 0.0037, 0.077, 25, 0.048051948051948054
DataValue, -8.0000000000000007E-07, 19.000120000000003, 0.0109, 0.281, 25, 0.038790035587188611
DataValue, -4.2000000000000004E-06, 18.999660000000002, 0.020200000000000003, 0.5235, 25, 0.03858643744030564
DataValue, -1.5E-06, 18.99968, 0.030600000000000002, 0.724, 25, 0.042265193370165752
DataValue, -2.6E-06, 18.99986, 0.0395, 0.97, 25, 0.040721649484536084
DataValue, -2.2E-06, 18.999760000000002, 0.0477, 1.1865, 25, 0.040202275600505682
DataValue, -4.1000000000000006E-06, 18.999760000000002, 0.0575, 1.3845, 25, 0.0415312387143373
DataValue, -4.2000000000000004E-06, 18.999940000000002, 0.065, 1.6260000000000001, 25, 0.03997539975399754
DataValue, -4.3E-06, 18.99944, 0.0747, 1.819, 25, 0.041066520065970315
DataValue, -3.2000000000000003E-06, 18.9998, 0.083100000000000007, 2.039, 25, 0.040755272192251106
DataValue, -3E-06, 19.000020000000003, 0.0892, 2.2515, 25, 0.039618032422829227
DataValue, -3.4000000000000005E-06, 19.00008, 0.0978, 2.4355, 25, 0.040156025456785052
DataValue, -1.7000000000000002E-06, 19.000960000000003, 0.10830000000000001, 2.6625, 25, 0.04067605633802817
DataValue, -3.7E-06, 19.000040000000002, 0.1143, 2.846, 25, 0.040161630358397753
DataValue, 1.0000000000000001E-07, 18.9999, 0.1223, 3.064, 25, 0.039915143603133162
DataValue, -4.6E-06, 18.999640000000003, 0.1328, 3.278, 25, 0.040512507626601586
DataValue, -2.0000000000000003E-06, 19.000300000000003, 0.1408, 3.459, 25, 0.040705406186759177
DataValue, -6.3000000000000007E-06, 18.999560000000002, 0.1487, 3.6815, 25, 0.040391144913757976
DataValue, -5.0000000000000008E-07, 19.00044, 0.157, 3.8735, 25, 0.040531818768555571
DataValue, -5.6000000000000006E-06, 19.00072, 0.1651, 4.0945, 25, 0.040322383685431673
DataValue, -3.8000000000000005E-06, 18.9996, 0.17170000000000002, 4.268, 25, 0.040229615745079668
DataValue, -3.2000000000000003E-06, 18.999640000000003, 0.1821, 4.4845, 25, 0.04060653361578772
DataValue, -1.4000000000000002E-06, 18.999920000000003, 0.189, 4.667, 25, 0.040497107349475037
DataValue, -4.2000000000000004E-06, 18.999920000000003, 0.196, 4.8905, 25, 0.040077701666496268
DataValue, -6.0000000000000008E-07, 19.000400000000003, 0.20700000000000002, 5.0655, 25, 0.040864672786496893
DataValue, -4.1000000000000006E-06, 19.000300000000003, 0.2141, 5.2860000000000005, 25, 0.040503216042376083
DataValue, -1.5E-06, 19.00026, 0.22340000000000002, 5.4785, 25, 0.040777585105412066
DataValue, -7.4E-06, 19.000120000000003, 0.2293, 5.671, 25, 0.040433785928407684
DataValue, -2.5E-06, 18.99988, 0.2383, 5.8625, 25, 0.040648187633262264
DataValue, -4.2000000000000004E-06, 18.999740000000003, 0.24450000000000002, 6.0685, 25, 0.040290022246024557
DataValue, -5.5000000000000007E-06, 18.999660000000002, 0.2525, 6.252, 25, 0.0403870761356366
DataValue, -2.5E-06, 19.00056, 0.2605, 6.4405, 25, 0.040447170250756927
DataValue, -1.4000000000000002E-06, 19.00034, 0.26830000000000004, 6.5985000000000005, 25, 0.040660756232477079
DataValue, -3.8000000000000005E-06, 19.000020000000003, 0.27340000000000003, 6.747, 25, 0.0405217133540833
DataValue, -2.8000000000000003E-06, 19.000100000000003, 0.2768, 6.8625, 25, 0.040335154826958104
DataValue, -5.7000000000000005E-06, 19.00046, 0.2816, 6.947, 25, 0.040535482942277247
DataValue, -2.4000000000000003E-06, 19.000040000000002, 0.28250000000000003, 7.0360000000000005, 25, 0.040150653780557134
DataValue, -1.6000000000000001E-06, 19.00102, 0.2849, 7.0635, 25, 0.040334111984143835
DataValue, -3.8000000000000005E-06, 18.9996, 0.2876, 7.1185, 25, 0.040401770035822154
DataValue, -4.7000000000000007E-06, 18.99942, 0.2867, 7.125, 25, 0.040238596491228074
DataValue, -4.2000000000000004E-06, 19.00008, 0.2869, 7.1495, 25, 0.040128680327295614
DataValue, -4.5E-06, 18.999920000000003, 0.2884, 7.15, 25, 0.04033566433566433
DataValue, -7.2000000000000005E-06, 18.99944, 0.2874, 7.158, 25, 0.04015088013411567
DataValue, -2.1000000000000002E-06, 19.00062, 0.2877, 7.1640000000000006, 25, 0.040159128978224455
DataValue, -5.8E-06, 18.999200000000002, 0.28950000000000004, 7.167, 25, 0.040393470071159489
DataValue, -3E-06, 19.000500000000002, 0.2901, 7.1845, 25, 0.040378592803952958
DataValue, -1.7000000000000002E-06, 19.000120000000003, 0.2884, 7.1605, 25, 0.040276517003002582
DataValue, -4.3E-06, 18.999180000000003, 0.2877, 7.1895, 25, 0.040016691007719596
DataValue, -1.8000000000000001E-06, 19.00046, 0.2898, 7.1850000000000005, 25, 0.040334029227557411
DataValue, -2.5E-06, 19.00036, 0.2876, 7.17, 25, 0.040111576011157606
DataValue, -4.4E-06, 18.99988, 0.2901, 7.195, 25, 0.040319666435024326
DataValue, -2.5E-06, 18.99968, 0.2898, 7.1695, 25, 0.0404212288165144
DataValue, -8.0000000000000007E-07, 19.000600000000002, 0.28800000000000003, 7.202, 25, 0.039988891974451546
DataValue, -4.2000000000000004E-06, 19.000300000000003, 0.2879, 7.195, 25, 0.04001389854065323
DataValue, -2.9E-06, 18.99952, 0.2893, 7.184, 25, 0.040270044543429841
DataValue, -1.0000000000000002E-06, 18.9997, 0.28950000000000004, 7.1985, 25, 0.040216711814961455
DataValue, -5.7000000000000005E-06, 18.9993, 0.28850000000000003, 7.204, 25, 0.040047196002220994
DataValue, -2.1000000000000002E-06, 19.000100000000003, 0.2899, 7.1695, 25, 0.040435176790571167
DataValue, -4.6E-06, 18.99912, 0.2898, 7.2105000000000006, 25, 0.040191387559808611
DataValue, -3E-06, 18.9997, 0.2888, 7.182, 25, 0.040211640211640212
DataValue, -2.5E-06, 18.99942, 0.2884, 7.212, 25, 0.039988907376594565
DataValue, -1.9000000000000002E-06, 19.00026, 0.2872, 7.19, 25, 0.039944367176634216
DataValue, -5.1E-06, 18.9997, 0.2897, 7.207, 25, 0.040197030664631608
DataValue, -2.8000000000000003E-06, 18.99986, 0.2899, 7.187, 25, 0.040336719076109639
