
SetupTitle, ID-VGS
PrimitiveTest, Multi Channel I/V Sweep
TestParameter, Channel.UnitType, SMU, SMU
TestParameter, Channel.Unit, SMU2:MC, SMU3:UHC500
TestParameter, Channel.IName, IG, ID
TestParameter, Channel.VName, VGS, VDS
TestParameter, Channel.Mode, VPULSE, VPULSE
TestParameter, Channel.Func, VAR1, CONST
TestParameter, Channel.Index, 
TestParameter, Channel.Time, 
TestParameter, Measurement.Port.Unit, SMU2:MC, SMU3:UHC500
TestParameter, Measurement.Port.SeriesResistor, NONE, NONE
TestParameter, Measurement.Port.Filter, OFF, OFF
TestParameter, Measurement.Port.OutputVoltageComparison, 0, 0
TestParameter, Measurement.Primary.Start, 0
TestParameter, Measurement.Primary.Stop, 10
TestParameter, Measurement.Primary.Compliance, 0.099999999999999992
TestParameter, Measurement.Primary.PowerCompliance, 0
TestParameter, Measurement.Primary.Locus, Single
TestParameter, Measurement.Primary.Scale, LINEAR
TestParameter, Measurement.Primary.Count, 2001
TestParameter, Measurement.Aborting.Condition, CONTINUE AT ANY
TestParameter, Measurement.PostOutput.Value, START
TestParameter, Measurement.PostOutput.Retention, OFF
TestParameter, Measurement.Bias.Source, 0, 3
TestParameter, Measurement.Bias.Compliance, 0.099999999999999992, 5
TestParameter, Measurement.Pulse.Delay, 0, 9.9999999999999991E-05
TestParameter, Measurement.Pulse.Duration, 0.001, 4.9999999999999996E-05
TestParameter, Measurement.Pulse.Base, 0, 0
TestParameter, Measurement.Pulse.Period, 0
TestParameter, Measurement.Pulse.MeasurementDelay, 0
TestParameter, Measurement.Pulse.AveragingCount, 1
TestParameter, Measurement.Monitor.Unit, SMU2:MC, SMU3:UHC500
TestParameter, Measurement.Monitor.Adc, HS ADC, HS ADC
TestParameter, Measurement.Monitor.Measurement, Force and Compliance Sides, Force and Compliance Sides
TestParameter, Measurement.Timing.Hold, 0
TestParameter, Measurement.Timing.Delay, 0
TestParameter, Measurement.Adc.HighSpeed.Mode, TIME
TestParameter, Measurement.Adc.HighSpeed.Coeff, 9.9999999999999991E-06
TestParameter, Measurement.Adc.HighResolution.AutoZero, OFF
TestParameter, Measurement.Adc.HighResolution.Mode, AUTO
TestParameter, Measurement.Adc.HighResolution.Coeff, 6
TestParameter, Measurement.WaitTime.Source.Coeff, 1
TestParameter, Measurement.WaitTime.Source.Offset, 0
TestParameter, Measurement.WaitTime.Monitor.Coeff, 1
TestParameter, Measurement.WaitTime.Monitor.Offset, 0
TestParameter, Output.Graph.Enabled, true
TestParameter, Output.Graph.AutoScaling, false
TestParameter, Output.Graph.XAxis.Data, VGS
TestParameter, Output.Graph.XAxis.Scale, Linear
TestParameter, Output.Graph.XAxis.Left, -5.4
TestParameter, Output.Graph.XAxis.Right, 12.6
TestParameter, Output.Graph.XAxis.RunTimeAutoScale, false
TestParameter, Output.Graph.YAxis.Data, ID
TestParameter, Output.Graph.YAxis.Scale, Linear
TestParameter, Output.Graph.YAxis.Bottom, 0
TestParameter, Output.Graph.YAxis.Top, 10
TestParameter, Output.Graph.YAxis.Group, 
TestParameter, Output.Graph.YAxis.RunTimeAutoScale, false
TestParameter, Output.List.Data, VGS, ID
TestParameter, AutoAnalysis.Interpolation, false
TestParameter, AutoAnalysis.Line1.Enabled, false
TestParameter, AutoAnalysis.Line1.Type, 1
TestParameter, AutoAnalysis.Line1.Fix, True
TestParameter, AutoAnalysis.Line1.YAxis, 0
TestParameter, AutoAnalysis.Line1.Point1.Type, 0
TestParameter, AutoAnalysis.Line1.Point1.XY.X, 
TestParameter, AutoAnalysis.Line1.Point1.XY.Y, 
TestParameter, AutoAnalysis.Line1.Point1.Data.Var, 
TestParameter, AutoAnalysis.Line1.Point1.Data.Condition, 
TestParameter, AutoAnalysis.Line1.Point1.Data.Start, false
TestParameter, AutoAnalysis.Line1.Point1.Data.StartVar, 
TestParameter, AutoAnalysis.Line1.Point1.Data.StartCondition, 
TestParameter, AutoAnalysis.Line1.Point2.Type, 0
TestParameter, AutoAnalysis.Line1.Point2.XY.X, 
TestParameter, AutoAnalysis.Line1.Point2.XY.Y, 
TestParameter, AutoAnalysis.Line1.Point2.Data.Var, 
TestParameter, AutoAnalysis.Line1.Point2.Data.Condition, 
TestParameter, AutoAnalysis.Line1.Point2.Data.Start, false
TestParameter, AutoAnalysis.Line1.Point2.Data.StartVar, 
TestParameter, AutoAnalysis.Line1.Point2.Data.StartCondition, 
TestParameter, AutoAnalysis.Line1.GradientExpr, 0
TestParameter, AutoAnalysis.Line2.Enabled, false
TestParameter, AutoAnalysis.Line2.Type, 1
TestParameter, AutoAnalysis.Line2.Fix, True
TestParameter, AutoAnalysis.Line2.YAxis, 0
TestParameter, AutoAnalysis.Line2.Point1.Type, 0
TestParameter, AutoAnalysis.Line2.Point1.XY.X, 
TestParameter, AutoAnalysis.Line2.Point1.XY.Y, 
TestParameter, AutoAnalysis.Line2.Point1.Data.Var, 
TestParameter, AutoAnalysis.Line2.Point1.Data.Condition, 
TestParameter, AutoAnalysis.Line2.Point1.Data.Start, false
TestParameter, AutoAnalysis.Line2.Point1.Data.StartVar, 
TestParameter, AutoAnalysis.Line2.Point1.Data.StartCondition, 
TestParameter, AutoAnalysis.Line2.Point2.Type, 0
TestParameter, AutoAnalysis.Line2.Point2.XY.X, 
TestParameter, AutoAnalysis.Line2.Point2.XY.Y, 
TestParameter, AutoAnalysis.Line2.Point2.Data.Var, 
TestParameter, AutoAnalysis.Line2.Point2.Data.Condition, 
TestParameter, AutoAnalysis.Line2.Point2.Data.Start, false
TestParameter, AutoAnalysis.Line2.Point2.Data.StartVar, 
TestParameter, AutoAnalysis.Line2.Point2.Data.StartCondition, 
TestParameter, AutoAnalysis.Line2.GradientExpr, 0
TestParameter, AutoAnalysis.Marker.Enabled, false
TestParameter, AutoAnalysis.Marker.Data.Var, 
TestParameter, AutoAnalysis.Marker.Data.Condition, 
TestParameter, AutoAnalysis.Marker.Data.Start, false
TestParameter, AutoAnalysis.Marker.Data.StartVar, 
TestParameter, AutoAnalysis.Marker.Data.StartCondition, 
MetaData, TestRecord.EntryPoint, true
MetaData, TestRecord.RecordTime, 04/17/2021 13:03:10
MetaData, TestRecord.TestTarget, 
MetaData, TestRecord.IterationIndex, 1
MetaData, TestRecord.Preservation, true
MetaData, TestRecord.Flag, 
MetaData, TestRecord.Remarks, 
MetaData, TestRecord.LinkKey, 784fa927-b157-4b7d-a742-986a69c345b0
Dimension1, 2001, 2001
Dimension2, 1, 1
DataName, VGS, ID
DataValue, 2E-05, -0.03
DataValue, 0.0052200000000000007, -0.0385
DataValue, 0.0098400000000000015, -0.0205
DataValue, 0.014900000000000002, -0.011
DataValue, 0.0198, -0.023
DataValue, 0.02536, -0.023
DataValue, 0.030180000000000002, -0.0395
DataValue, 0.034980000000000004, -0.0315
DataValue, 0.04, -0.035
DataValue, 0.045180000000000005, -0.023
DataValue, 0.049760000000000006, -0.008
DataValue, 0.05512, -0.026000000000000002
DataValue, 0.06004, -0.04
DataValue, 0.06486, -0.04
DataValue, 0.07010000000000001, -0.0455
DataValue, 0.07478, -0.035500000000000004
DataValue, 0.08030000000000001, -0.0305
DataValue, 0.084460000000000007, -0.02
DataValue, 0.09034, -0.005
DataValue, 0.0951, -0.0205
DataValue, 0.10002000000000001, -0.03
DataValue, 0.10448, -0.0335
DataValue, 0.11026000000000001, -0.0405
DataValue, 0.11492000000000001, -0.0335
DataValue, 0.12032000000000001, -0.036000000000000004
DataValue, 0.12472000000000001, -0.032
DataValue, 0.12960000000000002, -0.0175
DataValue, 0.13496000000000002, -0.04
DataValue, 0.13974, -0.034
DataValue, 0.14470000000000002, -0.0335
DataValue, 0.15038, -0.031
DataValue, 0.15526, -0.03
DataValue, 0.16, -0.003
DataValue, 0.16478, -0.0145
DataValue, 0.17058, -0.031
DataValue, 0.17490000000000003, -0.036000000000000004
DataValue, 0.18018, -0.039
DataValue, 0.18516000000000002, -0.0245
DataValue, 0.19034, -0.032
DataValue, 0.19548000000000002, -0.012
DataValue, 0.20002, -0.013000000000000001
DataValue, 0.20512000000000003, -0.0025
DataValue, 0.21018, -0.036000000000000004
DataValue, 0.21512, -0.0335
DataValue, 0.21958000000000003, -0.0565
DataValue, 0.22458000000000003, -0.037
DataValue, 0.23034000000000002, -0.0175
DataValue, 0.23560000000000003, -0.015
DataValue, 0.24020000000000003, -0.0165
DataValue, 0.24538000000000002, -0.0365
DataValue, 0.25002, -0.0405
DataValue, 0.25456, -0.051000000000000004
DataValue, 0.26028, -0.0405
DataValue, 0.26538, -0.0415
DataValue, 0.27048, -0.0165
DataValue, 0.27546000000000004, -0.0195
DataValue, 0.28008, -0.0195
DataValue, 0.28476, -0.022
DataValue, 0.29042, -0.035500000000000004
DataValue, 0.29468, -0.0375
DataValue, 0.30012, -0.047
DataValue, 0.30468, -0.043000000000000003
DataValue, 0.31008, -0.0395
DataValue, 0.31502, -0.0235
DataValue, 0.32024, -0.022
DataValue, 0.32582000000000005, -0.03
DataValue, 0.32970000000000005, -0.0405
DataValue, 0.33466, -0.041
DataValue, 0.3397, -0.032
DataValue, 0.34466, -0.0395
DataValue, 0.34984000000000004, -0.0175
DataValue, 0.35498, -0.0285
DataValue, 0.3602, -0.023
DataValue, 0.36488000000000004, -0.043500000000000004
DataValue, 0.37044000000000005, -0.0405
DataValue, 0.3753, -0.026000000000000002
DataValue, 0.3803, -0.031
DataValue, 0.38532000000000005, -0.012
DataValue, 0.38964000000000004, -0.022
DataValue, 0.39542000000000005, -0.0335
DataValue, 0.39988, -0.042
DataValue, 0.40564000000000006, -0.048
DataValue, 0.40964000000000006, -0.0325
DataValue, 0.41554, -0.006
DataValue, 0.42012000000000005, -0.019
DataValue, 0.42546000000000006, -0.016
DataValue, 0.42948000000000003, -0.0455
DataValue, 0.43508, -0.043500000000000004
DataValue, 0.43986000000000003, -0.0405
DataValue, 0.44464000000000004, -0.015
DataValue, 0.45046, -0.0145
DataValue, 0.45528, -0.0185
DataValue, 0.46048000000000006, -0.031
DataValue, 0.46484000000000003, -0.0455
DataValue, 0.4696, -0.035
DataValue, 0.47462000000000004, -0.02
DataValue, 0.47966000000000003, -0.014
DataValue, 0.48542, -0.011
DataValue, 0.48998, -0.021500000000000002
DataValue, 0.49490000000000006, -0.052000000000000005
DataValue, 0.50078, -0.044
DataValue, 0.50488, -0.051500000000000004
DataValue, 0.51006000000000007, -0.026000000000000002
DataValue, 0.51496000000000008, -0.0265
DataValue, 0.51998, -0.023
DataValue, 0.52492, -0.019
DataValue, 0.53058, -0.0345
DataValue, 0.53516000000000008, -0.046
DataValue, 0.53988, -0.03
DataValue, 0.5451, -0.0285
DataValue, 0.55032, -0.006
DataValue, 0.55544, -0.0235
DataValue, 0.56002000000000007, -0.0385
DataValue, 0.5650400000000001, -0.051000000000000004
DataValue, 0.5701, -0.0585
DataValue, 0.57522000000000006, -0.0375
DataValue, 0.58004, -0.0345
DataValue, 0.5852, -0.013000000000000001
DataValue, 0.59032000000000007, -0.037
DataValue, 0.59536, -0.026000000000000002
DataValue, 0.60056000000000009, -0.033
DataValue, 0.60484, -0.051500000000000004
DataValue, 0.60958, -0.0455
DataValue, 0.6146, -0.021
DataValue, 0.61998000000000009, -0.022
DataValue, 0.6248800000000001, -0.021
DataValue, 0.63012, -0.025
DataValue, 0.6355400000000001, -0.04
DataValue, 0.6402000000000001, -0.0425
DataValue, 0.64512, -0.033
DataValue, 0.65036, -0.0365
DataValue, 0.65548000000000006, -0.021
DataValue, 0.6599600000000001, -0.0265
DataValue, 0.66528000000000009, -0.021500000000000002
DataValue, 0.66978, -0.024
DataValue, 0.67456, -0.0395
DataValue, 0.6791600000000001, -0.043000000000000003
DataValue, 0.68498, -0.0485
DataValue, 0.68970000000000009, -0.026000000000000002
DataValue, 0.69538000000000011, -0.024
DataValue, 0.70044000000000006, -0.0135
DataValue, 0.70410000000000006, -0.0315
DataValue, 0.71018, -0.0335
DataValue, 0.71456000000000008, -0.03
DataValue, 0.71982, -0.031
DataValue, 0.72424000000000011, -0.0305
DataValue, 0.72928, -0.002
DataValue, 0.73474000000000006, -0.026000000000000002
DataValue, 0.73994, -0.0325
DataValue, 0.74492, -0.028
DataValue, 0.75004, -0.051000000000000004
DataValue, 0.75442000000000009, -0.0405
DataValue, 0.75984000000000007, -0.0115
DataValue, 0.7649800000000001, -0.014
DataValue, 0.77020000000000011, -0.038
DataValue, 0.77538000000000007, -0.042
DataValue, 0.78032, -0.0445
DataValue, 0.78446, -0.0395
DataValue, 0.79004000000000008, -0.017
DataValue, 0.79518000000000011, -0.0335
DataValue, 0.80024000000000006, -0.029
DataValue, 0.8042, -0.016
DataValue, 0.80942, -0.0285
DataValue, 0.81466, -0.037
DataValue, 0.81978000000000006, -0.037
DataValue, 0.82566000000000006, -0.0395
DataValue, 0.83004000000000011, -0.023
DataValue, 0.83488000000000007, -0.03
DataValue, 0.84010000000000007, -0.015
DataValue, 0.84552, -0.024
DataValue, 0.85042000000000006, -0.041
DataValue, 0.8545, -0.048
DataValue, 0.85952000000000006, -0.045
DataValue, 0.86412000000000011, -0.027
DataValue, 0.86974000000000007, -0.019
DataValue, 0.8753200000000001, -0.0075
DataValue, 0.88000000000000012, -0.0235
DataValue, 0.8845400000000001, -0.036000000000000004
DataValue, 0.88974000000000009, -0.0475
DataValue, 0.89498000000000011, -0.035500000000000004
DataValue, 0.90044, -0.034
DataValue, 0.90538000000000007, -0.0075
DataValue, 0.91020000000000012, -0.0245
DataValue, 0.91470000000000007, -0.028
DataValue, 0.92024000000000006, -0.055
DataValue, 0.92534, -0.0475
DataValue, 0.92992000000000008, -0.0425
DataValue, 0.93492000000000008, -0.0235
DataValue, 0.9398200000000001, -0.0095
DataValue, 0.9451, -0.023
DataValue, 0.95016000000000012, -0.031
DataValue, 0.95486, -0.051000000000000004
DataValue, 0.96046000000000009, -0.039
DataValue, 0.96522000000000008, -0.029500000000000002
DataValue, 0.97014000000000011, -0.019
DataValue, 0.97482000000000013, -0.0245
DataValue, 0.9797800000000001, -0.034
DataValue, 0.98504, -0.045
DataValue, 0.9900000000000001, -0.043500000000000004
DataValue, 0.99464000000000008, -0.039
DataValue, 0.99984000000000006, -0.022
DataValue, 1.00532, -0.0175
DataValue, 1.0107000000000002, -0.0205
DataValue, 1.0154400000000001, -0.0305
DataValue, 1.01998, -0.042
DataValue, 1.02522, -0.04
DataValue, 1.03006, -0.021
DataValue, 1.0351400000000002, -0.022
DataValue, 1.0407000000000002, -0.0245
DataValue, 1.04498, -0.0425
DataValue, 1.04942, -0.0445
DataValue, 1.05518, -0.0285
DataValue, 1.0597800000000002, -0.0225
DataValue, 1.06474, -0.0335
DataValue, 1.06992, -0.032
DataValue, 1.0753400000000002, -0.036000000000000004
DataValue, 1.07982, -0.0425
DataValue, 1.0853000000000002, -0.0275
DataValue, 1.09, -0.018000000000000002
DataValue, 1.0949600000000002, -0.0315
DataValue, 1.1005200000000002, -0.051000000000000004
DataValue, 1.10542, -0.0365
DataValue, 1.1101400000000001, -0.051000000000000004
DataValue, 1.1150600000000002, -0.034
DataValue, 1.1201400000000001, -0.0275
DataValue, 1.12488, -0.019
DataValue, 1.1299400000000002, -0.039
DataValue, 1.1349600000000002, -0.029500000000000002
DataValue, 1.1400000000000001, -0.0425
DataValue, 1.14498, -0.0505
DataValue, 1.1498400000000002, -0.0415
DataValue, 1.15508, -0.025500000000000002
DataValue, 1.16042, -0.016
DataValue, 1.1645, -0.0175
DataValue, 1.17002, -0.031
DataValue, 1.1751600000000002, -0.02
DataValue, 1.1800000000000002, -0.045
DataValue, 1.1856, -0.036000000000000004
DataValue, 1.19056, -0.0395
DataValue, 1.1949400000000001, -0.025
DataValue, 1.20022, -0.0135
DataValue, 1.2042400000000002, -0.0065000000000000006
DataValue, 1.2096600000000002, -0.023
DataValue, 1.21516, -0.035500000000000004
DataValue, 1.21968, -0.0275
DataValue, 1.2251, -0.027
DataValue, 1.22994, -0.028
DataValue, 1.2351, -0.013000000000000001
DataValue, 1.24014, -0.025
DataValue, 1.2446000000000002, -0.0235
DataValue, 1.2506000000000002, -0.051000000000000004
DataValue, 1.25516, -0.0375
DataValue, 1.2595800000000001, -0.0415
DataValue, 1.26454, -0.0245
DataValue, 1.2700200000000002, -0.0185
DataValue, 1.2747400000000002, -0.025500000000000002
DataValue, 1.2807400000000002, -0.026000000000000002
DataValue, 1.2852800000000002, -0.0395
DataValue, 1.2901600000000002, -0.043500000000000004
DataValue, 1.2948600000000001, -0.0285
DataValue, 1.3007600000000001, -0.0245
DataValue, 1.30454, -0.023
DataValue, 1.3104, -0.0245
DataValue, 1.31528, -0.028
DataValue, 1.32016, -0.036000000000000004
DataValue, 1.3248000000000002, -0.0475
DataValue, 1.3302200000000002, -0.036000000000000004
DataValue, 1.3349600000000002, -0.029
DataValue, 1.34014, -0.01
DataValue, 1.34458, -0.018000000000000002
DataValue, 1.35016, -0.0135
DataValue, 1.3552600000000001, -0.025
DataValue, 1.36064, -0.0345
DataValue, 1.3648, -0.027
DataValue, 1.3694600000000001, -0.0405
DataValue, 1.3744, -0.0225
DataValue, 1.3798400000000002, -0.01
DataValue, 1.3850200000000001, -0.0145
DataValue, 1.3900000000000001, -0.0005
DataValue, 1.3948, -0.037
DataValue, 1.4001400000000002, -0.037
DataValue, 1.4045200000000002, -0.036000000000000004
DataValue, 1.40996, -0.0495
DataValue, 1.4152, -0.037
DataValue, 1.4195200000000001, -0.0135
DataValue, 1.42494, -0.021500000000000002
DataValue, 1.43012, -0.0135
DataValue, 1.43534, -0.022
DataValue, 1.4405400000000002, -0.0265
DataValue, 1.4447400000000001, -0.0285
DataValue, 1.45018, -0.0495
DataValue, 1.4552800000000001, -0.036000000000000004
DataValue, 1.46062, -0.034
DataValue, 1.46534, -0.03
DataValue, 1.4699000000000002, -0.026000000000000002
DataValue, 1.47462, -0.02
DataValue, 1.4802000000000002, -0.02
DataValue, 1.48482, -0.0085
DataValue, 1.4899000000000002, -0.021500000000000002
DataValue, 1.4946000000000002, -0.0265
DataValue, 1.4996600000000002, -0.036000000000000004
DataValue, 1.5047000000000002, -0.0415
DataValue, 1.5104600000000001, -0.022
DataValue, 1.5145000000000002, -0.036000000000000004
DataValue, 1.52052, -0.042
DataValue, 1.5248800000000002, -0.0325
DataValue, 1.5292800000000002, -0.025500000000000002
DataValue, 1.5352000000000001, -0.018000000000000002
DataValue, 1.5399, -0.012
DataValue, 1.5455200000000002, -0.0075
DataValue, 1.5507600000000001, -0.016
DataValue, 1.5548400000000002, -0.035500000000000004
DataValue, 1.5601800000000001, -0.035
DataValue, 1.5651400000000002, -0.0475
DataValue, 1.57054, -0.0375
DataValue, 1.5750400000000002, -0.021500000000000002
DataValue, 1.5798400000000001, -0.0375
DataValue, 1.58512, -0.0235
DataValue, 1.5894400000000002, -0.0055
DataValue, 1.5950600000000001, -0.0265
DataValue, 1.6, -0.0265
DataValue, 1.60504, -0.046
DataValue, 1.6100400000000001, -0.0575
DataValue, 1.6155000000000002, -0.0335
DataValue, 1.62084, -0.034
DataValue, 1.62562, -0.018000000000000002
DataValue, 1.62962, -0.0225
DataValue, 1.6347, -0.013000000000000001
DataValue, 1.6396600000000001, -0.0235
DataValue, 1.6445, -0.0115
DataValue, 1.6505200000000002, -0.016
DataValue, 1.65538, -0.038
DataValue, 1.6599400000000002, -0.035
DataValue, 1.6647800000000002, -0.0415
DataValue, 1.6700800000000002, -0.034
DataValue, 1.6750200000000002, -0.026000000000000002
DataValue, 1.68032, -0.007
DataValue, 1.6846200000000002, -0.0115
DataValue, 1.69022, 0.002
DataValue, 1.69514, -0.005
DataValue, 1.7001800000000003, -0.0225
DataValue, 1.705, -0.025500000000000002
DataValue, 1.7099000000000002, -0.026000000000000002
DataValue, 1.7155000000000003, -0.032
DataValue, 1.71978, -0.025500000000000002
DataValue, 1.7248200000000002, -0.0225
DataValue, 1.72984, -0.0165
DataValue, 1.7352400000000001, -0.015
DataValue, 1.7399000000000002, -0.005
DataValue, 1.7451, 0.0005
DataValue, 1.7500200000000001, -0.012
DataValue, 1.75492, -0.0145
DataValue, 1.7602600000000002, -0.028
DataValue, 1.7647000000000002, -0.0315
DataValue, 1.7709000000000001, -0.014
DataValue, 1.7748400000000002, -0.017
DataValue, 1.77964, -0.015
DataValue, 1.7847600000000001, -0.0015
DataValue, 1.7901600000000002, -0.013000000000000001
DataValue, 1.7952400000000002, 0.0165
DataValue, 1.8003600000000002, 0.0015
DataValue, 1.80536, -0.003
DataValue, 1.8097200000000002, -0.0025
DataValue, 1.8152000000000002, -0.0095
DataValue, 1.8203200000000002, -0.012
DataValue, 1.8249000000000002, -0.0235
DataValue, 1.8305200000000002, -0.029
DataValue, 1.8350600000000001, -0.0245
DataValue, 1.8401800000000002, -0.018000000000000002
DataValue, 1.8453800000000002, -0.006
DataValue, 1.8499800000000002, 0.0035
DataValue, 1.8552000000000002, -0.015
