
SetupTitle, ID-VDS-3rd
PrimitiveTest, Multi Channel I/V Sweep
TestParameter, Channel.UnitType, SMU, SMU
TestParameter, Channel.Unit, SMU2:MC, SMU3:UHC500
TestParameter, Channel.IName, IG, ID
TestParameter, Channel.VName, VGS, VDS
TestParameter, Channel.Mode, VPULSE, VPULSE
TestParameter, Channel.Func, VAR2, VAR1
TestParameter, Channel.Index, 
TestParameter, Channel.Time, 
TestParameter, Measurement.Port.Unit, SMU2:MC, SMU3:UHC500
TestParameter, Measurement.Port.SeriesResistor, NONE, NONE
TestParameter, Measurement.Port.Filter, OFF, OFF
TestParameter, Measurement.Port.OutputVoltageComparison, 0, 0
TestParameter, Measurement.Primary.Start, -5
TestParameter, Measurement.Primary.Stop, 0
TestParameter, Measurement.Primary.Compliance, 10
TestParameter, Measurement.Primary.PowerCompliance, 0
TestParameter, Measurement.Primary.Locus, Single
TestParameter, Measurement.Primary.Scale, LINEAR
TestParameter, Measurement.Primary.Count, 21
TestParameter, Measurement.Aborting.Condition, CONTINUE AT ANY
TestParameter, Measurement.PostOutput.Value, START
TestParameter, Measurement.PostOutput.Retention, OFF
TestParameter, Measurement.Secondary.Start, 15.000000000000002
TestParameter, Measurement.Secondary.Count, 5
TestParameter, Measurement.Secondary.Step, 1.25
TestParameter, Measurement.Secondary.Compliance, 0.099999999999999992
TestParameter, Measurement.Secondary.PowerCompliance, 0
TestParameter, Measurement.Bias.Source, 0, 0
TestParameter, Measurement.Bias.Compliance, 0.099999999999999992, 0
TestParameter, Measurement.Pulse.Delay, 0, 9.9999999999999991E-05
TestParameter, Measurement.Pulse.Duration, 0.001, 0.00019999999999999998
TestParameter, Measurement.Pulse.Base, 0, 0
TestParameter, Measurement.Pulse.Period, 0
TestParameter, Measurement.Pulse.MeasurementDelay, 0
TestParameter, Measurement.Pulse.AveragingCount, 1
TestParameter, Measurement.Monitor.Unit, SMU2:MC, SMU3:UHC500
TestParameter, Measurement.Monitor.Adc, HS ADC, HS ADC
TestParameter, Measurement.Monitor.Measurement, Force and Compliance Sides, Force and Compliance Sides
TestParameter, Measurement.Timing.Hold, 0
TestParameter, Measurement.Timing.Delay, 0
TestParameter, Measurement.Adc.HighSpeed.Mode, TIME
TestParameter, Measurement.Adc.HighSpeed.Coeff, 9.9999999999999991E-06
TestParameter, Measurement.Adc.HighResolution.AutoZero, OFF
TestParameter, Measurement.Adc.HighResolution.Mode, AUTO
TestParameter, Measurement.Adc.HighResolution.Coeff, 6
TestParameter, Measurement.WaitTime.Source.Coeff, 1
TestParameter, Measurement.WaitTime.Source.Offset, 0
TestParameter, Measurement.WaitTime.Monitor.Coeff, 1
TestParameter, Measurement.WaitTime.Monitor.Offset, 0
TestParameter, Output.Graph.Enabled, true
TestParameter, Output.Graph.AutoScaling, false
TestParameter, Output.Graph.XAxis.Data, VDS
TestParameter, Output.Graph.XAxis.Scale, Linear
TestParameter, Output.Graph.XAxis.Left, -4.8
TestParameter, Output.Graph.XAxis.Right, 1.2
TestParameter, Output.Graph.XAxis.RunTimeAutoScale, false
TestParameter, Output.Graph.YAxis.Data, ID
TestParameter, Output.Graph.YAxis.Scale, Linear
TestParameter, Output.Graph.YAxis.Bottom, -15
TestParameter, Output.Graph.YAxis.Top, 1
TestParameter, Output.Graph.YAxis.Group, 
TestParameter, Output.Graph.YAxis.RunTimeAutoScale, false
TestParameter, Output.List.Data, VDS, ID
TestParameter, AutoAnalysis.Interpolation, false
TestParameter, AutoAnalysis.Line1.Enabled, false
TestParameter, AutoAnalysis.Line1.Type, 1
TestParameter, AutoAnalysis.Line1.Fix, True
TestParameter, AutoAnalysis.Line1.YAxis, 0
TestParameter, AutoAnalysis.Line1.Point1.Type, 0
TestParameter, AutoAnalysis.Line1.Point1.XY.X, 
TestParameter, AutoAnalysis.Line1.Point1.XY.Y, 
TestParameter, AutoAnalysis.Line1.Point1.Data.Var, 
TestParameter, AutoAnalysis.Line1.Point1.Data.Condition, 
TestParameter, AutoAnalysis.Line1.Point1.Data.Start, false
TestParameter, AutoAnalysis.Line1.Point1.Data.StartVar, 
TestParameter, AutoAnalysis.Line1.Point1.Data.StartCondition, 
TestParameter, AutoAnalysis.Line1.Point2.Type, 0
TestParameter, AutoAnalysis.Line1.Point2.XY.X, 
TestParameter, AutoAnalysis.Line1.Point2.XY.Y, 
TestParameter, AutoAnalysis.Line1.Point2.Data.Var, 
TestParameter, AutoAnalysis.Line1.Point2.Data.Condition, 
TestParameter, AutoAnalysis.Line1.Point2.Data.Start, false
TestParameter, AutoAnalysis.Line1.Point2.Data.StartVar, 
TestParameter, AutoAnalysis.Line1.Point2.Data.StartCondition, 
TestParameter, AutoAnalysis.Line1.GradientExpr, 0
TestParameter, AutoAnalysis.Line2.Enabled, false
TestParameter, AutoAnalysis.Line2.Type, 1
TestParameter, AutoAnalysis.Line2.Fix, True
TestParameter, AutoAnalysis.Line2.YAxis, 0
TestParameter, AutoAnalysis.Line2.Point1.Type, 0
TestParameter, AutoAnalysis.Line2.Point1.XY.X, 
TestParameter, AutoAnalysis.Line2.Point1.XY.Y, 
TestParameter, AutoAnalysis.Line2.Point1.Data.Var, 
TestParameter, AutoAnalysis.Line2.Point1.Data.Condition, 
TestParameter, AutoAnalysis.Line2.Point1.Data.Start, false
TestParameter, AutoAnalysis.Line2.Point1.Data.StartVar, 
TestParameter, AutoAnalysis.Line2.Point1.Data.StartCondition, 
TestParameter, AutoAnalysis.Line2.Point2.Type, 0
TestParameter, AutoAnalysis.Line2.Point2.XY.X, 
TestParameter, AutoAnalysis.Line2.Point2.XY.Y, 
TestParameter, AutoAnalysis.Line2.Point2.Data.Var, 
TestParameter, AutoAnalysis.Line2.Point2.Data.Condition, 
TestParameter, AutoAnalysis.Line2.Point2.Data.Start, false
TestParameter, AutoAnalysis.Line2.Point2.Data.StartVar, 
TestParameter, AutoAnalysis.Line2.Point2.Data.StartCondition, 
TestParameter, AutoAnalysis.Line2.GradientExpr, 0
TestParameter, AutoAnalysis.Marker.Enabled, false
TestParameter, AutoAnalysis.Marker.Data.Var, 
TestParameter, AutoAnalysis.Marker.Data.Condition, 
TestParameter, AutoAnalysis.Marker.Data.Start, false
TestParameter, AutoAnalysis.Marker.Data.StartVar, 
TestParameter, AutoAnalysis.Marker.Data.StartCondition, 
MetaData, TestRecord.EntryPoint, true
MetaData, TestRecord.RecordTime, 04/17/2021 13:05:38
MetaData, TestRecord.TestTarget, 
MetaData, TestRecord.IterationIndex, 1
MetaData, TestRecord.Preservation, true
MetaData, TestRecord.Flag, 
MetaData, TestRecord.Remarks, 
MetaData, TestRecord.LinkKey, 57b4aef7-ff19-46b8-a761-4d83ac4a9953
Dimension1, 21, 21
Dimension2, 5, 5
DataName, ID, VDS
DataValue, -18.1815, -0.69300000000000006
DataValue, -17.294, -0.65950000000000009
DataValue, -16.391000000000002, -0.62440000000000007
DataValue, -15.463000000000001, -0.5905
DataValue, -14.536, -0.5556
DataValue, -13.634500000000001, -0.5218
DataValue, -12.7235, -0.4877
DataValue, -11.8165, -0.4524
DataValue, -10.9105, -0.4176
DataValue, -9.980500000000001, -0.38280000000000003
DataValue, -9.082, -0.3482
DataValue, -8.176, -0.3141
DataValue, -7.2570000000000006, -0.278
DataValue, -6.3205, -0.2429
DataValue, -5.453, -0.2071
DataValue, -4.546, -0.17350000000000002
DataValue, -3.6, -0.1395
DataValue, -2.7145, -0.1033
DataValue, -1.7785, -0.0679
DataValue, -0.87550000000000006, -0.032600000000000004
DataValue, 0.0090000000000000011, 0.0021000000000000003
DataValue, -18.245, -0.6843
DataValue, -17.305500000000002, -0.6479
DataValue, -16.4035, -0.6156
DataValue, -15.512, -0.5805
DataValue, -14.581, -0.54370000000000007
DataValue, -13.6585, -0.5132
DataValue, -12.757, -0.4796
DataValue, -11.862, -0.44430000000000003
DataValue, -10.931000000000001, -0.4102
DataValue, -10.0055, -0.3753
DataValue, -9.1265, -0.3412
DataValue, -8.197000000000001, -0.3069
DataValue, -7.2540000000000004, -0.27390000000000003
DataValue, -6.3660000000000005, -0.23920000000000002
DataValue, -5.4605, -0.20470000000000002
DataValue, -4.525, -0.17
DataValue, -3.6375, -0.1364
DataValue, -2.7005, -0.099100000000000008
DataValue, -1.7955, -0.067600000000000007
DataValue, -0.8975, -0.032100000000000004
DataValue, 0.0265, 0.002
DataValue, -18.262, -0.6719
DataValue, -17.3695, -0.6391
DataValue, -16.4495, -0.60430000000000006
DataValue, -15.525500000000001, -0.5721
DataValue, -14.629, -0.53960000000000008
DataValue, -13.724, -0.5053
DataValue, -12.7905, -0.4712
DataValue, -11.8605, -0.4383
DataValue, -10.9475, -0.40190000000000004
DataValue, -10.0585, -0.371
DataValue, -9.142, -0.33640000000000003
DataValue, -8.2105, -0.3035
DataValue, -7.28, -0.2691
DataValue, -6.3915, -0.2358
DataValue, -5.4795, -0.2021
DataValue, -4.5435, -0.1685
DataValue, -3.6125000000000003, -0.134
DataValue, -2.727, -0.0989
DataValue, -1.8245, -0.0668
DataValue, -0.906, -0.032100000000000004
DataValue, 0.0315, 0.0015
DataValue, -18.3015, -0.665
DataValue, -17.397000000000002, -0.6309
DataValue, -16.463, -0.5986
DataValue, -15.544, -0.56380000000000008
DataValue, -14.637, -0.5319
DataValue, -13.73, -0.499
DataValue, -12.815, -0.4665
DataValue, -11.8945, -0.4313
DataValue, -10.984, -0.3996
DataValue, -10.0675, -0.3657
DataValue, -9.14, -0.33340000000000003
DataValue, -8.2165, -0.2999
DataValue, -7.3020000000000005, -0.2674
DataValue, -6.3985, -0.2321
DataValue, -5.4895000000000005, -0.19890000000000002
DataValue, -4.5520000000000005, -0.1653
DataValue, -3.6295, -0.13240000000000002
DataValue, -2.734, -0.098
DataValue, -1.8225, -0.0656
DataValue, -0.89150000000000007, -0.0327
DataValue, 0.042, 0.0026000000000000003
DataValue, -18.351, -0.6582
DataValue, -17.424, -0.6251
DataValue, -16.5115, -0.5927
DataValue, -15.5745, -0.5592
DataValue, -14.6645, -0.52770000000000006
DataValue, -13.7375, -0.49410000000000004
DataValue, -12.823, -0.4626
DataValue, -11.911, -0.42900000000000005
DataValue, -10.9705, -0.3945
DataValue, -10.064, -0.3628
DataValue, -9.164, -0.3295
DataValue, -8.238, -0.29660000000000003
DataValue, -7.3205, -0.26330000000000003
DataValue, -6.418, -0.22970000000000002
DataValue, -5.4745, -0.1963
DataValue, -4.551, -0.16240000000000002
DataValue, -3.6365000000000003, -0.1313
DataValue, -2.7255000000000003, -0.0983
DataValue, -1.821, -0.064700000000000008
DataValue, -0.8985, -0.031
DataValue, 0.035, 0.0007