
SetupTitle, Rds-Id
ApplicationTest, Rds-Id, Public
TestParameter, Name, Memo, Scale, HoldTime, PulseBase, PulseAvgCnt, Gate, VgStart, VgStop, VgStep, IgLimit, Source, MeasurementTime, Drain, IdStart, IdStop, IdLinearStep, VdLimit, VdStop, PulsePeriodMode, ManualPulsePeriod, PulseWidth
TestParameter, Value, , LINEAR, 0, 0, 1, SMU2:MC	MCSMU, 20, 5, 1, 0.1, GNDU:GND	GNDU, 1E-05, SMU3:UHC500	UHCU500A, 0.5, 30, 0.2, 2, 0, 0, 0.05, 0.0002
DutParameter, Name, Polarity, Temp, YAxisRdsMin, YAxisRdsMax
DutParameter, Value, 1, 25, 0.001, 1
MetaData, TestRecord.EntryPoint, true
MetaData, TestRecord.RecordTime, 04/17/2021 10:41:54
MetaData, TestRecord.TestTarget, 
MetaData, TestRecord.IterationIndex, 1
MetaData, TestRecord.Preservation, true
MetaData, TestRecord.Flag, 
MetaData, TestRecord.Remarks, 
MetaData, TestRecord.LinkKey, f2a408c9-4538-4ea6-80f3-f02113b07cf9
Dimension1, 148, 148, 148, 148, 148, 148
Dimension2, 16, 16, 16, 16, 16, 16
DataName, Igate, Vgate, Vdrain, Idrain, Ta, Rds
DataValue, -4.1000000000000006E-06, 20.00024, 0.0039000000000000003, 0.099, 25, 0.0393939393939394
DataValue, -4.9000000000000005E-06, 20.00036, 0.0122, 0.2645, 25, 0.046124763705103967
DataValue, -5E-06, 20.00016, 0.0241, 0.50750000000000006, 25, 0.047487684729064034
DataValue, -3.6000000000000003E-06, 19.9997, 0.0364, 0.75650000000000006, 25, 0.048116325181758096
DataValue, -4.1000000000000006E-06, 19.999920000000003, 0.0468, 0.9555, 25, 0.048979591836734691
DataValue, -6.1000000000000009E-06, 19.99978, 0.0567, 1.1835, 25, 0.047908745247148291
DataValue, -3.8000000000000005E-06, 19.99986, 0.065700000000000008, 1.401, 25, 0.046895074946466817
DataValue, -5.3E-06, 20.00028, 0.0752, 1.604, 25, 0.046882793017456355
DataValue, -5.7000000000000005E-06, 19.99968, 0.0857, 1.825, 25, 0.046958904109589042
DataValue, -3.6000000000000003E-06, 20.000140000000002, 0.0952, 2.0525, 25, 0.046382460414129106
DataValue, -5.8E-06, 20.00026, 0.1047, 2.2655, 25, 0.04621496358419775
DataValue, -4.7000000000000007E-06, 19.999660000000002, 0.1143, 2.4495, 25, 0.046662584200857317
DataValue, -5.5000000000000007E-06, 20.00006, 0.12340000000000001, 2.6665, 25, 0.046277892368273017
DataValue, -3.8000000000000005E-06, 20.000040000000002, 0.1313, 2.8815, 25, 0.045566545202151656
DataValue, -4.7000000000000007E-06, 20, 0.1398, 3.097, 25, 0.045140458508233776
DataValue, -4.2000000000000004E-06, 19.999660000000002, 0.1514, 3.2800000000000002, 25, 0.046158536585365853
DataValue, -3.8000000000000005E-06, 20.000020000000003, 0.1603, 3.4745, 25, 0.046136134695639659
DataValue, -5.8E-06, 20, 0.1718, 3.6715, 25, 0.046792863952063189
DataValue, -4.6E-06, 19.999840000000003, 0.1806, 3.8905000000000003, 25, 0.046420768538748235
DataValue, -3.5000000000000004E-06, 20.00056, 0.1875, 4.0905000000000005, 25, 0.045837917125045834
DataValue, -2.6E-06, 19.999920000000003, 0.1965, 4.299, 25, 0.0457083042568039
DataValue, -1.1E-06, 19.99996, 0.20720000000000002, 4.499, 25, 0.046054678817515009
DataValue, -4.1000000000000006E-06, 19.9998, 0.2162, 4.698, 25, 0.046019582801191991
DataValue, -4.4E-06, 19.99958, 0.2247, 4.8915, 25, 0.045936829193498931
DataValue, -5.1E-06, 20.00026, 0.2326, 5.0745000000000005, 25, 0.045837028278648141
DataValue, -4.9000000000000005E-06, 19.9997, 0.24300000000000002, 5.2835, 25, 0.045992239992429261
DataValue, -3.6000000000000003E-06, 19.99968, 0.25370000000000004, 5.468, 25, 0.04639722019019752
DataValue, -5.8E-06, 19.999460000000003, 0.26230000000000003, 5.678, 25, 0.046195843606903847
DataValue, -3E-06, 19.999760000000002, 0.272, 5.888, 25, 0.046195652173913047
DataValue, -3.2000000000000003E-06, 19.99986, 0.2805, 6.083, 25, 0.0461121157323689
DataValue, -4.2000000000000004E-06, 20.000220000000002, 0.2891, 6.2775, 25, 0.046053365193150148
DataValue, -4.9000000000000005E-06, 20.00046, 0.29760000000000003, 6.4565, 25, 0.046093084488499962
DataValue, -2.0000000000000003E-06, 20.00054, 0.3053, 6.6285, 25, 0.046058685977219585
DataValue, -4.1000000000000006E-06, 20.00036, 0.314, 6.7730000000000006, 25, 0.04636054923962793
DataValue, -3.8000000000000005E-06, 19.99988, 0.31930000000000003, 6.883, 25, 0.046389655673398235
DataValue, -4.6E-06, 19.999940000000002, 0.3211, 6.993, 25, 0.045917345917345913
DataValue, -4.5E-06, 20.000200000000003, 0.3256, 7.057, 25, 0.04613858580133201
DataValue, -5.3E-06, 19.999460000000003, 0.3264, 7.1290000000000004, 25, 0.045784822555758171
DataValue, -4.1000000000000006E-06, 20.000480000000003, 0.3305, 7.1665, 25, 0.046117351566315495
DataValue, -4.0000000000000007E-06, 19.99996, 0.3292, 7.1675, 25, 0.045929543076386463
DataValue, -4.8000000000000006E-06, 19.99942, 0.3295, 7.1815, 25, 0.045881779572512708
DataValue, -5E-06, 19.999840000000003, 0.3282, 7.2015, 25, 0.04557383878358675
DataValue, -5.1E-06, 19.9999, 0.3295, 7.212, 25, 0.045687742651136995
DataValue, -3.7E-06, 19.99988, 0.3307, 7.2170000000000005, 25, 0.045822363863101005
DataValue, -6.5000000000000004E-06, 19.999660000000002, 0.33030000000000004, 7.2170000000000005, 25, 0.045766939171400858
DataValue, -4.5E-06, 20.00054, 0.3305, 7.2465, 25, 0.045608224660180781
DataValue, -4.9000000000000005E-06, 19.9998, 0.332, 7.2265000000000006, 25, 0.0459420189580018
DataValue, -3.4000000000000005E-06, 19.99998, 0.3316, 7.2285, 25, 0.045873971086670816
DataValue, -5E-06, 19.99968, 0.33130000000000004, 7.2345, 25, 0.045794457115211837
DataValue, -5.7000000000000005E-06, 20.0009, 0.33140000000000003, 7.2395000000000005, 25, 0.045776642033289593
DataValue, -2.4000000000000003E-06, 19.99996, 0.33240000000000003, 7.23, 25, 0.045975103734439839
DataValue, -5E-06, 20.00018, 0.33130000000000004, 7.2375, 25, 0.045775474956822111
DataValue, -3.3E-06, 20.00026, 0.33190000000000003, 7.227, 25, 0.04592500345925004
DataValue, -4.5E-06, 20.00084, 0.33190000000000003, 7.2305, 25, 0.04590277297558952
DataValue, -4.7000000000000007E-06, 19.999760000000002, 0.33180000000000004, 7.2405, 25, 0.045825564532836136
DataValue, -5.6000000000000006E-06, 19.999640000000003, 0.33230000000000004, 7.2555000000000005, 25, 0.04579973812969472
DataValue, -6.2000000000000008E-06, 20, 0.3316, 7.23, 25, 0.045864453665283536
DataValue, -3.7E-06, 19.99978, 0.33080000000000004, 7.219, 25, 0.045823521263332875
DataValue, -4.8000000000000006E-06, 20.00034, 0.3309, 7.227, 25, 0.045786633457866335
DataValue, -3.3E-06, 19.999640000000003, 0.331, 7.2315000000000005, 25, 0.045771969854110486
DataValue, -1.5E-06, 20.00018, 0.3311, 7.24, 25, 0.045732044198895025
DataValue, -4.8000000000000006E-06, 19.99986, 0.33140000000000003, 7.2525, 25, 0.045694588073078253
DataValue, -5.1E-06, 20.000500000000002, 0.3317, 7.243, 25, 0.04579594090846334
DataValue, -3.4000000000000005E-06, 20.000380000000003, 0.33140000000000003, 7.2475000000000005, 25, 0.045726112452569849
DataValue, -4.9000000000000005E-06, 20.000320000000002, 0.3304, 7.2285, 25, 0.045707961541121951
DataValue, -4.1000000000000006E-06, 20.00018, 0.3321, 7.2435, 25, 0.045848001656657693
DataValue, -6.7E-06, 19.99986, 0.33230000000000004, 7.247, 25, 0.04585345660273217
DataValue, -4.6E-06, 19.99988, 0.3332, 7.2365, 25, 0.046044358460581768
DataValue, -4.4E-06, 19.999920000000003, 0.33240000000000003, 7.2295, 25, 0.045978283422090052
DataValue, -6.7E-06, 20.000960000000003, 0.333, 7.238, 25, 0.046007184305056646
DataValue, -6E-06, 19.9999, 0.3316, 7.25, 25, 0.045737931034482759
DataValue, -5.2E-06, 19.99962, 0.33190000000000003, 7.2495, 25, 0.045782467756396994
DataValue, -3.4000000000000005E-06, 20.000120000000003, 0.3309, 7.236, 25, 0.045729684908789391
DataValue, -3.3E-06, 19.999480000000002, 0.3322, 7.2415, 25, 0.045874473520679415
DataValue, -3.7E-06, 20.00044, 0.3322, 7.2615, 25, 0.045748123665909246
DataValue, -3.8000000000000005E-06, 20.00066, 0.3316, 7.2545, 25, 0.045709559583706663
DataValue, -3.1000000000000004E-06, 19.9998, 0.3302, 7.2535, 25, 0.045522851037430208
DataValue, -3.3E-06, 20.000420000000002, 0.33140000000000003, 7.2375, 25, 0.045789291882556135
DataValue, -5.6000000000000006E-06, 19.998980000000003, 0.332, 7.2455, 25, 0.045821544406873235
DataValue, -2.4000000000000003E-06, 20.000140000000002, 0.331, 7.242, 25, 0.045705606186136429
DataValue, -2.8000000000000003E-06, 20.00016, 0.3322, 7.252, 25, 0.045808052950910096
DataValue, -4.2000000000000004E-06, 19.99998, 0.3321, 7.25, 25, 0.045806896551724138
DataValue, -4.5E-06, 19.9998, 0.33190000000000003, 7.2555000000000005, 25, 0.045744607539108265
DataValue, -3.4000000000000005E-06, 19.99978, 0.33080000000000004, 7.26, 25, 0.045564738292011027
DataValue, -3.6000000000000003E-06, 19.9999, 0.3312, 7.2405, 25, 0.045742697327532632
DataValue, -4.6E-06, 19.999640000000003, 0.3332, 7.236, 25, 0.046047540077390828
DataValue, -3.9E-06, 20.00006, 0.33240000000000003, 7.258, 25, 0.045797740424359329
DataValue, -2.1000000000000002E-06, 19.999760000000002, 0.33190000000000003, 7.2705, 25, 0.04565023038305481
DataValue, -5.9E-06, 19.999480000000002, 0.33290000000000003, 7.2555000000000005, 25, 0.045882434015574396
DataValue, -5E-06, 20.000220000000002, 0.33330000000000004, 7.2565, 25, 0.045931234066009789
DataValue, -3E-06, 19.999740000000003, 0.3317, 7.2435, 25, 0.045792779733554223
DataValue, -5.2E-06, 19.999660000000002, 0.33080000000000004, 7.242, 25, 0.045677989505661425
DataValue, -4.2000000000000004E-06, 20.000420000000002, 0.331, 7.247, 25, 0.045674072029805439
DataValue, -4.4E-06, 19.99972, 0.3306, 7.2345, 25, 0.045697698527887208
DataValue, -4.3E-06, 20.00008, 0.33180000000000004, 7.255, 25, 0.045733976567884221
DataValue, -2.7000000000000004E-06, 20.000400000000003, 0.33290000000000003, 7.253, 25, 0.045898249000413623
DataValue, -4.5E-06, 19.999660000000002, 0.33290000000000003, 7.2605, 25, 0.045850836719234213
DataValue, -4.5E-06, 20.000500000000002, 0.3327, 7.264, 25, 0.045801211453744495
DataValue, -3.4000000000000005E-06, 19.99996, 0.3327, 7.266, 25, 0.045788604459124686
DataValue, -3.1000000000000004E-06, 20.000020000000003, 0.3327, 7.2495, 25, 0.04589282019449617
DataValue, -4.8000000000000006E-06, 20.00046, 0.3311, 7.2525, 25, 0.045653223026542566
DataValue, -2.8000000000000003E-06, 20.000140000000002, 0.3335, 7.2325, 25, 0.046111303145523683
DataValue, -5.6000000000000006E-06, 20.00018, 0.3317, 7.2505, 25, 0.045748569064202473
DataValue, -3.1000000000000004E-06, 19.99988, 0.33230000000000004, 7.2445, 25, 0.045869280143557185
DataValue, -1.7000000000000002E-06, 20.000500000000002, 0.3321, 7.2555000000000005, 25, 0.045772172834401485
DataValue, -2.7000000000000004E-06, 20.00026, 0.3321, 7.2525, 25, 0.04579110651499483
DataValue, -4.0000000000000007E-06, 20.000100000000003, 0.33280000000000004, 7.2410000000000005, 25, 0.045960502692998208
DataValue, -5.4000000000000008E-06, 20.000300000000003, 0.3317, 7.2585, 25, 0.045698147000068884
DataValue, -5E-06, 20.000780000000002, 0.33130000000000004, 7.255, 25, 0.045665058580289464
DataValue, -5.1E-06, 19.999660000000002, 0.3331, 7.2715000000000005, 25, 0.045808980265419789
DataValue, -2.8000000000000003E-06, 19.9996, 0.33080000000000004, 7.259, 25, 0.045571015291362447
DataValue, -4.4E-06, 19.99942, 0.3322, 7.263, 25, 0.04573867547845243
DataValue, -3.7E-06, 20.00008, 0.332, 7.2570000000000006, 25, 0.045748932065591844
DataValue, -5E-06, 20.00036, 0.33330000000000004, 7.2455, 25, 0.046000966116900154
DataValue, -4.9000000000000005E-06, 19.99998, 0.3311, 7.26, 25, 0.045606060606060608
DataValue, -4.4E-06, 19.9995, 0.33230000000000004, 7.25, 25, 0.0458344827586207
DataValue, -3.5000000000000004E-06, 19.999640000000003, 0.33240000000000003, 7.251, 25, 0.045841952834091849
DataValue, -4.3E-06, 19.9998, 0.334, 7.242, 25, 0.046119856393261535
DataValue, -5E-06, 19.999920000000003, 0.33190000000000003, 7.2415, 25, 0.045833045639715533
DataValue, -3.4000000000000005E-06, 20.000140000000002, 0.33280000000000004, 7.239, 25, 0.045973200718331268
DataValue, -3.5000000000000004E-06, 19.99998, 0.33140000000000003, 7.263, 25, 0.0456285281564092
DataValue, -3.3E-06, 19.99996, 0.332, 7.26, 25, 0.045730027548209373
DataValue, -5.6000000000000006E-06, 19.999940000000002, 0.3325, 7.2575, 25, 0.045814674474681363
DataValue, -4.5E-06, 20.00016, 0.33140000000000003, 7.256, 25, 0.045672546857772882
DataValue, -3.8000000000000005E-06, 20.000140000000002, 0.33080000000000004, 7.247, 25, 0.045646474403201333
DataValue, -3.8000000000000005E-06, 19.999940000000002, 0.33190000000000003, 7.238, 25, 0.045855208621166071
DataValue, -3.9E-06, 19.9999, 0.3317, 7.236, 25, 0.045840243228302928
DataValue, -3.5000000000000004E-06, 20.00026, 0.3317, 7.2490000000000006, 25, 0.045758035591116013
DataValue, -3.3E-06, 20.000600000000002, 0.3316, 7.2495, 25, 0.0457410855921098
DataValue, -5.5000000000000007E-06, 20.000400000000003, 0.3317, 7.2395000000000005, 25, 0.045818081359209888
DataValue, -3.4000000000000005E-06, 19.99968, 0.332, 7.25, 25, 0.045793103448275863
DataValue, -4.5E-06, 19.999820000000003, 0.3325, 7.2445, 25, 0.0458968872938091
DataValue, -5.1E-06, 20.00024, 0.3305, 7.2535, 25, 0.045564210381195291
DataValue, -3.4000000000000005E-06, 19.999160000000003, 0.33190000000000003, 7.253, 25, 0.045760375017234248
DataValue, -6.3000000000000007E-06, 20.000040000000002, 0.33290000000000003, 7.2465, 25, 0.045939419029876492
DataValue, -5E-06, 19.9997, 0.3326, 7.256, 25, 0.045837927232635058
DataValue, -5.1E-06, 19.99934, 0.332, 7.26, 25, 0.045730027548209373
DataValue, -5.3E-06, 20.000480000000003, 0.333, 7.276, 25, 0.045766904892798242
DataValue, -5.2E-06, 19.999940000000002, 0.33440000000000003, 7.251, 25, 0.046117776858364365
DataValue, -4.6E-06, 20.00024, 0.3332, 7.2515, 25, 0.045949113976418668
DataValue, -4.1000000000000006E-06, 20.000680000000003, 0.3321, 7.2345, 25, 0.045905038357868549
DataValue, -1.5E-06, 19.99952, 0.33230000000000004, 7.239, 25, 0.045904130404752046
DataValue, -3.9E-06, 19.99978, 0.33330000000000004, 7.2490000000000006, 25, 0.045978755690440062
DataValue, -6.1000000000000009E-06, 19.99998, 0.3315, 7.2620000000000005, 25, 0.04564858165794547
DataValue, -2.7000000000000004E-06, 19.99958, 0.3321, 7.2505, 25, 0.045803737673263914
DataValue, -4.6E-06, 20.00056, 0.3322, 7.258, 25, 0.045770184623863321
DataValue, -4.1000000000000006E-06, 20.000120000000003, 0.3327, 7.2655, 25, 0.045791755557084854
DataValue, -3.9E-06, 19.99978, 0.3321, 7.2620000000000005, 25, 0.045731203525199667
DataValue, -3.8000000000000005E-06, 19.00052, 0.0057, 0.1135, 25, 0.050220264317180616
DataValue, -4.6E-06, 18.999640000000003, 0.0128, 0.267, 25, 0.047940074906367043
DataValue, -1.7000000000000002E-06, 19.00034, 0.0256, 0.51, 25, 0.050196078431372554
DataValue, -4.3E-06, 19.000580000000003, 0.0362, 0.724, 25, 0.05
DataValue, -4.7000000000000007E-06, 18.99968, 0.0473, 0.961, 25, 0.049219562955254946
DataValue, -4.3E-06, 19.000020000000003, 0.0572, 1.1965000000000001, 25, 0.047806101128290847
DataValue, -5.3E-06, 19.00024, 0.068600000000000008, 1.4000000000000001, 25, 0.049
DataValue, -3.7E-06, 19.000420000000002, 0.077300000000000008, 1.6345, 25, 0.047292750076475987
DataValue, -2.7000000000000004E-06, 18.99952, 0.0874, 1.833, 25, 0.047681396617566832
DataValue, -3.7E-06, 19.00018, 0.098, 2.0345, 25, 0.048169083312853286
DataValue, -3.6000000000000003E-06, 19.000200000000003, 0.10690000000000001, 2.2605, 25, 0.047290422472904228
DataValue, -3.7E-06, 18.99996, 0.1169, 2.458, 25, 0.047558991049633847
DataValue, -4.0000000000000007E-06, 18.99996, 0.1264, 2.6705, 25, 0.047331960307058607
DataValue, -4.4E-06, 18.999820000000003, 0.1375, 2.8885, 25, 0.047602561883330452
DataValue, -3.8000000000000005E-06, 18.99962, 0.1451, 3.0875, 25, 0.04699595141700405
DataValue, -4.5E-06, 19.00024, 0.1531, 3.2915, 25, 0.046513747531520586
DataValue, -5.3E-06, 19.000120000000003, 0.1652, 3.4905, 25, 0.047328462970921074
DataValue, -4.8000000000000006E-06, 18.99962, 0.1759, 3.6895000000000002, 25, 0.047675836834259383
DataValue, -3.2000000000000003E-06, 18.99986, 0.18430000000000002, 3.8785000000000003, 25, 0.047518370504060853
DataValue, -4.5E-06, 18.99914, 0.19360000000000002, 4.0945, 25, 0.047282940529979244
DataValue, -3.4000000000000005E-06, 19.000100000000003, 0.20370000000000002, 4.2945, 25, 0.047432762836185818
DataValue, -5.5000000000000007E-06, 18.99958, 0.2139, 4.49, 25, 0.047639198218262804
DataValue, -5.7000000000000005E-06, 19.00016, 0.222, 4.6735, 25, 0.047501872258478663
DataValue, -5.5000000000000007E-06, 18.9999, 0.23190000000000002, 4.8835, 25, 0.047486433910105465
DataValue, -4.4E-06, 19, 0.24050000000000002, 5.074, 25, 0.047398502167914865
DataValue, -3.9E-06, 19.00074, 0.2515, 5.28, 25, 0.047632575757575756
DataValue, -3.7E-06, 18.99972, 0.26030000000000003, 5.4785, 25, 0.047513005384685593
DataValue, -3.8000000000000005E-06, 19.000020000000003, 0.2706, 5.6785000000000005, 25, 0.047653429602888084
DataValue, -5E-06, 18.9996, 0.2796, 5.8775, 25, 0.0475712462781795
DataValue, -4.0000000000000007E-06, 18.999540000000003, 0.2901, 6.063, 25, 0.047847600197921829
DataValue, -3.1000000000000004E-06, 18.999540000000003, 0.2973, 6.2645, 25, 0.047457897677388464
DataValue, -4.5E-06, 18.99986, 0.308, 6.4305, 25, 0.047896742088484566
DataValue, -4.2000000000000004E-06, 19.00052, 0.3138, 6.6285, 25, 0.047341027381760582
DataValue, -4.3E-06, 18.9995, 0.32180000000000003, 6.7755, 25, 0.047494649841340129
DataValue, -5.4000000000000008E-06, 18.999940000000002, 0.3277, 6.8905, 25, 0.047558232348886141
DataValue, -2.9E-06, 19.00064, 0.3306, 6.988, 25, 0.047309673726388092
DataValue, -5.8E-06, 19.00026, 0.3332, 7.0360000000000005, 25, 0.0473564525298465
DataValue, -2.7000000000000004E-06, 19.000680000000003, 0.33640000000000003, 7.0785, 25, 0.047524192978738437
DataValue, -5.1E-06, 19.00074, 0.33790000000000003, 7.111, 25, 0.047517929967655748
DataValue, -3.8000000000000005E-06, 19.00026, 0.33790000000000003, 7.131, 25, 0.047384658533165057
DataValue, -3.2000000000000003E-06, 19.000040000000002, 0.3393, 7.1560000000000006, 25, 0.047414756847400777
DataValue, -4.4E-06, 18.99878, 0.3396, 7.1665, 25, 0.0473871485383381
DataValue, -5.3E-06, 18.999740000000003, 0.3395, 7.1715, 25, 0.047340165934602246
DataValue, -3E-06, 19.00038, 0.3387, 7.175, 25, 0.047205574912891984
DataValue, -3.6000000000000003E-06, 18.99972, 0.3386, 7.1905, 25, 0.047089910298310271
DataValue, -4.7000000000000007E-06, 18.9996, 0.3401, 7.191, 25, 0.047295230148797107
DataValue, -4.2000000000000004E-06, 19.00028, 0.3405, 7.21, 25, 0.047226074895977813
DataValue, -4.6E-06, 19.00018, 0.3417, 7.2165, 25, 0.047349823321554768
DataValue, -4.3E-06, 19.000300000000003, 0.3412, 7.2010000000000005, 25, 0.047382308012776
DataValue, -1.2000000000000002E-06, 19.000220000000002, 0.3407, 7.205, 25, 0.047286606523247746
DataValue, -3.5000000000000004E-06, 18.9997, 0.3401, 7.195, 25, 0.047268936761640026
DataValue, -4.7000000000000007E-06, 18.999840000000003, 0.341, 7.1895, 25, 0.047430280269837963
DataValue, -5.8E-06, 18.99962, 0.3395, 7.2, 25, 0.04715277777777778
DataValue, -3.4000000000000005E-06, 19.00008, 0.3407, 7.1875, 25, 0.047401739130434786
DataValue, -5.7000000000000005E-06, 18.999100000000002, 0.3415, 7.202, 25, 0.047417384059983345
DataValue, -3.2000000000000003E-06, 18.99958, 0.34040000000000004, 7.2185000000000006, 25, 0.047156611484380412
DataValue, -4.6E-06, 19.00018, 0.3411, 7.2285, 25, 0.047188213322266033
DataValue, -4.2000000000000004E-06, 19.000020000000003, 0.34, 7.223, 25, 0.047071853800359963
DataValue, -3.9E-06, 19.00094, 0.3411, 7.198, 25, 0.047388163378716312
DataValue, -4.2000000000000004E-06, 19.000140000000002, 0.3401, 7.2015, 25, 0.047226272304381034
DataValue, -4.2000000000000004E-06, 18.999480000000002, 0.3413, 7.2025000000000006, 25, 0.047386324192988542
DataValue, -3.5000000000000004E-06, 19.00028, 0.3412, 7.2185000000000006, 25, 0.047267437833344875
