
SetupTitle, Rds-Id
ApplicationTest, Rds-Id, Public
TestParameter, Name, Memo, Scale, HoldTime, PulseBase, PulseAvgCnt, Gate, VgStart, VgStop, VgStep, IgLimit, Source, MeasurementTime, Drain, IdStart, IdStop, IdLinearStep, VdLimit, VdStop, PulsePeriodMode, ManualPulsePeriod, PulseWidth
TestParameter, Value, , LINEAR, 0, 0, 1, SMU2:MC	MCSMU, 20, 5, 1, 0.1, GNDU:GND	GNDU, 1E-05, SMU3:UHC500	UHCU500A, 0.5, 4, 0.1, 5, 0, 0, 0.05, 0.0002
DutParameter, Name, Polarity, Temp, YAxisRdsMin, YAxisRdsMax
DutParameter, Value, 1, 25, 0.001, 10
MetaData, TestRecord.EntryPoint, true
MetaData, TestRecord.RecordTime, 12/16/2020 13:18:02
MetaData, TestRecord.TestTarget, 
MetaData, TestRecord.IterationIndex, 1
MetaData, TestRecord.Preservation, true
MetaData, TestRecord.Flag, 
MetaData, TestRecord.Remarks, 
MetaData, TestRecord.LinkKey, 15859026-9b44-4026-a212-039f98bcf56a
Dimension1, 36, 36, 36, 36, 36, 36
Dimension2, 16, 16, 16, 16, 16, 16
DataName, Igate, Vgate, Vdrain, Idrain, Ta, Rds
DataValue, -2.0000000000000003E-06, 19.999840000000003, 0.0512, 0.079, 25, 0.64810126582278482
DataValue, -1.7000000000000002E-06, 20.00016, 0.083, 0.126, 25, 0.65873015873015872
DataValue, -1.7000000000000002E-06, 20.00006, 0.11470000000000001, 0.17450000000000002, 25, 0.65730659025787963
DataValue, -1.5E-06, 20.00006, 0.153, 0.23750000000000002, 25, 0.64421052631578946
DataValue, -2.4000000000000003E-06, 20.00006, 0.1897, 0.296, 25, 0.64087837837837847
DataValue, -1.0000000000000002E-06, 20.000420000000002, 0.2277, 0.34750000000000003, 25, 0.655251798561151
DataValue, -1.2000000000000002E-06, 20.00028, 0.2662, 0.437, 25, 0.60915331807780315
DataValue, -2.4000000000000003E-06, 19.999460000000003, 0.3062, 0.47250000000000003, 25, 0.64804232804232809
DataValue, -2.1000000000000002E-06, 19.999760000000002, 0.3403, 0.555, 25, 0.61315315315315311
DataValue, 5.0000000000000008E-07, 19.999840000000003, 0.3798, 0.5905, 25, 0.64318374259102462
DataValue, -1.1E-06, 20, 0.4218, 0.6895, 25, 0.61174764321972441
DataValue, -1.2000000000000002E-06, 19.999920000000003, 0.45980000000000004, 0.7385, 25, 0.62261340555179423
DataValue, -1.7000000000000002E-06, 20.000500000000002, 0.49670000000000003, 0.802, 25, 0.61932668329177054
DataValue, -1.6000000000000001E-06, 20.00028, 0.5456, 0.872, 25, 0.62568807339449539
DataValue, -1.6000000000000001E-06, 19.99986, 0.5804, 0.95400000000000007, 25, 0.60838574423480085
DataValue, -6.0000000000000008E-07, 20.00062, 0.6272, 1.0045, 25, 0.624390243902439
DataValue, -1.2000000000000002E-06, 19.99896, 0.661, 1.09, 25, 0.60642201834862386
DataValue, -2.2E-06, 19.99924, 0.70390000000000008, 1.127, 25, 0.62457852706299921
DataValue, -1.4000000000000002E-06, 19.99958, 0.74340000000000006, 1.216, 25, 0.61134868421052635
DataValue, -8.0000000000000007E-07, 20.000120000000003, 0.78650000000000009, 1.2515, 25, 0.62844586496204558
DataValue, -1.4000000000000002E-06, 20.000020000000003, 0.82710000000000006, 1.349, 25, 0.61312083024462571
DataValue, -1.8000000000000001E-06, 20.000140000000002, 0.86710000000000009, 1.419, 25, 0.61106412966878088
DataValue, -1.6000000000000001E-06, 19.999660000000002, 0.907, 1.4655, 25, 0.61890139883998641
DataValue, -2.0000000000000003E-06, 20.00018, 0.95100000000000007, 1.551, 25, 0.61315280464216637
DataValue, -2.5E-06, 19.999820000000003, 0.9906, 1.6345, 25, 0.60605689813398589
DataValue, -1.0000000000000002E-06, 19.99958, 1.0357, 1.663, 25, 0.62279013830426944
DataValue, -2.8000000000000003E-06, 19.999760000000002, 1.0764, 1.7610000000000001, 25, 0.611243611584327
DataValue, -2.2E-06, 20.000600000000002, 1.1177000000000001, 1.807, 25, 0.61853901494189278
DataValue, -2.1000000000000002E-06, 19.999840000000003, 1.1637, 1.8960000000000001, 25, 0.61376582278481007
DataValue, -1.2000000000000002E-06, 19.99962, 1.2043000000000002, 1.9355, 25, 0.62221648152932063
DataValue, -1.6000000000000001E-06, 19.9994, 1.2492, 2.019, 25, 0.61872213967310552
DataValue, -3.0000000000000004E-07, 20.00036, 1.2911000000000001, 2.0665, 25, 0.62477619162835718
DataValue, -8.0000000000000007E-07, 19.99968, 1.3314000000000001, 2.126, 25, 0.62624647224835384
DataValue, -2.0000000000000003E-06, 19.999460000000003, 1.3752, 2.2215000000000003, 25, 0.61904118838622546
DataValue, -1.2000000000000002E-06, 19.999940000000002, 1.4159000000000002, 2.258, 25, 0.62705934455270163
DataValue, -1.6000000000000001E-06, 20.00016, 1.46, 2.338, 25, 0.62446535500427713
DataValue, -2.8000000000000003E-06, 18.9997, 0.049, 0.06, 25, 0.81666666666666676
DataValue, -1.5E-06, 19.00016, 0.0786, 0.1215, 25, 0.64691358024691359
DataValue, -1.6000000000000001E-06, 18.999000000000002, 0.112, 0.163, 25, 0.68711656441717794
DataValue, -1.6000000000000001E-06, 18.999540000000003, 0.15360000000000001, 0.219, 25, 0.70136986301369875
DataValue, -1.1E-06, 18.99972, 0.1908, 0.307, 25, 0.6214983713355049
DataValue, -1.7000000000000002E-06, 19.00066, 0.22940000000000002, 0.3435, 25, 0.66783114992721981
DataValue, -4.0000000000000003E-07, 18.999840000000003, 0.2609, 0.4265, 25, 0.611723329425557
DataValue, -1.3E-06, 18.99906, 0.3017, 0.459, 25, 0.65729847494553384
DataValue, -1.1E-06, 19.00036, 0.3417, 0.5555, 25, 0.61512151215121513
DataValue, -1.0000000000000002E-06, 18.99952, 0.38330000000000003, 0.602, 25, 0.63671096345514955
DataValue, -6.0000000000000008E-07, 19.000040000000002, 0.4247, 0.6925, 25, 0.61328519855595676
DataValue, -2.2E-06, 18.99924, 0.46740000000000004, 0.7325, 25, 0.63808873720136516
DataValue, -1.5E-06, 19.00064, 0.5079, 0.8155, 25, 0.62280809319435926
DataValue, -1.7000000000000002E-06, 18.99996, 0.5429, 0.8575, 25, 0.63311953352769679
DataValue, -1.4000000000000002E-06, 18.9998, 0.5832, 0.9545, 25, 0.61100052383446835
DataValue, -2.3E-06, 19.000780000000002, 0.6222, 1.0030000000000001, 25, 0.62033898305084734
DataValue, -2.8000000000000003E-06, 18.999360000000003, 0.6655, 1.0685, 25, 0.62283575105287781
DataValue, -6.0000000000000008E-07, 18.99986, 0.7077, 1.1375, 25, 0.62215384615384617
DataValue, -1.3E-06, 19.00036, 0.74840000000000007, 1.204, 25, 0.62159468438538212
DataValue, -6.0000000000000008E-07, 19.00044, 0.7911, 1.278, 25, 0.61901408450704221
DataValue, -1.8000000000000001E-06, 18.99998, 0.8334, 1.336, 25, 0.62380239520958081
DataValue, -2.7000000000000004E-06, 19.00024, 0.87420000000000009, 1.4135, 25, 0.61846480367881151
DataValue, -1.6000000000000001E-06, 19.00006, 0.91780000000000006, 1.467, 25, 0.6256305385139741
DataValue, -2.4000000000000003E-06, 18.999920000000003, 0.9588000000000001, 1.539, 25, 0.62300194931773889
DataValue, -1.4000000000000002E-06, 19.000140000000002, 0.9987, 1.601, 25, 0.62379762648344783
DataValue, -2.3E-06, 19.00024, 1.0411000000000001, 1.6585, 25, 0.62773590593910167
DataValue, -2.0000000000000003E-06, 19.00062, 1.0862, 1.7635, 25, 0.61593422171817414
DataValue, -1.8000000000000001E-06, 19.000140000000002, 1.1275, 1.796, 25, 0.62778396436525608
DataValue, -1.1E-06, 18.999760000000002, 1.1626, 1.867, 25, 0.622710230316015
DataValue, -1.2000000000000002E-06, 19.000040000000002, 1.2055, 1.9205, 25, 0.62770111950013019
DataValue, -2.5E-06, 18.99958, 1.2570000000000001, 2.0185, 25, 0.62273965816200161
DataValue, -1.1E-06, 19.0012, 1.3009000000000002, 2.0705, 25, 0.628302342429365
DataValue, -1.0000000000000002E-06, 18.99978, 1.3429, 2.149, 25, 0.62489530013959982
DataValue, -1.0000000000000002E-06, 19.00024, 1.3876000000000002, 2.2125, 25, 0.62716384180790974
DataValue, -2.3E-06, 19.00024, 1.4275, 2.266, 25, 0.62996469549867606
DataValue, -1.3E-06, 19.000200000000003, 1.4698, 2.345, 25, 0.62678038379530909
DataValue, -5.0000000000000008E-07, 18.00028, 0.049100000000000005, 0.0535, 25, 0.91775700934579452
DataValue, -1.0000000000000002E-06, 17.999760000000002, 0.081700000000000009, 0.1205, 25, 0.67800829875518687
DataValue, -1.0000000000000001E-07, 18.0001, 0.114, 0.1885, 25, 0.60477453580901863
DataValue, -1.4000000000000002E-06, 18.000120000000003, 0.14830000000000002, 0.2025, 25, 0.73234567901234571
DataValue, -6.0000000000000008E-07, 17.9999, 0.1883, 0.299, 25, 0.62976588628762542
DataValue, -1.3E-06, 18.00064, 0.22660000000000002, 0.34400000000000003, 25, 0.65872093023255818
DataValue, -1.3E-06, 17.999940000000002, 0.2671, 0.401, 25, 0.66608478802992521
DataValue, -2.0000000000000002E-07, 18.00008, 0.307, 0.481, 25, 0.63825363825363823
DataValue, -1.2000000000000002E-06, 18.00016, 0.34690000000000004, 0.5445, 25, 0.63709825528007358
DataValue, -1.0000000000000001E-07, 18.00064, 0.3884, 0.5935, 25, 0.6544229149115417
DataValue, -8.0000000000000007E-07, 18.0001, 0.4259, 0.67, 25, 0.63567164179104474
DataValue, -1.2000000000000002E-06, 18, 0.4686, 0.7465, 25, 0.6277294038847957
DataValue, -6.0000000000000008E-07, 17.999920000000003, 0.5106, 0.8375, 25, 0.60967164179104483
DataValue, -5.0000000000000008E-07, 18.00064, 0.5485, 0.87650000000000006, 25, 0.625784369652025
DataValue, -3.0000000000000004E-07, 17.99998, 0.5916, 0.9265, 25, 0.63853211009174315
DataValue, -2.3E-06, 17.99988, 0.6319, 0.9955, 25, 0.63475640381717724
DataValue, -8.0000000000000007E-07, 18.000220000000002, 0.6654, 1.0585, 25, 0.62862541332073685
DataValue, -1.8000000000000001E-06, 17.99962, 0.7093, 1.1215, 25, 0.63245653143111913
DataValue, -8.0000000000000007E-07, 18.00066, 0.7486, 1.2125000000000001, 25, 0.61740206185567
DataValue, -1.8000000000000001E-06, 17.999840000000003, 0.7995, 1.278, 25, 0.62558685446009388
DataValue, -7.0000000000000007E-07, 17.99986, 0.8387, 1.336, 25, 0.62776946107784426
DataValue, -1.3E-06, 17.99968, 0.8821, 1.3925, 25, 0.63346499102333931
DataValue, -1.1E-06, 18.00028, 0.922, 1.453, 25, 0.63454920853406749
DataValue, -8.0000000000000007E-07, 17.999480000000002, 0.9674, 1.5475, 25, 0.62513731825525043
DataValue, -1.6000000000000001E-06, 17.99986, 1.0076, 1.6205, 25, 0.621783400185128
DataValue, -5.0000000000000008E-07, 17.9997, 1.0534000000000001, 1.6685, 25, 0.63134551992807919
DataValue, -7.0000000000000007E-07, 18.00052, 1.0949, 1.7225000000000001, 25, 0.63564586357039177
DataValue, -1.8000000000000001E-06, 17.999760000000002, 1.1321, 1.7705, 25, 0.63942389155605772
DataValue, -1.0000000000000002E-06, 18.00008, 1.1739000000000002, 1.855, 25, 0.63283018867924534
DataValue, -1.2000000000000002E-06, 17.9999, 1.2177, 1.9395, 25, 0.62784222737819029
DataValue, -1.4000000000000002E-06, 18.00018, 1.2619, 2.0095, 25, 0.62796715600895747
DataValue, -1.8000000000000001E-06, 18.000480000000003, 1.3088, 2.0445, 25, 0.64015651748593783
DataValue, -1.7000000000000002E-06, 17.99952, 1.3465, 2.1155, 25, 0.63649255495154811
DataValue, -5.0000000000000008E-07, 18.00028, 1.3871, 2.2055000000000002, 25, 0.62892768079800487
DataValue, -2.0000000000000002E-07, 18.00028, 1.4338, 2.246, 25, 0.63837934105075689
DataValue, -1.4000000000000002E-06, 17.999360000000003, 1.4773, 2.3105, 25, 0.63938541441246477
DataValue, -7.0000000000000007E-07, 16.99934, 0.057100000000000005, 0.0775, 25, 0.73677419354838714
DataValue, -1.4000000000000002E-06, 17.000040000000002, 0.0847, 0.11800000000000001, 25, 0.71779661016949148
DataValue, -1.1E-06, 17.00016, 0.11280000000000001, 0.1605, 25, 0.70280373831775711
DataValue, -1.7000000000000002E-06, 16.99978, 0.1491, 0.2185, 25, 0.68237986270022888
DataValue, -1.8000000000000001E-06, 16.999460000000003, 0.18560000000000002, 0.2705, 25, 0.68613678373382625
DataValue, -6.0000000000000008E-07, 17.00036, 0.2262, 0.34450000000000003, 25, 0.65660377358490563
DataValue, 1.0000000000000001E-07, 17.00016, 0.26880000000000004, 0.436, 25, 0.61651376146789
DataValue, -3.0000000000000004E-07, 17.000120000000003, 0.3064, 0.47250000000000003, 25, 0.64846560846560841
DataValue, 1.0000000000000001E-07, 17.000200000000003, 0.3457, 0.524, 25, 0.65973282442748094
DataValue, -1.5E-06, 16.99998, 0.385, 0.6095, 25, 0.63166529942575878
DataValue, -1.9000000000000002E-06, 17.0001, 0.4348, 0.6725, 25, 0.64654275092936808
DataValue, -5.0000000000000008E-07, 17.000220000000002, 0.4797, 0.76350000000000007, 25, 0.62829076620825142
DataValue, -2.3E-06, 17.0001, 0.5097, 0.801, 25, 0.6363295880149813
DataValue, 6.0000000000000008E-07, 17.00018, 0.5513, 0.8665, 25, 0.6362377380265436
DataValue, -1.2000000000000002E-06, 16.999560000000002, 0.5896, 0.9145, 25, 0.64472389283761622
DataValue, -2.1000000000000002E-06, 17.000020000000003, 0.6353, 0.9975, 25, 0.63689223057644107
DataValue, -1.5E-06, 17.00006, 0.6753, 1.0715000000000001, 25, 0.630237984134391
DataValue, -2.0000000000000003E-06, 16.9999, 0.7185, 1.1380000000000001, 25, 0.63137082601054473
DataValue, -1.2000000000000002E-06, 16.99982, 0.7647, 1.204, 25, 0.63513289036544851
DataValue, -1.6000000000000001E-06, 16.999740000000003, 0.79970000000000008, 1.2365, 25, 0.64674484431864143
DataValue, -1.1E-06, 17.00038, 0.8415, 1.314, 25, 0.6404109589041096
DataValue, -1.2000000000000002E-06, 16.999920000000003, 0.88340000000000007, 1.375, 25, 0.64247272727272731
DataValue, -1.5E-06, 17.000200000000003, 0.93070000000000008, 1.462, 25, 0.636593707250342
DataValue, -3.0000000000000004E-07, 17.00052, 0.97400000000000009, 1.5225, 25, 0.6397372742200329
DataValue, -1.1E-06, 16.999640000000003, 1.0145, 1.59, 25, 0.63805031446540872
DataValue, -8.0000000000000007E-07, 16.9997, 1.0598, 1.6445, 25, 0.64445120097294017
DataValue, -7.0000000000000007E-07, 16.99988, 1.103, 1.718, 25, 0.64202561117578583
DataValue, -1.8000000000000001E-06, 17.000120000000003, 1.1464, 1.7795, 25, 0.64422590615341391
DataValue, -4.0000000000000003E-07, 17.00034, 1.1885000000000001, 1.8355000000000001, 25, 0.64750749114682649
DataValue, -2.1000000000000002E-06, 17.000200000000003, 1.23, 1.928, 25, 0.63796680497925318
DataValue, -1.4000000000000002E-06, 16.9995, 1.2738, 1.968, 25, 0.64725609756097569
DataValue, -1.0000000000000002E-06, 17.000020000000003, 1.3175000000000001, 2.065, 25, 0.63801452784503643
DataValue, -1.0000000000000002E-06, 17.00062, 1.3548, 2.115, 25, 0.64056737588652479
DataValue, -1.2000000000000002E-06, 16.999180000000003, 1.3983, 2.172, 25, 0.64378453038674033
DataValue, -2.1000000000000002E-06, 16.99932, 1.4492, 2.2595, 25, 0.64138083646824517
DataValue, -1.5E-06, 17.00008, 1.4933, 2.324, 25, 0.64255593803786581
DataValue, -4.0000000000000003E-07, 15.999720000000002, 0.053700000000000005, 0.059500000000000004, 25, 0.90252100840336136
DataValue, -2.1000000000000002E-06, 16.000300000000003, 0.083, 0.1135, 25, 0.7312775330396476
DataValue, -1.6000000000000001E-06, 15.999820000000002, 0.11860000000000001, 0.1515, 25, 0.78283828382838294
DataValue, -2.5E-06, 16.00028, 0.1573, 0.2165, 25, 0.72655889145496533
DataValue, -6.0000000000000008E-07, 15.9998, 0.19490000000000002, 0.276, 25, 0.70615942028985512
DataValue, -1.1E-06, 16.000020000000003, 0.2338, 0.356, 25, 0.656741573033708
DataValue, -1.9000000000000002E-06, 15.999220000000001, 0.2665, 0.421, 25, 0.63301662707838491
DataValue, -1.5E-06, 16.00008, 0.30560000000000004, 0.483, 25, 0.632712215320911
DataValue, -1.0000000000000002E-06, 15.999820000000002, 0.3589, 0.5485, 25, 0.65432999088422972
DataValue, -1.7000000000000002E-06, 15.999480000000002, 0.398, 0.62950000000000006, 25, 0.63224781572676725
DataValue, -2.1000000000000002E-06, 16.00026, 0.4364, 0.667, 25, 0.6542728635682159
DataValue, -1.4000000000000002E-06, 15.999880000000001, 0.4766, 0.716, 25, 0.66564245810055866
DataValue, -1.3E-06, 15.9998, 0.5207, 0.7975, 25, 0.65291536050156751
DataValue, -2.0000000000000003E-06, 15.99966, 0.56080000000000008, 0.867, 25, 0.64682814302191471
DataValue, 3.0000000000000004E-07, 16.00028, 0.5956, 0.9225, 25, 0.64563685636856372
DataValue, -1.0000000000000001E-07, 16.000020000000003, 0.63740000000000008, 0.9725, 25, 0.65542416452442165
DataValue, -6.0000000000000008E-07, 15.999880000000001, 0.68190000000000006, 1.0625, 25, 0.64178823529411766
DataValue, -2.1000000000000002E-06, 16.0002, 0.7228, 1.1340000000000001, 25, 0.637389770723104
DataValue, -1.2000000000000002E-06, 16.000040000000002, 0.764, 1.193, 25, 0.64040234702430843
DataValue, -2.0000000000000003E-06, 15.999500000000001, 0.8084, 1.2485, 25, 0.64749699639567482
DataValue, -6.0000000000000008E-07, 16.0001, 0.84700000000000009, 1.2935, 25, 0.65481252415925784
DataValue, -1.1E-06, 16.000020000000003, 0.89240000000000008, 1.355, 25, 0.6585977859778599
DataValue, -2.2E-06, 16.000120000000003, 0.93490000000000006, 1.449, 25, 0.64520358868184957
DataValue, -5.0000000000000008E-07, 16.00108, 0.9786, 1.524, 25, 0.64212598425196854
DataValue, -1.6000000000000001E-06, 15.999900000000002, 1.0216, 1.566, 25, 0.65236270753512138
DataValue, -1.2000000000000002E-06, 16.00036, 1.0646, 1.617, 25, 0.65837971552257268
DataValue, -1.2000000000000002E-06, 16.000040000000002, 1.1088, 1.713, 25, 0.64728546409807353
DataValue, -1.1E-06, 16.00064, 1.1522000000000001, 1.788, 25, 0.64440715883668909
DataValue, -1.4000000000000002E-06, 16.00054, 1.1977, 1.843, 25, 0.64986435160065115
DataValue, -2.0000000000000003E-06, 15.999760000000002, 1.2414, 1.8935, 25, 0.65561130182202276
DataValue, -1.7000000000000002E-06, 16.000040000000002, 1.28, 1.961, 25, 0.65272819989801123
DataValue, -1.4000000000000002E-06, 15.99932, 1.3257, 2.0345, 25, 0.65160973212091433
DataValue, -1.6000000000000001E-06, 15.999640000000001, 1.3692, 2.0945, 25, 0.65371210312723793
DataValue, -7.0000000000000007E-07, 15.999340000000002, 1.4157, 2.1615, 25, 0.65496183206106862
DataValue, -2.0000000000000003E-06, 16.00056, 1.4608, 2.227, 25, 0.655949708127526
DataValue, -1.8000000000000001E-06, 15.999520000000002, 1.5064, 2.3155, 25, 0.65057223061973646
DataValue, -7.0000000000000007E-07, 15.000340000000001, 0.056, 0.0665, 25, 0.84210526315789469
DataValue, -8.0000000000000007E-07, 14.99952, 0.078, 0.1085, 25, 0.71889400921658986
DataValue, -6.0000000000000008E-07, 14.999400000000001, 0.1177, 0.19, 25, 0.61947368421052629
DataValue, -1.5E-06, 14.999760000000002, 0.15610000000000002, 0.222, 25, 0.70315315315315319
DataValue, -1.1E-06, 15.00008, 0.1955, 0.278, 25, 0.7032374100719424
DataValue, 3.0000000000000004E-07, 15.000860000000001, 0.23390000000000003, 0.338, 25, 0.69201183431952662
DataValue, -1.6000000000000001E-06, 15.00012, 0.2679, 0.40650000000000003, 25, 0.65904059040590413
DataValue, -4.0000000000000003E-07, 14.999960000000002, 0.3174, 0.4835, 25, 0.65646328852119962
DataValue, -2.4000000000000003E-06, 15.00012, 0.3526, 0.525, 25, 0.67161904761904767
DataValue, -1.9000000000000002E-06, 14.999740000000001, 0.4022, 0.6065, 25, 0.663149216817807
DataValue, -1.3E-06, 14.999860000000002, 0.43470000000000003, 0.645, 25, 0.673953488372093
DataValue, -1.8000000000000001E-06, 14.999960000000002, 0.4803, 0.742, 25, 0.64730458221024256
DataValue, -1.5E-06, 14.999740000000001, 0.5268, 0.8155, 25, 0.64598405885959542
DataValue, -1.0000000000000002E-06, 15.000280000000002, 0.56290000000000007, 0.8575, 25, 0.65644314868804665
DataValue, -1.0000000000000001E-07, 14.999540000000001, 0.5986, 0.898, 25, 0.6665924276169265
DataValue, -1.8000000000000001E-06, 15.0006, 0.65070000000000006, 0.989, 25, 0.65793731041456027
DataValue, -1.0000000000000002E-06, 15.000040000000002, 0.68480000000000008, 1.045, 25, 0.65531100478468907
DataValue, -4.0000000000000003E-07, 14.99998, 0.7285, 1.12, 25, 0.65044642857142854
DataValue, -1.1E-06, 14.999540000000001, 0.7733, 1.1805, 25, 0.65506141465480716
DataValue, -9.0000000000000007E-07, 14.999960000000002, 0.8237, 1.224, 25, 0.67295751633986933
DataValue, 0, 15.00022, 0.8588, 1.311, 25, 0.655072463768116
DataValue, -1.2000000000000002E-06, 14.999760000000002, 0.9029, 1.3775, 25, 0.65546279491833037
DataValue, -1.6000000000000001E-06, 14.999640000000001, 0.94600000000000006, 1.43, 25, 0.66153846153846163
DataValue, -2.0000000000000003E-06, 14.999680000000002, 0.99430000000000007, 1.499, 25, 0.66330887258172111
DataValue, -1.0000000000000001E-07, 15.000420000000002, 1.0314, 1.5865, 25, 0.65011030570438078
