
SetupTitle, Cgs
ApplicationTest, Cgs, Public
TestParameter, Name, Memo, IntegTime, Frequency, OscLevel, Scale, Gate, VdBias, VdStart, VdStop, VdLinearStep, IdLimit, HoldTime, DelayTime, IdMinRange
TestParameter, Value, , SHORT, 1000000, 0.025, LINEAR, CMU1:MF	MFCMU, SMU6:HV	HVSMU, 0, 600, 10, 0.004, 1, 1, 10uA
DutParameter, Name, Polarity, Temp, YAxisCgsMin, YAxisCgsMax
DutParameter, Value, 1, 25, 1E-12, 5E-09
MetaData, TestRecord.EntryPoint, true
MetaData, TestRecord.RecordTime, 04/23/2021 14:58:01
MetaData, TestRecord.TestTarget, 
MetaData, TestRecord.IterationIndex, 35
MetaData, TestRecord.Preservation, true
MetaData, TestRecord.Flag, 
MetaData, TestRecord.Remarks, 
MetaData, TestRecord.LinkKey, 5058c4e4-b299-4b4d-acb0-48ddf0864ac1
Dimension1, 61, 61, 61, 61, 61
Dimension2, 1, 1, 1, 1, 1
DataName, Ids, Vdrain, Cgs, G, Ta
DataValue, 2.9000000000000003E-10, -0.003, 1.21206E-10, -0.00019442300000000002, 25
DataValue, -2.29E-09, 10.002, 1.21178E-10, -0.00019481200000000002, 25
DataValue, -2.3300000000000004E-09, 20.001, 1.2119500000000001E-10, -0.000194885, 25
DataValue, 8.0000000000000008E-11, 29.9985, 1.21185E-10, -0.00019498600000000002, 25
DataValue, -2.9800000000000005E-09, 40.002, 1.2121400000000002E-10, -0.00019550100000000002, 25
DataValue, 9.300000000000001E-10, 49.998, 1.21139E-10, -0.000194964, 25
DataValue, 4.14E-09, 59.997, 1.2119800000000001E-10, -0.00019481400000000002, 25
DataValue, -4.65E-09, 70.002, 1.21175E-10, -0.000195052, 25
DataValue, -9.11E-09, 80.0025, 1.2116200000000002E-10, -0.000195166, 25
DataValue, -4E-09, 90, 1.2124400000000002E-10, -0.000194803, 25
DataValue, -4.1300000000000004E-09, 100.002, 1.21101E-10, -0.00019486200000000002, 25
DataValue, -4.9400000000000007E-09, 109.9995, 1.2122300000000002E-10, -0.00019472, 25
DataValue, 2.19E-09, 119.9985, 1.21323E-10, -0.00019488600000000002, 25
DataValue, -3.2100000000000003E-09, 129.9975, 1.21272E-10, -0.000194322, 25
DataValue, -1.65E-09, 139.9965, 1.21179E-10, -0.000195119, 25
DataValue, -1.0300000000000001E-08, 150.0045, 1.2116200000000002E-10, -0.00019389, 25
DataValue, 9.300000000000001E-10, 160.00050000000002, 1.21258E-10, -0.00019523900000000002, 25
DataValue, -4.04E-09, 169.998, 1.2111400000000002E-10, -0.000195147, 25
DataValue, -5.33E-09, 180.0015, 1.21161E-10, -0.000194846, 25
DataValue, -3.4600000000000005E-09, 189.999, 1.21191E-10, -0.00019430100000000002, 25
DataValue, -3.2800000000000003E-09, 199.9965, 1.2124E-10, -0.000195051, 25
DataValue, -3.7800000000000006E-09, 210, 1.21297E-10, -0.000194644, 25
DataValue, -9.59E-09, 220.0035, 1.2120400000000001E-10, -0.000194734, 25
DataValue, -7.4800000000000015E-09, 230.001, 1.21246E-10, -0.000194861, 25
DataValue, -5.3E-10, 239.997, 1.2125900000000002E-10, -0.00019478800000000002, 25
DataValue, -2.55E-09, 249.999, 1.2121700000000002E-10, -0.00019476, 25
DataValue, -3.8100000000000007E-09, 260.0025, 1.2124E-10, -0.000194947, 25
DataValue, 7.9000000000000006E-10, 269.9955, 1.21212E-10, -0.00019411300000000002, 25
DataValue, -3.5700000000000003E-09, 280.0005, 1.21242E-10, -0.00019397400000000002, 25
DataValue, -1.5800000000000001E-09, 289.998, 1.21285E-10, -0.000194326, 25
DataValue, -3.93E-09, 300, 1.2123200000000002E-10, -0.00019525800000000002, 25
DataValue, -6.610000000000001E-09, 310.005, 1.2133E-10, -0.00019467600000000002, 25
DataValue, -5.4600000000000006E-09, 320.0025, 1.2118900000000001E-10, -0.000194677, 25
DataValue, -6.1400000000000007E-09, 330, 1.21231E-10, -0.000194754, 25
DataValue, -2.6100000000000003E-09, 339.996, 1.2136700000000002E-10, -0.000194362, 25
DataValue, -2.9000000000000003E-10, 349.995, 1.2122500000000001E-10, -0.00019476700000000001, 25
DataValue, -2.84E-09, 360.0045, 1.21354E-10, -0.00019481200000000002, 25
DataValue, -1.9100000000000002E-09, 369.996, 1.21281E-10, -0.000195045, 25
DataValue, -4.0200000000000006E-09, 380.00100000000003, 1.21275E-10, -0.000194944, 25
DataValue, -6.230000000000001E-09, 390, 1.21255E-10, -0.00019430600000000002, 25
DataValue, -4.2900000000000007E-09, 400.002, 1.21254E-10, -0.00019519800000000002, 25
DataValue, -8.6500000000000014E-09, 410.00100000000003, 1.21294E-10, -0.00019487900000000002, 25
DataValue, -2.24E-09, 419.99850000000004, 1.21305E-10, -0.00019518, 25
DataValue, -7.9000000000000006E-10, 430.002, 1.21267E-10, -0.000195014, 25
DataValue, -4.27E-09, 440.004, 1.2124400000000002E-10, -0.00019463100000000001, 25
DataValue, -3.5100000000000005E-09, 449.997, 1.2129500000000002E-10, -0.000194367, 25
DataValue, -7.2700000000000007E-09, 460.005, 1.21317E-10, -0.000195025, 25
DataValue, 6.6300000000000005E-09, 470.00100000000003, 1.21287E-10, -0.00019459900000000003, 25
DataValue, 1.3100000000000002E-09, 480.0015, 1.21321E-10, -0.00019451, 25
DataValue, -1.1500000000000002E-09, 489.999, 1.21332E-10, -0.00019516000000000002, 25
DataValue, -1.095E-08, 500.0025, 1.2128000000000002E-10, -0.000195085, 25
DataValue, -6.4200000000000006E-09, 509.99850000000004, 1.21374E-10, -0.000194699, 25
DataValue, 1.8500000000000002E-09, 520.0005, 1.21302E-10, -0.00019457300000000002, 25
DataValue, 2.77E-09, 529.9935, 1.21272E-10, -0.000194813, 25
DataValue, -5.9300000000000008E-09, 539.9985, 1.21251E-10, -0.00019410800000000002, 25
DataValue, 2.8300000000000004E-09, 549.996, 1.21309E-10, -0.000194732, 25
DataValue, 2.31E-09, 560.001, 1.21362E-10, -0.000194951, 25
DataValue, -7.980000000000001E-09, 570.0045, 1.2145400000000001E-10, -0.00019493400000000001, 25
DataValue, 3.6500000000000004E-09, 579.996, 1.21416E-10, -0.000194982, 25
DataValue, -6.3900000000000005E-09, 590.001, 1.2133700000000002E-10, -0.000194591, 25
DataValue, 9.5E-10, 599.997, 1.2138200000000002E-10, -0.000194935, 25
SetupTitle, Cgs
PrimitiveTest, C-V Sweep
TestParameter, Channel.UnitTyp, CMU, SMU
TestParameter, Channel.Unit, Gate, VdBias
TestParameter, Channel.IName, , Ids
TestParameter, Channel.VName, VBias, Vdrain
TestParameter, Channel.Mode, , V
TestParameter, Channel.Func, CONST, VAR1
TestParameter, Channel.Index, 
TestParameter, Channel.Time, 
TestParameter, Measurement.Primary.Locus, Single
TestParameter, Measurement.Primary.Scale, Scale
TestParameter, Measurement.Primary.Start, VdStart*Polarity
TestParameter, Measurement.Primary.Stop, VdStop*Polarity
TestParameter, Measurement.Primary.Compliance, IdLimit
TestParameter, Measurement.Primary.Step, VdLinearStep*Polarity
TestParameter, Measurement.Aborting.Condition, CONTINUE AT ANY
TestParameter, Measurement.PostOutput.Value, START
TestParameter, Measurement.PostOutput.Retention, OFF
TestParameter, Measurement.Secondary.ACLevel, OscLevel
TestParameter, Measurement.Secondary.FName, Freq
TestParameter, Measurement.Secondary.Frequency, Frequency
TestParameter, Measurement.Bias.Source, 0, 0
TestParameter, Measurement.ImpedanceMode.Model, Cp-G
TestParameter, Measurement.ImpedanceMode.CName, Cgs
TestParameter, Measurement.ImpedanceMode.LName, L
TestParameter, Measurement.ImpedanceMode.GName, G
TestParameter, Measurement.ImpedanceMode.RName, R
TestParameter, Measurement.ImpedanceMode.QName, Q
TestParameter, Measurement.ImpedanceMode.DName, D
TestParameter, Measurement.ImpedanceMode.YName, Y
TestParameter, Measurement.ImpedanceMode.ZName, Z
TestParameter, Measurement.ImpedanceMode.ThName, Theta
TestParameter, Measurement.ImpedanceMode.BName, B
TestParameter, Measurement.ImpedanceMode.XName, X
TestParameter, Measurement.Monitor.Unit, CMU:=Gate, SMU:=VdBias
TestParameter, Measurement.Monitor.RangingMode, AUTO, LIMITED
TestParameter, Measurement.Monitor.RangeBoundary, 50, IdMinRange
TestParameter, Measurement.Monitor.AcMonitorSymbol, 
TestParameter, Measurement.Monitor.DcMonitorSymbol, 
TestParameter, Measurement.Timing.Hold, HoldTime
TestParameter, Measurement.Timing.Delay, DelayTime
TestParameter, Measurement.Adc.UnitType, Cmu, Smu
TestParameter, Measurement.Adc.HighResolution.Mode, IntegMode, IntegMode
TestParameter, Measurement.Adc.HighResolution.Coeff, AdcFactor, AdcFactor
TestParameter, Measurement.WaitTime.Source.Coeff, 1
TestParameter, Measurement.WaitTime.Source.Offset, 0
TestParameter, Measurement.WaitTime.Monitor.Coeff, 1
TestParameter, Measurement.WaitTime.Monitor.Offset, 0
TestParameter, Function.User.Name, Ta
TestParameter, Function.User.Unit, deg
TestParameter, Function.User.Definition, Temp
TestParameter, Output.Graph.Enabled, true
TestParameter, Output.Graph.AutoScaling, false
TestParameter, Output.Graph.XAxis.Data, Vdrain
TestParameter, Output.Graph.XAxis.Scale, ScaleStr
TestParameter, Output.Graph.XAxis.Left, VdStart*Polarity
TestParameter, Output.Graph.XAxis.Right, VdStop*Polarity
TestParameter, Output.Graph.XAxis.RunTimeAutoScale, false
TestParameter, Output.Graph.YAxis.Data, Cgs
TestParameter, Output.Graph.YAxis.Scale, Log
TestParameter, Output.Graph.YAxis.Bottom, YAxisCgsMin
TestParameter, Output.Graph.YAxis.Top, YAxisCgsMax
TestParameter, Output.Graph.YAxis.Group, 
TestParameter, Output.Graph.YAxis.RunTimeAutoScale, false
TestParameter, Output.List.Data, Vdrain, Cgs, Ids
TestParameter, Output.Scalar.Data, Ta
TestParameter, AutoAnalysis.Interpolation, true
TestParameter, AutoAnalysis.Line1.Enabled, false
TestParameter, AutoAnalysis.Line1.Type, 1
TestParameter, AutoAnalysis.Line1.Fix, True
TestParameter, AutoAnalysis.Line1.YAxis, 0
TestParameter, AutoAnalysis.Line1.Point1.Type, 0
TestParameter, AutoAnalysis.Line1.Point1.XY.X, 
TestParameter, AutoAnalysis.Line1.Point1.XY.Y, 
TestParameter, AutoAnalysis.Line1.Point1.Data.Var, 
TestParameter, AutoAnalysis.Line1.Point1.Data.Condition, 
TestParameter, AutoAnalysis.Line1.Point1.Data.Start, false
TestParameter, AutoAnalysis.Line1.Point1.Data.StartVar, 
TestParameter, AutoAnalysis.Line1.Point1.Data.StartCondition, 
TestParameter, AutoAnalysis.Line1.Point2.Type, 0
TestParameter, AutoAnalysis.Line1.Point2.XY.X, 
TestParameter, AutoAnalysis.Line1.Point2.XY.Y, 
TestParameter, AutoAnalysis.Line1.Point2.Data.Var, 
TestParameter, AutoAnalysis.Line1.Point2.Data.Condition, 
TestParameter, AutoAnalysis.Line1.Point2.Data.Start, false
TestParameter, AutoAnalysis.Line1.Point2.Data.StartVar, 
TestParameter, AutoAnalysis.Line1.Point2.Data.StartCondition, 
TestParameter, AutoAnalysis.Line1.GradientExpr, 0
TestParameter, AutoAnalysis.Line2.Enabled, false
TestParameter, AutoAnalysis.Line2.Type, 1
TestParameter, AutoAnalysis.Line2.Fix, True
TestParameter, AutoAnalysis.Line2.YAxis, 0
TestParameter, AutoAnalysis.Line2.Point1.Type, 0
TestParameter, AutoAnalysis.Line2.Point1.XY.X, 
TestParameter, AutoAnalysis.Line2.Point1.XY.Y, 
TestParameter, AutoAnalysis.Line2.Point1.Data.Var, 
TestParameter, AutoAnalysis.Line2.Point1.Data.Condition, 
TestParameter, AutoAnalysis.Line2.Point1.Data.Start, false
TestParameter, AutoAnalysis.Line2.Point1.Data.StartVar, 
TestParameter, AutoAnalysis.Line2.Point1.Data.StartCondition, 
TestParameter, AutoAnalysis.Line2.Point2.Type, 0
TestParameter, AutoAnalysis.Line2.Point2.XY.X, 
TestParameter, AutoAnalysis.Line2.Point2.XY.Y, 
TestParameter, AutoAnalysis.Line2.Point2.Data.Var, 
TestParameter, AutoAnalysis.Line2.Point2.Data.Condition, 
TestParameter, AutoAnalysis.Line2.Point2.Data.Start, false
TestParameter, AutoAnalysis.Line2.Point2.Data.StartVar, 
TestParameter, AutoAnalysis.Line2.Point2.Data.StartCondition, 
TestParameter, AutoAnalysis.Line2.GradientExpr, 0
TestParameter, AutoAnalysis.Marker.Enabled, false
TestParameter, AutoAnalysis.Marker.Data.Var, 
TestParameter, AutoAnalysis.Marker.Data.Condition, 
TestParameter, AutoAnalysis.Marker.Data.Start, false
TestParameter, AutoAnalysis.Marker.Data.StartVar, 
TestParameter, AutoAnalysis.Marker.Data.StartCondition, 
MetaData, TestRecord.EntryPoint, false
MetaData, TestRecord.RecordTime, 04/23/2021 14:58:01
MetaData, TestRecord.TestTarget, 
MetaData, TestRecord.IterationIndex, 35
MetaData, TestRecord.Preservation, true
MetaData, TestRecord.Flag, 
MetaData, TestRecord.Remarks, 
MetaData, TestRecord.LinkKey, 5058c4e4-b299-4b4d-acb0-48ddf0864ac1
Dimension1, 61, 61, 61, 61, 61
Dimension2, 1, 1, 1, 1, 1
DataName, Ids, Vdrain, Cgs, G, Ta
DataValue, 2.9000000000000003E-10, -0.003, 1.21206E-10, -0.00019442300000000002, 25
DataValue, -2.29E-09, 10.002, 1.21178E-10, -0.00019481200000000002, 25
DataValue, -2.3300000000000004E-09, 20.001, 1.2119500000000001E-10, -0.000194885, 25
DataValue, 8.0000000000000008E-11, 29.9985, 1.21185E-10, -0.00019498600000000002, 25
DataValue, -2.9800000000000005E-09, 40.002, 1.2121400000000002E-10, -0.00019550100000000002, 25
DataValue, 9.300000000000001E-10, 49.998, 1.21139E-10, -0.000194964, 25
DataValue, 4.14E-09, 59.997, 1.2119800000000001E-10, -0.00019481400000000002, 25
DataValue, -4.65E-09, 70.002, 1.21175E-10, -0.000195052, 25
DataValue, -9.11E-09, 80.0025, 1.2116200000000002E-10, -0.000195166, 25
DataValue, -4E-09, 90, 1.2124400000000002E-10, -0.000194803, 25
DataValue, -4.1300000000000004E-09, 100.002, 1.21101E-10, -0.00019486200000000002, 25
DataValue, -4.9400000000000007E-09, 109.9995, 1.2122300000000002E-10, -0.00019472, 25
DataValue, 2.19E-09, 119.9985, 1.21323E-10, -0.00019488600000000002, 25
DataValue, -3.2100000000000003E-09, 129.9975, 1.21272E-10, -0.000194322, 25
DataValue, -1.65E-09, 139.9965, 1.21179E-10, -0.000195119, 25
DataValue, -1.0300000000000001E-08, 150.0045, 1.2116200000000002E-10, -0.00019389, 25
DataValue, 9.300000000000001E-10, 160.00050000000002, 1.21258E-10, -0.00019523900000000002, 25
DataValue, -4.04E-09, 169.998, 1.2111400000000002E-10, -0.000195147, 25
DataValue, -5.33E-09, 180.0015, 1.21161E-10, -0.000194846, 25
DataValue, -3.4600000000000005E-09, 189.999, 1.21191E-10, -0.00019430100000000002, 25
DataValue, -3.2800000000000003E-09, 199.9965, 1.2124E-10, -0.000195051, 25
DataValue, -3.7800000000000006E-09, 210, 1.21297E-10, -0.000194644, 25
DataValue, -9.59E-09, 220.0035, 1.2120400000000001E-10, -0.000194734, 25
DataValue, -7.4800000000000015E-09, 230.001, 1.21246E-10, -0.000194861, 25
DataValue, -5.3E-10, 239.997, 1.2125900000000002E-10, -0.00019478800000000002, 25
DataValue, -2.55E-09, 249.999, 1.2121700000000002E-10, -0.00019476, 25
DataValue, -3.8100000000000007E-09, 260.0025, 1.2124E-10, -0.000194947, 25
DataValue, 7.9000000000000006E-10, 269.9955, 1.21212E-10, -0.00019411300000000002, 25
DataValue, -3.5700000000000003E-09, 280.0005, 1.21242E-10, -0.00019397400000000002, 25
DataValue, -1.5800000000000001E-09, 289.998, 1.21285E-10, -0.000194326, 25
DataValue, -3.93E-09, 300, 1.2123200000000002E-10, -0.00019525800000000002, 25
DataValue, -6.610000000000001E-09, 310.005, 1.2133E-10, -0.00019467600000000002, 25
DataValue, -5.4600000000000006E-09, 320.0025, 1.2118900000000001E-10, -0.000194677, 25
DataValue, -6.1400000000000007E-09, 330, 1.21231E-10, -0.000194754, 25
DataValue, -2.6100000000000003E-09, 339.996, 1.2136700000000002E-10, -0.000194362, 25
DataValue, -2.9000000000000003E-10, 349.995, 1.2122500000000001E-10, -0.00019476700000000001, 25
DataValue, -2.84E-09, 360.0045, 1.21354E-10, -0.00019481200000000002, 25
DataValue, -1.9100000000000002E-09, 369.996, 1.21281E-10, -0.000195045, 25
DataValue, -4.0200000000000006E-09, 380.00100000000003, 1.21275E-10, -0.000194944, 25
DataValue, -6.230000000000001E-09, 390, 1.21255E-10, -0.00019430600000000002, 25
DataValue, -4.2900000000000007E-09, 400.002, 1.21254E-10, -0.00019519800000000002, 25
DataValue, -8.6500000000000014E-09, 410.00100000000003, 1.21294E-10, -0.00019487900000000002, 25
DataValue, -2.24E-09, 419.99850000000004, 1.21305E-10, -0.00019518, 25
DataValue, -7.9000000000000006E-10, 430.002, 1.21267E-10, -0.000195014, 25
DataValue, -4.27E-09, 440.004, 1.2124400000000002E-10, -0.00019463100000000001, 25
DataValue, -3.5100000000000005E-09, 449.997, 1.2129500000000002E-10, -0.000194367, 25
DataValue, -7.2700000000000007E-09, 460.005, 1.21317E-10, -0.000195025, 25
DataValue, 6.6300000000000005E-09, 470.00100000000003, 1.21287E-10, -0.00019459900000000003, 25
DataValue, 1.3100000000000002E-09, 480.0015, 1.21321E-10, -0.00019451, 25
DataValue, -1.1500000000000002E-09, 489.999, 1.21332E-10, -0.00019516000000000002, 25
DataValue, -1.095E-08, 500.0025, 1.2128000000000002E-10, -0.000195085, 25
DataValue, -6.4200000000000006E-09, 509.99850000000004, 1.21374E-10, -0.000194699, 25
DataValue, 1.8500000000000002E-09, 520.0005, 1.21302E-10, -0.00019457300000000002, 25
DataValue, 2.77E-09, 529.9935, 1.21272E-10, -0.000194813, 25
DataValue, -5.9300000000000008E-09, 539.9985, 1.21251E-10, -0.00019410800000000002, 25
DataValue, 2.8300000000000004E-09, 549.996, 1.21309E-10, -0.000194732, 25
DataValue, 2.31E-09, 560.001, 1.21362E-10, -0.000194951, 25
DataValue, -7.980000000000001E-09, 570.0045, 1.2145400000000001E-10, -0.00019493400000000001, 25
DataValue, 3.6500000000000004E-09, 579.996, 1.21416E-10, -0.000194982, 25
DataValue, -6.3900000000000005E-09, 590.001, 1.2133700000000002E-10, -0.000194591, 25
DataValue, 9.5E-10, 599.997, 1.2138200000000002E-10, -0.000194935, 25