
SetupTitle, Cgs
ApplicationTest, Cgs, Public
TestParameter, Name, Memo, IntegTime, Frequency, OscLevel, Scale, Gate, VdBias, VdStart, VdStop, VdLinearStep, IdLimit, HoldTime, DelayTime, IdMinRange
TestParameter, Value, , SHORT, 1000000, 0.025, LINEAR, CMU1:MF	MFCMU, SMU6:HV	HVSMU, 0, 600, 10, 0.004, 1, 1, 10uA
DutParameter, Name, Polarity, Temp, YAxisCgsMin, YAxisCgsMax
DutParameter, Value, 1, 25, 1E-12, 5E-09
MetaData, TestRecord.EntryPoint, true
MetaData, TestRecord.RecordTime, 12/28/2020 13:46:18
MetaData, TestRecord.TestTarget, 
MetaData, TestRecord.IterationIndex, 33
MetaData, TestRecord.Preservation, true
MetaData, TestRecord.Flag, 
MetaData, TestRecord.Remarks, 
MetaData, TestRecord.LinkKey, 028073be-c833-4579-8c54-706042142d4a
Dimension1, 61, 61, 61, 61, 61
Dimension2, 1, 1, 1, 1, 1
DataName, Ids, Vdrain, Cgs, G, Ta
DataValue, 2.2000000000000002E-10, 0, 2.76861E-10, -0.00040629200000000005, 25
DataValue, -7.1200000000000011E-09, 10.0005, 2.7690000000000005E-10, -0.000405578, 25
DataValue, -6.2500000000000005E-09, 20.004, 2.76855E-10, -0.00040629100000000003, 25
DataValue, -1.3100000000000002E-09, 29.9985, 2.7693600000000005E-10, -0.00040655400000000005, 25
DataValue, 1.5600000000000002E-09, 39.9975, 2.76956E-10, -0.000406235, 25
DataValue, -7.74E-09, 50.0025, 2.7683800000000003E-10, -0.00040710800000000005, 25
DataValue, -4.35E-09, 60, 2.76909E-10, -0.00040564100000000004, 25
DataValue, -7.4900000000000012E-09, 70.0005, 2.76855E-10, -0.00040568900000000004, 25
DataValue, -5.9400000000000006E-09, 80.001, 2.7692E-10, -0.000406239, 25
DataValue, -7.68E-09, 90.003, 2.76939E-10, -0.000406468, 25
DataValue, -9.57E-09, 100.0005, 2.76962E-10, -0.000405604, 25
DataValue, -3.1700000000000004E-09, 109.998, 2.7685000000000003E-10, -0.00040626100000000005, 25
DataValue, -3.3500000000000002E-09, 120.003, 2.7691200000000005E-10, -0.00040635700000000004, 25
DataValue, -6.5900000000000006E-09, 130.0035, 2.7689900000000004E-10, -0.00040585400000000003, 25
DataValue, -3.1E-10, 139.998, 2.7697600000000003E-10, -0.000406414, 25
DataValue, -3.5900000000000002E-09, 150.0015, 2.76945E-10, -0.000406184, 25
DataValue, -3.0900000000000003E-09, 160.00050000000002, 2.7705000000000004E-10, -0.000406518, 25
DataValue, -2.02E-09, 169.9995, 2.76907E-10, -0.000405856, 25
DataValue, -4.6300000000000008E-09, 180.0015, 2.7687500000000004E-10, -0.000406452, 25
DataValue, -2.2800000000000004E-09, 190.002, 2.76895E-10, -0.000406156, 25
DataValue, -5.44E-09, 199.9995, 2.7696400000000003E-10, -0.000406575, 25
DataValue, -6.4900000000000005E-09, 210.0045, 2.76853E-10, -0.000405822, 25
DataValue, -9.8800000000000015E-09, 220.00050000000002, 2.76987E-10, -0.000406551, 25
DataValue, -9.78E-09, 230.0085, 2.76884E-10, -0.00040617500000000005, 25
DataValue, -7.25E-09, 239.9985, 2.77E-10, -0.00040611900000000003, 25
DataValue, -1.101E-08, 250.0035, 2.76878E-10, -0.000406428, 25
DataValue, -3.9900000000000005E-09, 259.9965, 2.7699400000000003E-10, -0.000406555, 25
DataValue, -1.1660000000000002E-08, 270.0075, 2.7694600000000003E-10, -0.000406623, 25
DataValue, -2.09E-09, 279.999, 2.7697100000000004E-10, -0.000406527, 25
DataValue, -7.8300000000000013E-09, 290.004, 2.7695300000000004E-10, -0.00040661100000000003, 25
DataValue, -6.5900000000000006E-09, 300.0045, 2.7700100000000003E-10, -0.000406255, 25
DataValue, -5.2E-09, 310.0005, 2.7699400000000003E-10, -0.000405818, 25
DataValue, -5.34E-09, 319.9995, 2.76968E-10, -0.000406558, 25
DataValue, -2.53E-09, 330.0045, 2.76933E-10, -0.00040684, 25
DataValue, -5.2600000000000004E-09, 339.996, 2.7693500000000004E-10, -0.00040624700000000004, 25
DataValue, -2.9700000000000003E-09, 349.998, 2.7691100000000004E-10, -0.000405973, 25
DataValue, -7.1200000000000011E-09, 360.003, 2.7691000000000003E-10, -0.000406566, 25
DataValue, -4.2600000000000006E-09, 369.9975, 2.7703700000000003E-10, -0.00040619900000000005, 25
DataValue, -6.02E-09, 380.00100000000003, 2.76921E-10, -0.00040667000000000003, 25
DataValue, -8.82E-09, 390.003, 2.76986E-10, -0.000406021, 25
DataValue, -2.14E-09, 399.999, 2.7703E-10, -0.00040631900000000004, 25
DataValue, -7.1700000000000007E-09, 410.0025, 2.7698E-10, -0.00040644300000000004, 25
DataValue, -1.149E-08, 420.003, 2.76993E-10, -0.00040609800000000003, 25
DataValue, -1.92E-09, 430.0005, 2.76997E-10, -0.000406548, 25
DataValue, -5.3900000000000006E-09, 439.995, 2.76979E-10, -0.00040665300000000004, 25
DataValue, -2.4900000000000003E-09, 450.0045, 2.77023E-10, -0.00040645000000000004, 25
DataValue, -1.92E-09, 460.002, 2.7697000000000003E-10, -0.000406407, 25
DataValue, -6.370000000000001E-09, 470.0025, 2.7712700000000003E-10, -0.000406207, 25
DataValue, -1.07E-09, 479.99850000000004, 2.76981E-10, -0.000406, 25
DataValue, -5.0900000000000004E-09, 490.0065, 2.7711100000000005E-10, -0.00040674, 25
DataValue, -7.15E-09, 500.0025, 2.7695900000000004E-10, -0.000406279, 25
DataValue, -3.2600000000000003E-09, 509.99850000000004, 2.77095E-10, -0.00040615800000000005, 25
DataValue, -9.9700000000000009E-09, 520.0035, 2.7703E-10, -0.000405991, 25
DataValue, -6.09E-09, 529.998, 2.77057E-10, -0.00040621900000000004, 25
DataValue, 8.400000000000001E-10, 540, 2.77053E-10, -0.00040629100000000003, 25
DataValue, -1.033E-08, 550.0035, 2.77012E-10, -0.000406689, 25
DataValue, -4.2E-09, 559.9965, 2.7696500000000004E-10, -0.00040618800000000004, 25
DataValue, -4.3300000000000006E-09, 570.0015, 2.77077E-10, -0.00040705200000000003, 25
DataValue, -1.5700000000000002E-09, 579.9945, 2.77054E-10, -0.00040586800000000004, 25
DataValue, -1.0890000000000002E-08, 590.001, 2.77027E-10, -0.00040675300000000004, 25
DataValue, -3.7800000000000006E-09, 599.997, 2.7711500000000003E-10, -0.00040647700000000003, 25
SetupTitle, Cgs
PrimitiveTest, C-V Sweep
TestParameter, Channel.UnitTyp, CMU, SMU
TestParameter, Channel.Unit, Gate, VdBias
TestParameter, Channel.IName, , Ids
TestParameter, Channel.VName, VBias, Vdrain
TestParameter, Channel.Mode, , V
TestParameter, Channel.Func, CONST, VAR1
TestParameter, Channel.Index, 
TestParameter, Channel.Time, 
TestParameter, Measurement.Primary.Locus, Single
TestParameter, Measurement.Primary.Scale, Scale
TestParameter, Measurement.Primary.Start, VdStart*Polarity
TestParameter, Measurement.Primary.Stop, VdStop*Polarity
TestParameter, Measurement.Primary.Compliance, IdLimit
TestParameter, Measurement.Primary.Step, VdLinearStep*Polarity
TestParameter, Measurement.Aborting.Condition, CONTINUE AT ANY
TestParameter, Measurement.PostOutput.Value, START
TestParameter, Measurement.PostOutput.Retention, OFF
TestParameter, Measurement.Secondary.ACLevel, OscLevel
TestParameter, Measurement.Secondary.FName, Freq
TestParameter, Measurement.Secondary.Frequency, Frequency
TestParameter, Measurement.Bias.Source, 0, 0
TestParameter, Measurement.ImpedanceMode.Model, Cp-G
TestParameter, Measurement.ImpedanceMode.CName, Cgs
TestParameter, Measurement.ImpedanceMode.LName, L
TestParameter, Measurement.ImpedanceMode.GName, G
TestParameter, Measurement.ImpedanceMode.RName, R
TestParameter, Measurement.ImpedanceMode.QName, Q
TestParameter, Measurement.ImpedanceMode.DName, D
TestParameter, Measurement.ImpedanceMode.YName, Y
TestParameter, Measurement.ImpedanceMode.ZName, Z
TestParameter, Measurement.ImpedanceMode.ThName, Theta
TestParameter, Measurement.ImpedanceMode.BName, B
TestParameter, Measurement.ImpedanceMode.XName, X
TestParameter, Measurement.Monitor.Unit, CMU:=Gate, SMU:=VdBias
TestParameter, Measurement.Monitor.RangingMode, AUTO, LIMITED
TestParameter, Measurement.Monitor.RangeBoundary, 50, IdMinRange
TestParameter, Measurement.Monitor.AcMonitorSymbol, 
TestParameter, Measurement.Monitor.DcMonitorSymbol, 
TestParameter, Measurement.Timing.Hold, HoldTime
TestParameter, Measurement.Timing.Delay, DelayTime
TestParameter, Measurement.Adc.UnitType, Cmu, Smu
TestParameter, Measurement.Adc.HighResolution.Mode, IntegMode, IntegMode
TestParameter, Measurement.Adc.HighResolution.Coeff, AdcFactor, AdcFactor
TestParameter, Measurement.WaitTime.Source.Coeff, 1
TestParameter, Measurement.WaitTime.Source.Offset, 0
TestParameter, Measurement.WaitTime.Monitor.Coeff, 1
TestParameter, Measurement.WaitTime.Monitor.Offset, 0
TestParameter, Function.User.Name, Ta
TestParameter, Function.User.Unit, deg
TestParameter, Function.User.Definition, Temp
TestParameter, Output.Graph.Enabled, true
TestParameter, Output.Graph.AutoScaling, false
TestParameter, Output.Graph.XAxis.Data, Vdrain
TestParameter, Output.Graph.XAxis.Scale, ScaleStr
TestParameter, Output.Graph.XAxis.Left, VdStart*Polarity
TestParameter, Output.Graph.XAxis.Right, VdStop*Polarity
TestParameter, Output.Graph.XAxis.RunTimeAutoScale, false
TestParameter, Output.Graph.YAxis.Data, Cgs
TestParameter, Output.Graph.YAxis.Scale, Log
TestParameter, Output.Graph.YAxis.Bottom, YAxisCgsMin
TestParameter, Output.Graph.YAxis.Top, YAxisCgsMax
TestParameter, Output.Graph.YAxis.Group, 
TestParameter, Output.Graph.YAxis.RunTimeAutoScale, false
TestParameter, Output.List.Data, Vdrain, Cgs, Ids
TestParameter, Output.Scalar.Data, Ta
TestParameter, AutoAnalysis.Interpolation, true
TestParameter, AutoAnalysis.Line1.Enabled, false
TestParameter, AutoAnalysis.Line1.Type, 1
TestParameter, AutoAnalysis.Line1.Fix, True
TestParameter, AutoAnalysis.Line1.YAxis, 0
TestParameter, AutoAnalysis.Line1.Point1.Type, 0
TestParameter, AutoAnalysis.Line1.Point1.XY.X, 
TestParameter, AutoAnalysis.Line1.Point1.XY.Y, 
TestParameter, AutoAnalysis.Line1.Point1.Data.Var, 
TestParameter, AutoAnalysis.Line1.Point1.Data.Condition, 
TestParameter, AutoAnalysis.Line1.Point1.Data.Start, false
TestParameter, AutoAnalysis.Line1.Point1.Data.StartVar, 
TestParameter, AutoAnalysis.Line1.Point1.Data.StartCondition, 
TestParameter, AutoAnalysis.Line1.Point2.Type, 0
TestParameter, AutoAnalysis.Line1.Point2.XY.X, 
TestParameter, AutoAnalysis.Line1.Point2.XY.Y, 
TestParameter, AutoAnalysis.Line1.Point2.Data.Var, 
TestParameter, AutoAnalysis.Line1.Point2.Data.Condition, 
TestParameter, AutoAnalysis.Line1.Point2.Data.Start, false
TestParameter, AutoAnalysis.Line1.Point2.Data.StartVar, 
TestParameter, AutoAnalysis.Line1.Point2.Data.StartCondition, 
TestParameter, AutoAnalysis.Line1.GradientExpr, 0
TestParameter, AutoAnalysis.Line2.Enabled, false
TestParameter, AutoAnalysis.Line2.Type, 1
TestParameter, AutoAnalysis.Line2.Fix, True
TestParameter, AutoAnalysis.Line2.YAxis, 0
TestParameter, AutoAnalysis.Line2.Point1.Type, 0
TestParameter, AutoAnalysis.Line2.Point1.XY.X, 
TestParameter, AutoAnalysis.Line2.Point1.XY.Y, 
TestParameter, AutoAnalysis.Line2.Point1.Data.Var, 
TestParameter, AutoAnalysis.Line2.Point1.Data.Condition, 
TestParameter, AutoAnalysis.Line2.Point1.Data.Start, false
TestParameter, AutoAnalysis.Line2.Point1.Data.StartVar, 
TestParameter, AutoAnalysis.Line2.Point1.Data.StartCondition, 
TestParameter, AutoAnalysis.Line2.Point2.Type, 0
TestParameter, AutoAnalysis.Line2.Point2.XY.X, 
TestParameter, AutoAnalysis.Line2.Point2.XY.Y, 
TestParameter, AutoAnalysis.Line2.Point2.Data.Var, 
TestParameter, AutoAnalysis.Line2.Point2.Data.Condition, 
TestParameter, AutoAnalysis.Line2.Point2.Data.Start, false
TestParameter, AutoAnalysis.Line2.Point2.Data.StartVar, 
TestParameter, AutoAnalysis.Line2.Point2.Data.StartCondition, 
TestParameter, AutoAnalysis.Line2.GradientExpr, 0
TestParameter, AutoAnalysis.Marker.Enabled, false
TestParameter, AutoAnalysis.Marker.Data.Var, 
TestParameter, AutoAnalysis.Marker.Data.Condition, 
TestParameter, AutoAnalysis.Marker.Data.Start, false
TestParameter, AutoAnalysis.Marker.Data.StartVar, 
TestParameter, AutoAnalysis.Marker.Data.StartCondition, 
MetaData, TestRecord.EntryPoint, false
MetaData, TestRecord.RecordTime, 12/28/2020 13:46:18
MetaData, TestRecord.TestTarget, 
MetaData, TestRecord.IterationIndex, 33
MetaData, TestRecord.Preservation, true
MetaData, TestRecord.Flag, 
MetaData, TestRecord.Remarks, 
MetaData, TestRecord.LinkKey, 028073be-c833-4579-8c54-706042142d4a
Dimension1, 61, 61, 61, 61, 61
Dimension2, 1, 1, 1, 1, 1
DataName, Ids, Vdrain, Cgs, G, Ta
DataValue, 2.2000000000000002E-10, 0, 2.76861E-10, -0.00040629200000000005, 25
DataValue, -7.1200000000000011E-09, 10.0005, 2.7690000000000005E-10, -0.000405578, 25
DataValue, -6.2500000000000005E-09, 20.004, 2.76855E-10, -0.00040629100000000003, 25
DataValue, -1.3100000000000002E-09, 29.9985, 2.7693600000000005E-10, -0.00040655400000000005, 25
DataValue, 1.5600000000000002E-09, 39.9975, 2.76956E-10, -0.000406235, 25
DataValue, -7.74E-09, 50.0025, 2.7683800000000003E-10, -0.00040710800000000005, 25
DataValue, -4.35E-09, 60, 2.76909E-10, -0.00040564100000000004, 25
DataValue, -7.4900000000000012E-09, 70.0005, 2.76855E-10, -0.00040568900000000004, 25
DataValue, -5.9400000000000006E-09, 80.001, 2.7692E-10, -0.000406239, 25
DataValue, -7.68E-09, 90.003, 2.76939E-10, -0.000406468, 25
DataValue, -9.57E-09, 100.0005, 2.76962E-10, -0.000405604, 25
DataValue, -3.1700000000000004E-09, 109.998, 2.7685000000000003E-10, -0.00040626100000000005, 25
DataValue, -3.3500000000000002E-09, 120.003, 2.7691200000000005E-10, -0.00040635700000000004, 25
DataValue, -6.5900000000000006E-09, 130.0035, 2.7689900000000004E-10, -0.00040585400000000003, 25
DataValue, -3.1E-10, 139.998, 2.7697600000000003E-10, -0.000406414, 25
DataValue, -3.5900000000000002E-09, 150.0015, 2.76945E-10, -0.000406184, 25
DataValue, -3.0900000000000003E-09, 160.00050000000002, 2.7705000000000004E-10, -0.000406518, 25
DataValue, -2.02E-09, 169.9995, 2.76907E-10, -0.000405856, 25
DataValue, -4.6300000000000008E-09, 180.0015, 2.7687500000000004E-10, -0.000406452, 25
DataValue, -2.2800000000000004E-09, 190.002, 2.76895E-10, -0.000406156, 25
DataValue, -5.44E-09, 199.9995, 2.7696400000000003E-10, -0.000406575, 25
DataValue, -6.4900000000000005E-09, 210.0045, 2.76853E-10, -0.000405822, 25
DataValue, -9.8800000000000015E-09, 220.00050000000002, 2.76987E-10, -0.000406551, 25
DataValue, -9.78E-09, 230.0085, 2.76884E-10, -0.00040617500000000005, 25
DataValue, -7.25E-09, 239.9985, 2.77E-10, -0.00040611900000000003, 25
DataValue, -1.101E-08, 250.0035, 2.76878E-10, -0.000406428, 25
DataValue, -3.9900000000000005E-09, 259.9965, 2.7699400000000003E-10, -0.000406555, 25
DataValue, -1.1660000000000002E-08, 270.0075, 2.7694600000000003E-10, -0.000406623, 25
DataValue, -2.09E-09, 279.999, 2.7697100000000004E-10, -0.000406527, 25
DataValue, -7.8300000000000013E-09, 290.004, 2.7695300000000004E-10, -0.00040661100000000003, 25
DataValue, -6.5900000000000006E-09, 300.0045, 2.7700100000000003E-10, -0.000406255, 25
DataValue, -5.2E-09, 310.0005, 2.7699400000000003E-10, -0.000405818, 25
DataValue, -5.34E-09, 319.9995, 2.76968E-10, -0.000406558, 25
DataValue, -2.53E-09, 330.0045, 2.76933E-10, -0.00040684, 25
DataValue, -5.2600000000000004E-09, 339.996, 2.7693500000000004E-10, -0.00040624700000000004, 25
DataValue, -2.9700000000000003E-09, 349.998, 2.7691100000000004E-10, -0.000405973, 25
DataValue, -7.1200000000000011E-09, 360.003, 2.7691000000000003E-10, -0.000406566, 25
DataValue, -4.2600000000000006E-09, 369.9975, 2.7703700000000003E-10, -0.00040619900000000005, 25
DataValue, -6.02E-09, 380.00100000000003, 2.76921E-10, -0.00040667000000000003, 25
DataValue, -8.82E-09, 390.003, 2.76986E-10, -0.000406021, 25
DataValue, -2.14E-09, 399.999, 2.7703E-10, -0.00040631900000000004, 25
DataValue, -7.1700000000000007E-09, 410.0025, 2.7698E-10, -0.00040644300000000004, 25
DataValue, -1.149E-08, 420.003, 2.76993E-10, -0.00040609800000000003, 25
DataValue, -1.92E-09, 430.0005, 2.76997E-10, -0.000406548, 25
DataValue, -5.3900000000000006E-09, 439.995, 2.76979E-10, -0.00040665300000000004, 25
DataValue, -2.4900000000000003E-09, 450.0045, 2.77023E-10, -0.00040645000000000004, 25
DataValue, -1.92E-09, 460.002, 2.7697000000000003E-10, -0.000406407, 25
DataValue, -6.370000000000001E-09, 470.0025, 2.7712700000000003E-10, -0.000406207, 25
DataValue, -1.07E-09, 479.99850000000004, 2.76981E-10, -0.000406, 25
DataValue, -5.0900000000000004E-09, 490.0065, 2.7711100000000005E-10, -0.00040674, 25
DataValue, -7.15E-09, 500.0025, 2.7695900000000004E-10, -0.000406279, 25
DataValue, -3.2600000000000003E-09, 509.99850000000004, 2.77095E-10, -0.00040615800000000005, 25
DataValue, -9.9700000000000009E-09, 520.0035, 2.7703E-10, -0.000405991, 25
DataValue, -6.09E-09, 529.998, 2.77057E-10, -0.00040621900000000004, 25
DataValue, 8.400000000000001E-10, 540, 2.77053E-10, -0.00040629100000000003, 25
DataValue, -1.033E-08, 550.0035, 2.77012E-10, -0.000406689, 25
DataValue, -4.2E-09, 559.9965, 2.7696500000000004E-10, -0.00040618800000000004, 25
DataValue, -4.3300000000000006E-09, 570.0015, 2.77077E-10, -0.00040705200000000003, 25
DataValue, -1.5700000000000002E-09, 579.9945, 2.77054E-10, -0.00040586800000000004, 25
DataValue, -1.0890000000000002E-08, 590.001, 2.77027E-10, -0.00040675300000000004, 25
DataValue, -3.7800000000000006E-09, 599.997, 2.7711500000000003E-10, -0.00040647700000000003, 25