
SetupTitle, Cgs
ApplicationTest, Cgs, Public
TestParameter, Name, Memo, IntegTime, Frequency, OscLevel, Scale, Gate, VdBias, VdStart, VdStop, VdLinearStep, IdLimit, HoldTime, DelayTime, IdMinRange
TestParameter, Value, , SHORT, 1000000, 0.025, LINEAR, CMU1:MF	MFCMU, SMU6:HV	HVSMU, 0, 50, 1, 0.004, 1, 1, 10uA
DutParameter, Name, Polarity, Temp, YAxisCgsMin, YAxisCgsMax
DutParameter, Value, 1, 25, 1E-12, 5E-09
MetaData, TestRecord.EntryPoint, true
MetaData, TestRecord.RecordTime, 12/28/2020 13:32:29
MetaData, TestRecord.TestTarget, 
MetaData, TestRecord.IterationIndex, 32
MetaData, TestRecord.Preservation, true
MetaData, TestRecord.Flag, 
MetaData, TestRecord.Remarks, 
MetaData, TestRecord.LinkKey, 086e10ee-743e-4415-937f-7db372412ab4
Dimension1, 51, 51, 51, 51, 51
Dimension2, 1, 1, 1, 1, 1
DataName, Ids, Vdrain, Cgs, G, Ta
DataValue, -2.1600000000000004E-09, -0.0044, 2.7553100000000004E-10, -0.000403886, 25
DataValue, -7.68E-09, 1.0012, 2.7556800000000005E-10, -0.00040402000000000005, 25
DataValue, -1.135E-08, 2.0068, 2.7556000000000003E-10, -0.0004039, 25
DataValue, -7.2400000000000006E-09, 3.0044, 2.75601E-10, -0.000404283, 25
DataValue, -2.1500000000000002E-09, 4.0008, 2.75551E-10, -0.00040419, 25
DataValue, -2.09E-09, 5, 2.75618E-10, -0.00040426300000000003, 25
DataValue, -7.54E-09, 6.0034, 2.75605E-10, -0.00040425700000000004, 25
DataValue, -7.430000000000001E-09, 7.003, 2.75647E-10, -0.00040346200000000005, 25
DataValue, 2.1100000000000004E-09, 7.998, 2.7563400000000004E-10, -0.00040396100000000004, 25
DataValue, -2.7100000000000004E-09, 8.9992, 2.7560800000000003E-10, -0.000403794, 25
DataValue, -7.500000000000001E-10, 9.9956, 2.7557900000000004E-10, -0.00040391200000000003, 25
DataValue, -4E-09, 10.998000000000001, 2.75685E-10, -0.00040423300000000004, 25
DataValue, -9.29E-09, 12.005600000000001, 2.7565700000000003E-10, -0.00040388200000000005, 25
DataValue, -4.2600000000000006E-09, 12.995800000000001, 2.7555600000000005E-10, -0.00040355100000000004, 25
DataValue, -3.2200000000000005E-09, 13.998000000000001, 2.75637E-10, -0.000403631, 25
DataValue, -6.470000000000001E-09, 15.001800000000001, 2.75629E-10, -0.00040444600000000004, 25
DataValue, -2.4400000000000003E-09, 15.999400000000001, 2.7565700000000003E-10, -0.00040353800000000005, 25
DataValue, -1.032E-08, 16.999000000000002, 2.75673E-10, -0.00040388500000000004, 25
DataValue, -6.540000000000001E-09, 18.0046, 2.7559100000000004E-10, -0.000403755, 25
DataValue, -3.6000000000000004E-09, 19.002200000000002, 2.75641E-10, -0.000404062, 25
DataValue, -2.5200000000000004E-09, 19.9948, 2.7560200000000003E-10, -0.00040422200000000003, 25
DataValue, 7.500000000000001E-10, 20.9954, 2.75678E-10, -0.000404034, 25
DataValue, -4.9000000000000007E-10, 22, 2.75732E-10, -0.00040392300000000004, 25
DataValue, -5.7600000000000008E-09, 23.0016, 2.756E-10, -0.00040316200000000004, 25
DataValue, -4.5000000000000006E-09, 24.003400000000003, 2.75674E-10, -0.000403938, 25
DataValue, -5.54E-09, 25.001800000000003, 2.7570500000000003E-10, -0.000404544, 25
DataValue, -1.4500000000000002E-09, 25.9956, 2.75733E-10, -0.00040429400000000003, 25
DataValue, 1.2100000000000002E-09, 26.9932, 2.7554900000000004E-10, -0.00040353400000000004, 25
DataValue, -8.5800000000000014E-09, 28.003800000000002, 2.75691E-10, -0.000403811, 25
DataValue, -4.38E-09, 29.006, 2.7564000000000004E-10, -0.000404073, 25
DataValue, -3.9E-09, 29.997200000000003, 2.75671E-10, -0.00040394700000000004, 25
DataValue, 2.0400000000000004E-09, 30.9952, 2.75533E-10, -0.000403783, 25
DataValue, 4.93E-09, 31.996000000000002, 2.75686E-10, -0.000404306, 25
DataValue, -6.6900000000000007E-09, 32.9998, 2.75637E-10, -0.000404321, 25
DataValue, -9.57E-09, 34.004200000000004, 2.7562000000000003E-10, -0.000403959, 25
DataValue, -9.1200000000000016E-09, 34.9988, 2.75581E-10, -0.000404214, 25
DataValue, -3.8500000000000006E-09, 35.9932, 2.7563900000000003E-10, -0.000403994, 25
DataValue, -3.5700000000000003E-09, 36.9974, 2.75655E-10, -0.00040377, 25
DataValue, -1.068E-08, 38.004400000000004, 2.75673E-10, -0.00040399, 25
DataValue, -5.0500000000000006E-09, 38.9972, 2.7565100000000003E-10, -0.000404118, 25
DataValue, -1.7E-10, 40.001200000000004, 2.7568100000000003E-10, -0.00040430500000000004, 25
DataValue, -5.2400000000000009E-09, 40.9992, 2.75698E-10, -0.00040417400000000004, 25
DataValue, -4.41E-09, 41.9986, 2.7556600000000003E-10, -0.00040368600000000005, 25
DataValue, 2.53E-09, 42.9944, 2.756E-10, -0.000404149, 25
DataValue, -4.0800000000000008E-09, 43.999, 2.75637E-10, -0.00040397800000000004, 25
DataValue, -5.4900000000000007E-09, 45, 2.7562600000000003E-10, -0.00040423200000000003, 25
DataValue, -4.9000000000000007E-10, 45.997600000000006, 2.7577E-10, -0.000404076, 25
DataValue, -1.3E-09, 46.9958, 2.75654E-10, -0.00040413900000000003, 25
DataValue, -1.0300000000000002E-09, 48.000600000000006, 2.75686E-10, -0.000403828, 25
DataValue, -2.4700000000000004E-09, 49.0032, 2.75623E-10, -0.00040430800000000003, 25
DataValue, -3.7400000000000007E-09, 49.9994, 2.75722E-10, -0.00040312700000000003, 25
SetupTitle, Cgs
PrimitiveTest, C-V Sweep
TestParameter, Channel.UnitTyp, CMU, SMU
TestParameter, Channel.Unit, Gate, VdBias
TestParameter, Channel.IName, , Ids
TestParameter, Channel.VName, VBias, Vdrain
TestParameter, Channel.Mode, , V
TestParameter, Channel.Func, CONST, VAR1
TestParameter, Channel.Index, 
TestParameter, Channel.Time, 
TestParameter, Measurement.Primary.Locus, Single
TestParameter, Measurement.Primary.Scale, Scale
TestParameter, Measurement.Primary.Start, VdStart*Polarity
TestParameter, Measurement.Primary.Stop, VdStop*Polarity
TestParameter, Measurement.Primary.Compliance, IdLimit
TestParameter, Measurement.Primary.Step, VdLinearStep*Polarity
TestParameter, Measurement.Aborting.Condition, CONTINUE AT ANY
TestParameter, Measurement.PostOutput.Value, START
TestParameter, Measurement.PostOutput.Retention, OFF
TestParameter, Measurement.Secondary.ACLevel, OscLevel
TestParameter, Measurement.Secondary.FName, Freq
TestParameter, Measurement.Secondary.Frequency, Frequency
TestParameter, Measurement.Bias.Source, 0, 0
TestParameter, Measurement.ImpedanceMode.Model, Cp-G
TestParameter, Measurement.ImpedanceMode.CName, Cgs
TestParameter, Measurement.ImpedanceMode.LName, L
TestParameter, Measurement.ImpedanceMode.GName, G
TestParameter, Measurement.ImpedanceMode.RName, R
TestParameter, Measurement.ImpedanceMode.QName, Q
TestParameter, Measurement.ImpedanceMode.DName, D
TestParameter, Measurement.ImpedanceMode.YName, Y
TestParameter, Measurement.ImpedanceMode.ZName, Z
TestParameter, Measurement.ImpedanceMode.ThName, Theta
TestParameter, Measurement.ImpedanceMode.BName, B
TestParameter, Measurement.ImpedanceMode.XName, X
TestParameter, Measurement.Monitor.Unit, CMU:=Gate, SMU:=VdBias
TestParameter, Measurement.Monitor.RangingMode, AUTO, LIMITED
TestParameter, Measurement.Monitor.RangeBoundary, 50, IdMinRange
TestParameter, Measurement.Monitor.AcMonitorSymbol, 
TestParameter, Measurement.Monitor.DcMonitorSymbol, 
TestParameter, Measurement.Timing.Hold, HoldTime
TestParameter, Measurement.Timing.Delay, DelayTime
TestParameter, Measurement.Adc.UnitType, Cmu, Smu
TestParameter, Measurement.Adc.HighResolution.Mode, IntegMode, IntegMode
TestParameter, Measurement.Adc.HighResolution.Coeff, AdcFactor, AdcFactor
TestParameter, Measurement.WaitTime.Source.Coeff, 1
TestParameter, Measurement.WaitTime.Source.Offset, 0
TestParameter, Measurement.WaitTime.Monitor.Coeff, 1
TestParameter, Measurement.WaitTime.Monitor.Offset, 0
TestParameter, Function.User.Name, Ta
TestParameter, Function.User.Unit, deg
TestParameter, Function.User.Definition, Temp
TestParameter, Output.Graph.Enabled, true
TestParameter, Output.Graph.AutoScaling, false
TestParameter, Output.Graph.XAxis.Data, Vdrain
TestParameter, Output.Graph.XAxis.Scale, ScaleStr
TestParameter, Output.Graph.XAxis.Left, VdStart*Polarity
TestParameter, Output.Graph.XAxis.Right, VdStop*Polarity
TestParameter, Output.Graph.XAxis.RunTimeAutoScale, false
TestParameter, Output.Graph.YAxis.Data, Cgs
TestParameter, Output.Graph.YAxis.Scale, Log
TestParameter, Output.Graph.YAxis.Bottom, YAxisCgsMin
TestParameter, Output.Graph.YAxis.Top, YAxisCgsMax
TestParameter, Output.Graph.YAxis.Group, 
TestParameter, Output.Graph.YAxis.RunTimeAutoScale, false
TestParameter, Output.List.Data, Vdrain, Cgs, Ids
TestParameter, Output.Scalar.Data, Ta
TestParameter, AutoAnalysis.Interpolation, true
TestParameter, AutoAnalysis.Line1.Enabled, false
TestParameter, AutoAnalysis.Line1.Type, 1
TestParameter, AutoAnalysis.Line1.Fix, True
TestParameter, AutoAnalysis.Line1.YAxis, 0
TestParameter, AutoAnalysis.Line1.Point1.Type, 0
TestParameter, AutoAnalysis.Line1.Point1.XY.X, 
TestParameter, AutoAnalysis.Line1.Point1.XY.Y, 
TestParameter, AutoAnalysis.Line1.Point1.Data.Var, 
TestParameter, AutoAnalysis.Line1.Point1.Data.Condition, 
TestParameter, AutoAnalysis.Line1.Point1.Data.Start, false
TestParameter, AutoAnalysis.Line1.Point1.Data.StartVar, 
TestParameter, AutoAnalysis.Line1.Point1.Data.StartCondition, 
TestParameter, AutoAnalysis.Line1.Point2.Type, 0
TestParameter, AutoAnalysis.Line1.Point2.XY.X, 
TestParameter, AutoAnalysis.Line1.Point2.XY.Y, 
TestParameter, AutoAnalysis.Line1.Point2.Data.Var, 
TestParameter, AutoAnalysis.Line1.Point2.Data.Condition, 
TestParameter, AutoAnalysis.Line1.Point2.Data.Start, false
TestParameter, AutoAnalysis.Line1.Point2.Data.StartVar, 
TestParameter, AutoAnalysis.Line1.Point2.Data.StartCondition, 
TestParameter, AutoAnalysis.Line1.GradientExpr, 0
TestParameter, AutoAnalysis.Line2.Enabled, false
TestParameter, AutoAnalysis.Line2.Type, 1
TestParameter, AutoAnalysis.Line2.Fix, True
TestParameter, AutoAnalysis.Line2.YAxis, 0
TestParameter, AutoAnalysis.Line2.Point1.Type, 0
TestParameter, AutoAnalysis.Line2.Point1.XY.X, 
TestParameter, AutoAnalysis.Line2.Point1.XY.Y, 
TestParameter, AutoAnalysis.Line2.Point1.Data.Var, 
TestParameter, AutoAnalysis.Line2.Point1.Data.Condition, 
TestParameter, AutoAnalysis.Line2.Point1.Data.Start, false
TestParameter, AutoAnalysis.Line2.Point1.Data.StartVar, 
TestParameter, AutoAnalysis.Line2.Point1.Data.StartCondition, 
TestParameter, AutoAnalysis.Line2.Point2.Type, 0
TestParameter, AutoAnalysis.Line2.Point2.XY.X, 
TestParameter, AutoAnalysis.Line2.Point2.XY.Y, 
TestParameter, AutoAnalysis.Line2.Point2.Data.Var, 
TestParameter, AutoAnalysis.Line2.Point2.Data.Condition, 
TestParameter, AutoAnalysis.Line2.Point2.Data.Start, false
TestParameter, AutoAnalysis.Line2.Point2.Data.StartVar, 
TestParameter, AutoAnalysis.Line2.Point2.Data.StartCondition, 
TestParameter, AutoAnalysis.Line2.GradientExpr, 0
TestParameter, AutoAnalysis.Marker.Enabled, false
TestParameter, AutoAnalysis.Marker.Data.Var, 
TestParameter, AutoAnalysis.Marker.Data.Condition, 
TestParameter, AutoAnalysis.Marker.Data.Start, false
TestParameter, AutoAnalysis.Marker.Data.StartVar, 
TestParameter, AutoAnalysis.Marker.Data.StartCondition, 
MetaData, TestRecord.EntryPoint, false
MetaData, TestRecord.RecordTime, 12/28/2020 13:32:29
MetaData, TestRecord.TestTarget, 
MetaData, TestRecord.IterationIndex, 32
MetaData, TestRecord.Preservation, true
MetaData, TestRecord.Flag, 
MetaData, TestRecord.Remarks, 
MetaData, TestRecord.LinkKey, 086e10ee-743e-4415-937f-7db372412ab4
Dimension1, 51, 51, 51, 51, 51
Dimension2, 1, 1, 1, 1, 1
DataName, Ids, Vdrain, Cgs, G, Ta
DataValue, -2.1600000000000004E-09, -0.0044, 2.7553100000000004E-10, -0.000403886, 25
DataValue, -7.68E-09, 1.0012, 2.7556800000000005E-10, -0.00040402000000000005, 25
DataValue, -1.135E-08, 2.0068, 2.7556000000000003E-10, -0.0004039, 25
DataValue, -7.2400000000000006E-09, 3.0044, 2.75601E-10, -0.000404283, 25
DataValue, -2.1500000000000002E-09, 4.0008, 2.75551E-10, -0.00040419, 25
DataValue, -2.09E-09, 5, 2.75618E-10, -0.00040426300000000003, 25
DataValue, -7.54E-09, 6.0034, 2.75605E-10, -0.00040425700000000004, 25
DataValue, -7.430000000000001E-09, 7.003, 2.75647E-10, -0.00040346200000000005, 25
DataValue, 2.1100000000000004E-09, 7.998, 2.7563400000000004E-10, -0.00040396100000000004, 25
DataValue, -2.7100000000000004E-09, 8.9992, 2.7560800000000003E-10, -0.000403794, 25
DataValue, -7.500000000000001E-10, 9.9956, 2.7557900000000004E-10, -0.00040391200000000003, 25
DataValue, -4E-09, 10.998000000000001, 2.75685E-10, -0.00040423300000000004, 25
DataValue, -9.29E-09, 12.005600000000001, 2.7565700000000003E-10, -0.00040388200000000005, 25
DataValue, -4.2600000000000006E-09, 12.995800000000001, 2.7555600000000005E-10, -0.00040355100000000004, 25
DataValue, -3.2200000000000005E-09, 13.998000000000001, 2.75637E-10, -0.000403631, 25
DataValue, -6.470000000000001E-09, 15.001800000000001, 2.75629E-10, -0.00040444600000000004, 25
DataValue, -2.4400000000000003E-09, 15.999400000000001, 2.7565700000000003E-10, -0.00040353800000000005, 25
DataValue, -1.032E-08, 16.999000000000002, 2.75673E-10, -0.00040388500000000004, 25
DataValue, -6.540000000000001E-09, 18.0046, 2.7559100000000004E-10, -0.000403755, 25
DataValue, -3.6000000000000004E-09, 19.002200000000002, 2.75641E-10, -0.000404062, 25
DataValue, -2.5200000000000004E-09, 19.9948, 2.7560200000000003E-10, -0.00040422200000000003, 25
DataValue, 7.500000000000001E-10, 20.9954, 2.75678E-10, -0.000404034, 25
DataValue, -4.9000000000000007E-10, 22, 2.75732E-10, -0.00040392300000000004, 25
DataValue, -5.7600000000000008E-09, 23.0016, 2.756E-10, -0.00040316200000000004, 25
DataValue, -4.5000000000000006E-09, 24.003400000000003, 2.75674E-10, -0.000403938, 25
DataValue, -5.54E-09, 25.001800000000003, 2.7570500000000003E-10, -0.000404544, 25
DataValue, -1.4500000000000002E-09, 25.9956, 2.75733E-10, -0.00040429400000000003, 25
DataValue, 1.2100000000000002E-09, 26.9932, 2.7554900000000004E-10, -0.00040353400000000004, 25
DataValue, -8.5800000000000014E-09, 28.003800000000002, 2.75691E-10, -0.000403811, 25
DataValue, -4.38E-09, 29.006, 2.7564000000000004E-10, -0.000404073, 25
DataValue, -3.9E-09, 29.997200000000003, 2.75671E-10, -0.00040394700000000004, 25
DataValue, 2.0400000000000004E-09, 30.9952, 2.75533E-10, -0.000403783, 25
DataValue, 4.93E-09, 31.996000000000002, 2.75686E-10, -0.000404306, 25
DataValue, -6.6900000000000007E-09, 32.9998, 2.75637E-10, -0.000404321, 25
DataValue, -9.57E-09, 34.004200000000004, 2.7562000000000003E-10, -0.000403959, 25
DataValue, -9.1200000000000016E-09, 34.9988, 2.75581E-10, -0.000404214, 25
DataValue, -3.8500000000000006E-09, 35.9932, 2.7563900000000003E-10, -0.000403994, 25
DataValue, -3.5700000000000003E-09, 36.9974, 2.75655E-10, -0.00040377, 25
DataValue, -1.068E-08, 38.004400000000004, 2.75673E-10, -0.00040399, 25
DataValue, -5.0500000000000006E-09, 38.9972, 2.7565100000000003E-10, -0.000404118, 25
DataValue, -1.7E-10, 40.001200000000004, 2.7568100000000003E-10, -0.00040430500000000004, 25
DataValue, -5.2400000000000009E-09, 40.9992, 2.75698E-10, -0.00040417400000000004, 25
DataValue, -4.41E-09, 41.9986, 2.7556600000000003E-10, -0.00040368600000000005, 25
DataValue, 2.53E-09, 42.9944, 2.756E-10, -0.000404149, 25
DataValue, -4.0800000000000008E-09, 43.999, 2.75637E-10, -0.00040397800000000004, 25
DataValue, -5.4900000000000007E-09, 45, 2.7562600000000003E-10, -0.00040423200000000003, 25
DataValue, -4.9000000000000007E-10, 45.997600000000006, 2.7577E-10, -0.000404076, 25
DataValue, -1.3E-09, 46.9958, 2.75654E-10, -0.00040413900000000003, 25
DataValue, -1.0300000000000002E-09, 48.000600000000006, 2.75686E-10, -0.000403828, 25
DataValue, -2.4700000000000004E-09, 49.0032, 2.75623E-10, -0.00040430800000000003, 25
DataValue, -3.7400000000000007E-09, 49.9994, 2.75722E-10, -0.00040312700000000003, 25