
SetupTitle, Cgs
ApplicationTest, Cgs, Public
TestParameter, Name, Memo, IntegTime, Frequency, OscLevel, Scale, Gate, VdBias, VdStart, VdStop, VdLinearStep, IdLimit, HoldTime, DelayTime, IdMinRange
TestParameter, Value, , SHORT, 1000000, 0.025, LINEAR, CMU1:MF	MFCMU, SMU6:HV	HVSMU, 0, 50, 1, 0.004, 1, 1, 10uA
DutParameter, Name, Polarity, Temp, YAxisCgsMin, YAxisCgsMax
DutParameter, Value, 1, 25, 1E-12, 5E-09
MetaData, TestRecord.EntryPoint, true
MetaData, TestRecord.RecordTime, 12/28/2020 13:30:28
MetaData, TestRecord.TestTarget, 
MetaData, TestRecord.IterationIndex, 31
MetaData, TestRecord.Preservation, true
MetaData, TestRecord.Flag, 
MetaData, TestRecord.Remarks, 
MetaData, TestRecord.LinkKey, 6fd8e370-b6fd-4f23-b6b6-0e60d66fa018
Dimension1, 51, 51, 51, 51, 51
Dimension2, 1, 1, 1, 1, 1
DataName, Ids, Vdrain, Cgs, G, Ta
DataValue, 6.5E-10, -0.0024000000000000002, 1.35765E-09, -0.00118432, 25
DataValue, -8.400000000000001E-10, 0.9958, 1.35775E-09, -0.00118556, 25
DataValue, -5.2000000000000007E-10, 2.0014000000000003, 1.35754E-09, -0.00118479, 25
DataValue, -3.2200000000000005E-09, 2.9986, 1.35763E-09, -0.0011839700000000001, 25
DataValue, -4.14E-09, 4.0016, 1.35763E-09, -0.00118509, 25
DataValue, -6.3500000000000006E-09, 5.0022, 1.35743E-09, -0.00118366, 25
DataValue, -5.7300000000000007E-09, 5.9968, 1.35756E-09, -0.00118559, 25
DataValue, -3.7400000000000007E-09, 6.9962, 1.35747E-09, -0.0011852100000000001, 25
DataValue, -7.2800000000000005E-09, 8.002600000000001, 1.35756E-09, -0.00118379, 25
DataValue, -4.6000000000000007E-10, 8.9936, 1.35729E-09, -0.00118429, 25
DataValue, -3.2400000000000004E-09, 9.9980000000000011, 1.35742E-09, -0.00118453, 25
DataValue, -1.142E-08, 11.0066, 1.35753E-09, -0.0011834200000000001, 25
DataValue, -3.54E-09, 12.0006, 1.35747E-09, -0.00118458, 25
DataValue, -7.260000000000001E-09, 12.9966, 1.35758E-09, -0.0011841500000000001, 25
DataValue, -8.3000000000000015E-09, 14.0036, 1.3574E-09, -0.00118357, 25
DataValue, -4.9800000000000006E-09, 14.997, 1.35739E-09, -0.00118405, 25
DataValue, -2.72E-09, 15.9952, 1.35739E-09, -0.0011847000000000001, 25
DataValue, -1.5000000000000003E-10, 16.998, 1.35731E-09, -0.00118458, 25
DataValue, -7.0500000000000011E-09, 18.0002, 1.35728E-09, -0.00118379, 25
DataValue, -7.8400000000000011E-09, 19.002000000000002, 1.35725E-09, -0.0011842, 25
DataValue, -1.9600000000000003E-09, 19.9996, 1.35723E-09, -0.00118477, 25
DataValue, -1.238E-08, 21.0032, 1.3572E-09, -0.00118581, 25
DataValue, -1.6000000000000002E-10, 21.995800000000003, 1.35743E-09, -0.00118414, 25
DataValue, -1.2470000000000002E-08, 23.0048, 1.3571E-09, -0.00118438, 25
DataValue, 4.2200000000000007E-09, 23.991600000000002, 1.35716E-09, -0.00118438, 25
DataValue, -1.3E-09, 24.9996, 1.35703E-09, -0.00118418, 25
DataValue, -5.9300000000000008E-09, 25.9984, 1.35732E-09, -0.00118435, 25
DataValue, 2.6600000000000003E-09, 26.991600000000002, 1.35724E-09, -0.00118429, 25
DataValue, -9.25E-09, 28.003, 1.35715E-09, -0.00118438, 25
DataValue, -3.2600000000000003E-09, 29.002000000000002, 1.3571E-09, -0.00118359, 25
DataValue, -3.1000000000000005E-09, 30.0012, 1.35714E-09, -0.00118544, 25
DataValue, -3.25E-09, 30.9984, 1.35706E-09, -0.0011841, 25
DataValue, -1.2410000000000002E-08, 32.005, 1.35719E-09, -0.0011852100000000001, 25
DataValue, -5.17E-09, 33.0002, 1.35721E-09, -0.0011841, 25
DataValue, -8.22E-09, 34.0034, 1.35724E-09, -0.00118382, 25
DataValue, -1E-08, 35.0004, 1.35707E-09, -0.00118495, 25
DataValue, -6.4500000000000007E-09, 36.0028, 1.35712E-09, -0.00118592, 25
DataValue, -7.2700000000000007E-09, 37.0028, 1.3572E-09, -0.00118572, 25
DataValue, -1.0900000000000002E-09, 37.9992, 1.35718E-09, -0.00118509, 25
DataValue, -4.38E-09, 39.0016, 1.35719E-09, -0.001185, 25
DataValue, -9.8900000000000012E-09, 39.9986, 1.35715E-09, -0.00118393, 25
DataValue, -7.15E-09, 40.999, 1.35693E-09, -0.00118484, 25
DataValue, -1.4300000000000002E-09, 41.993, 1.35709E-09, -0.00118452, 25
DataValue, -4.6400000000000005E-09, 43.0034, 1.3571E-09, -0.00118399, 25
DataValue, -4.04E-09, 44.0046, 1.35701E-09, -0.00118465, 25
DataValue, -5.5900000000000008E-09, 45.005, 1.35705E-09, -0.00118471, 25
DataValue, -6.8600000000000007E-09, 46.0034, 1.35714E-09, -0.00118525, 25
DataValue, -5.9600000000000009E-09, 47.000800000000005, 1.35705E-09, -0.00118476, 25
DataValue, -6.5100000000000009E-09, 48.0004, 1.35703E-09, -0.0011842600000000001, 25
DataValue, 4.0000000000000004E-11, 49, 1.35697E-09, -0.0011843700000000001, 25
DataValue, -7.2100000000000005E-09, 50.002, 1.35687E-09, -0.001185, 25
SetupTitle, Cgs
PrimitiveTest, C-V Sweep
TestParameter, Channel.UnitTyp, CMU, SMU
TestParameter, Channel.Unit, Gate, VdBias
TestParameter, Channel.IName, , Ids
TestParameter, Channel.VName, VBias, Vdrain
TestParameter, Channel.Mode, , V
TestParameter, Channel.Func, CONST, VAR1
TestParameter, Channel.Index, 
TestParameter, Channel.Time, 
TestParameter, Measurement.Primary.Locus, Single
TestParameter, Measurement.Primary.Scale, Scale
TestParameter, Measurement.Primary.Start, VdStart*Polarity
TestParameter, Measurement.Primary.Stop, VdStop*Polarity
TestParameter, Measurement.Primary.Compliance, IdLimit
TestParameter, Measurement.Primary.Step, VdLinearStep*Polarity
TestParameter, Measurement.Aborting.Condition, CONTINUE AT ANY
TestParameter, Measurement.PostOutput.Value, START
TestParameter, Measurement.PostOutput.Retention, OFF
TestParameter, Measurement.Secondary.ACLevel, OscLevel
TestParameter, Measurement.Secondary.FName, Freq
TestParameter, Measurement.Secondary.Frequency, Frequency
TestParameter, Measurement.Bias.Source, 0, 0
TestParameter, Measurement.ImpedanceMode.Model, Cp-G
TestParameter, Measurement.ImpedanceMode.CName, Cgs
TestParameter, Measurement.ImpedanceMode.LName, L
TestParameter, Measurement.ImpedanceMode.GName, G
TestParameter, Measurement.ImpedanceMode.RName, R
TestParameter, Measurement.ImpedanceMode.QName, Q
TestParameter, Measurement.ImpedanceMode.DName, D
TestParameter, Measurement.ImpedanceMode.YName, Y
TestParameter, Measurement.ImpedanceMode.ZName, Z
TestParameter, Measurement.ImpedanceMode.ThName, Theta
TestParameter, Measurement.ImpedanceMode.BName, B
TestParameter, Measurement.ImpedanceMode.XName, X
TestParameter, Measurement.Monitor.Unit, CMU:=Gate, SMU:=VdBias
TestParameter, Measurement.Monitor.RangingMode, AUTO, LIMITED
TestParameter, Measurement.Monitor.RangeBoundary, 50, IdMinRange
TestParameter, Measurement.Monitor.AcMonitorSymbol, 
TestParameter, Measurement.Monitor.DcMonitorSymbol, 
TestParameter, Measurement.Timing.Hold, HoldTime
TestParameter, Measurement.Timing.Delay, DelayTime
TestParameter, Measurement.Adc.UnitType, Cmu, Smu
TestParameter, Measurement.Adc.HighResolution.Mode, IntegMode, IntegMode
TestParameter, Measurement.Adc.HighResolution.Coeff, AdcFactor, AdcFactor
TestParameter, Measurement.WaitTime.Source.Coeff, 1
TestParameter, Measurement.WaitTime.Source.Offset, 0
TestParameter, Measurement.WaitTime.Monitor.Coeff, 1
TestParameter, Measurement.WaitTime.Monitor.Offset, 0
TestParameter, Function.User.Name, Ta
TestParameter, Function.User.Unit, deg
TestParameter, Function.User.Definition, Temp
TestParameter, Output.Graph.Enabled, true
TestParameter, Output.Graph.AutoScaling, false
TestParameter, Output.Graph.XAxis.Data, Vdrain
TestParameter, Output.Graph.XAxis.Scale, ScaleStr
TestParameter, Output.Graph.XAxis.Left, VdStart*Polarity
TestParameter, Output.Graph.XAxis.Right, VdStop*Polarity
TestParameter, Output.Graph.XAxis.RunTimeAutoScale, false
TestParameter, Output.Graph.YAxis.Data, Cgs
TestParameter, Output.Graph.YAxis.Scale, Log
TestParameter, Output.Graph.YAxis.Bottom, YAxisCgsMin
TestParameter, Output.Graph.YAxis.Top, YAxisCgsMax
TestParameter, Output.Graph.YAxis.Group, 
TestParameter, Output.Graph.YAxis.RunTimeAutoScale, false
TestParameter, Output.List.Data, Vdrain, Cgs, Ids
TestParameter, Output.Scalar.Data, Ta
TestParameter, AutoAnalysis.Interpolation, true
TestParameter, AutoAnalysis.Line1.Enabled, false
TestParameter, AutoAnalysis.Line1.Type, 1
TestParameter, AutoAnalysis.Line1.Fix, True
TestParameter, AutoAnalysis.Line1.YAxis, 0
TestParameter, AutoAnalysis.Line1.Point1.Type, 0
TestParameter, AutoAnalysis.Line1.Point1.XY.X, 
TestParameter, AutoAnalysis.Line1.Point1.XY.Y, 
TestParameter, AutoAnalysis.Line1.Point1.Data.Var, 
TestParameter, AutoAnalysis.Line1.Point1.Data.Condition, 
TestParameter, AutoAnalysis.Line1.Point1.Data.Start, false
TestParameter, AutoAnalysis.Line1.Point1.Data.StartVar, 
TestParameter, AutoAnalysis.Line1.Point1.Data.StartCondition, 
TestParameter, AutoAnalysis.Line1.Point2.Type, 0
TestParameter, AutoAnalysis.Line1.Point2.XY.X, 
TestParameter, AutoAnalysis.Line1.Point2.XY.Y, 
TestParameter, AutoAnalysis.Line1.Point2.Data.Var, 
TestParameter, AutoAnalysis.Line1.Point2.Data.Condition, 
TestParameter, AutoAnalysis.Line1.Point2.Data.Start, false
TestParameter, AutoAnalysis.Line1.Point2.Data.StartVar, 
TestParameter, AutoAnalysis.Line1.Point2.Data.StartCondition, 
TestParameter, AutoAnalysis.Line1.GradientExpr, 0
TestParameter, AutoAnalysis.Line2.Enabled, false
TestParameter, AutoAnalysis.Line2.Type, 1
TestParameter, AutoAnalysis.Line2.Fix, True
TestParameter, AutoAnalysis.Line2.YAxis, 0
TestParameter, AutoAnalysis.Line2.Point1.Type, 0
TestParameter, AutoAnalysis.Line2.Point1.XY.X, 
TestParameter, AutoAnalysis.Line2.Point1.XY.Y, 
TestParameter, AutoAnalysis.Line2.Point1.Data.Var, 
TestParameter, AutoAnalysis.Line2.Point1.Data.Condition, 
TestParameter, AutoAnalysis.Line2.Point1.Data.Start, false
TestParameter, AutoAnalysis.Line2.Point1.Data.StartVar, 
TestParameter, AutoAnalysis.Line2.Point1.Data.StartCondition, 
TestParameter, AutoAnalysis.Line2.Point2.Type, 0
TestParameter, AutoAnalysis.Line2.Point2.XY.X, 
TestParameter, AutoAnalysis.Line2.Point2.XY.Y, 
TestParameter, AutoAnalysis.Line2.Point2.Data.Var, 
TestParameter, AutoAnalysis.Line2.Point2.Data.Condition, 
TestParameter, AutoAnalysis.Line2.Point2.Data.Start, false
TestParameter, AutoAnalysis.Line2.Point2.Data.StartVar, 
TestParameter, AutoAnalysis.Line2.Point2.Data.StartCondition, 
TestParameter, AutoAnalysis.Line2.GradientExpr, 0
TestParameter, AutoAnalysis.Marker.Enabled, false
TestParameter, AutoAnalysis.Marker.Data.Var, 
TestParameter, AutoAnalysis.Marker.Data.Condition, 
TestParameter, AutoAnalysis.Marker.Data.Start, false
TestParameter, AutoAnalysis.Marker.Data.StartVar, 
TestParameter, AutoAnalysis.Marker.Data.StartCondition, 
MetaData, TestRecord.EntryPoint, false
MetaData, TestRecord.RecordTime, 12/28/2020 13:30:28
MetaData, TestRecord.TestTarget, 
MetaData, TestRecord.IterationIndex, 31
MetaData, TestRecord.Preservation, true
MetaData, TestRecord.Flag, 
MetaData, TestRecord.Remarks, 
MetaData, TestRecord.LinkKey, 6fd8e370-b6fd-4f23-b6b6-0e60d66fa018
Dimension1, 51, 51, 51, 51, 51
Dimension2, 1, 1, 1, 1, 1
DataName, Ids, Vdrain, Cgs, G, Ta
DataValue, 6.5E-10, -0.0024000000000000002, 1.35765E-09, -0.00118432, 25
DataValue, -8.400000000000001E-10, 0.9958, 1.35775E-09, -0.00118556, 25
DataValue, -5.2000000000000007E-10, 2.0014000000000003, 1.35754E-09, -0.00118479, 25
DataValue, -3.2200000000000005E-09, 2.9986, 1.35763E-09, -0.0011839700000000001, 25
DataValue, -4.14E-09, 4.0016, 1.35763E-09, -0.00118509, 25
DataValue, -6.3500000000000006E-09, 5.0022, 1.35743E-09, -0.00118366, 25
DataValue, -5.7300000000000007E-09, 5.9968, 1.35756E-09, -0.00118559, 25
DataValue, -3.7400000000000007E-09, 6.9962, 1.35747E-09, -0.0011852100000000001, 25
DataValue, -7.2800000000000005E-09, 8.002600000000001, 1.35756E-09, -0.00118379, 25
DataValue, -4.6000000000000007E-10, 8.9936, 1.35729E-09, -0.00118429, 25
DataValue, -3.2400000000000004E-09, 9.9980000000000011, 1.35742E-09, -0.00118453, 25
DataValue, -1.142E-08, 11.0066, 1.35753E-09, -0.0011834200000000001, 25
DataValue, -3.54E-09, 12.0006, 1.35747E-09, -0.00118458, 25
DataValue, -7.260000000000001E-09, 12.9966, 1.35758E-09, -0.0011841500000000001, 25
DataValue, -8.3000000000000015E-09, 14.0036, 1.3574E-09, -0.00118357, 25
DataValue, -4.9800000000000006E-09, 14.997, 1.35739E-09, -0.00118405, 25
DataValue, -2.72E-09, 15.9952, 1.35739E-09, -0.0011847000000000001, 25
DataValue, -1.5000000000000003E-10, 16.998, 1.35731E-09, -0.00118458, 25
DataValue, -7.0500000000000011E-09, 18.0002, 1.35728E-09, -0.00118379, 25
DataValue, -7.8400000000000011E-09, 19.002000000000002, 1.35725E-09, -0.0011842, 25
DataValue, -1.9600000000000003E-09, 19.9996, 1.35723E-09, -0.00118477, 25
DataValue, -1.238E-08, 21.0032, 1.3572E-09, -0.00118581, 25
DataValue, -1.6000000000000002E-10, 21.995800000000003, 1.35743E-09, -0.00118414, 25
DataValue, -1.2470000000000002E-08, 23.0048, 1.3571E-09, -0.00118438, 25
DataValue, 4.2200000000000007E-09, 23.991600000000002, 1.35716E-09, -0.00118438, 25
DataValue, -1.3E-09, 24.9996, 1.35703E-09, -0.00118418, 25
DataValue, -5.9300000000000008E-09, 25.9984, 1.35732E-09, -0.00118435, 25
DataValue, 2.6600000000000003E-09, 26.991600000000002, 1.35724E-09, -0.00118429, 25
DataValue, -9.25E-09, 28.003, 1.35715E-09, -0.00118438, 25
DataValue, -3.2600000000000003E-09, 29.002000000000002, 1.3571E-09, -0.00118359, 25
DataValue, -3.1000000000000005E-09, 30.0012, 1.35714E-09, -0.00118544, 25
DataValue, -3.25E-09, 30.9984, 1.35706E-09, -0.0011841, 25
DataValue, -1.2410000000000002E-08, 32.005, 1.35719E-09, -0.0011852100000000001, 25
DataValue, -5.17E-09, 33.0002, 1.35721E-09, -0.0011841, 25
DataValue, -8.22E-09, 34.0034, 1.35724E-09, -0.00118382, 25
DataValue, -1E-08, 35.0004, 1.35707E-09, -0.00118495, 25
DataValue, -6.4500000000000007E-09, 36.0028, 1.35712E-09, -0.00118592, 25
DataValue, -7.2700000000000007E-09, 37.0028, 1.3572E-09, -0.00118572, 25
DataValue, -1.0900000000000002E-09, 37.9992, 1.35718E-09, -0.00118509, 25
DataValue, -4.38E-09, 39.0016, 1.35719E-09, -0.001185, 25
DataValue, -9.8900000000000012E-09, 39.9986, 1.35715E-09, -0.00118393, 25
DataValue, -7.15E-09, 40.999, 1.35693E-09, -0.00118484, 25
DataValue, -1.4300000000000002E-09, 41.993, 1.35709E-09, -0.00118452, 25
DataValue, -4.6400000000000005E-09, 43.0034, 1.3571E-09, -0.00118399, 25
DataValue, -4.04E-09, 44.0046, 1.35701E-09, -0.00118465, 25
DataValue, -5.5900000000000008E-09, 45.005, 1.35705E-09, -0.00118471, 25
DataValue, -6.8600000000000007E-09, 46.0034, 1.35714E-09, -0.00118525, 25
DataValue, -5.9600000000000009E-09, 47.000800000000005, 1.35705E-09, -0.00118476, 25
DataValue, -6.5100000000000009E-09, 48.0004, 1.35703E-09, -0.0011842600000000001, 25
DataValue, 4.0000000000000004E-11, 49, 1.35697E-09, -0.0011843700000000001, 25
DataValue, -7.2100000000000005E-09, 50.002, 1.35687E-09, -0.001185, 25