
SetupTitle, Cgs
ApplicationTest, Cgs, Public
TestParameter, Name, Memo, IntegTime, Frequency, OscLevel, Scale, Gate, VdBias, VdStart, VdStop, VdLinearStep, IdLimit, HoldTime, DelayTime, IdMinRange
TestParameter, Value, , SHORT, 1000000, 0.025, LINEAR, CMU1:MF	MFCMU, SMU6:HV	HVSMU, 0, 50, 1, 0.004, 1, 1, 10uA
DutParameter, Name, Polarity, Temp, YAxisCgsMin, YAxisCgsMax
DutParameter, Value, 1, 25, 1E-12, 5E-09
MetaData, TestRecord.EntryPoint, true
MetaData, TestRecord.RecordTime, 12/28/2020 11:13:11
MetaData, TestRecord.TestTarget, 
MetaData, TestRecord.IterationIndex, 20
MetaData, TestRecord.Preservation, true
MetaData, TestRecord.Flag, 
MetaData, TestRecord.Remarks, 
MetaData, TestRecord.LinkKey, cf24c1ea-e08b-4009-9510-2b6d364281d4
Dimension1, 51, 51, 51, 51, 51
Dimension2, 1, 1, 1, 1, 1
DataName, Ids, Vdrain, Cgs, G, Ta
DataValue, 5.8000000000000007E-10, -0.0022, 2.73852E-10, -0.00039499500000000004, 25
DataValue, -6.130000000000001E-09, 1.0058, 2.73821E-10, -0.00039508100000000003, 25
DataValue, -1.42E-09, 2.0006, 2.7381400000000004E-10, -0.00039530200000000004, 25
DataValue, -6.4100000000000008E-09, 2.9994, 2.73954E-10, -0.000394753, 25
DataValue, 5.100000000000001E-10, 4.0004, 2.7384400000000004E-10, -0.00039476500000000005, 25
DataValue, -1.17E-09, 4.9974, 2.73864E-10, -0.00039554900000000003, 25
DataValue, -7.08E-09, 5.9992, 2.73854E-10, -0.000394652, 25
DataValue, -1.5200000000000001E-09, 6.9958, 2.7394100000000005E-10, -0.000394667, 25
DataValue, -5.5900000000000008E-09, 8.0002, 2.73827E-10, -0.00039510200000000004, 25
DataValue, -7.430000000000001E-09, 8.9980000000000011, 2.73918E-10, -0.000395039, 25
DataValue, -3.8200000000000005E-09, 9.9946, 2.7399E-10, -0.000394832, 25
DataValue, -9.85E-09, 11.0046, 2.7402E-10, -0.00039436200000000004, 25
DataValue, -3.3000000000000005E-10, 11.996, 2.7400600000000004E-10, -0.00039445, 25
DataValue, -1.8000000000000003E-10, 13.000200000000001, 2.73911E-10, -0.00039430700000000005, 25
DataValue, -5.75E-09, 13.9962, 2.7393E-10, -0.000395025, 25
DataValue, -5.88E-09, 15.0004, 2.7391600000000004E-10, -0.00039517700000000003, 25
DataValue, -4.4600000000000007E-09, 16.0044, 2.73935E-10, -0.00039521200000000004, 25
DataValue, -3.2000000000000003E-10, 16.994600000000002, 2.7393900000000003E-10, -0.000394335, 25
DataValue, -8.34E-09, 18.008, 2.7403100000000004E-10, -0.00039477500000000004, 25
DataValue, -2.5100000000000002E-09, 19.0024, 2.73931E-10, -0.000394959, 25
DataValue, -1.9100000000000002E-09, 19.9938, 2.74063E-10, -0.000394842, 25
DataValue, -7.4400000000000008E-09, 21.003600000000002, 2.73996E-10, -0.000395045, 25
DataValue, -4.41E-09, 22.0018, 2.7392100000000003E-10, -0.00039539500000000005, 25
DataValue, -2.1600000000000004E-09, 23.003600000000002, 2.74016E-10, -0.000394573, 25
DataValue, -6.0400000000000006E-09, 24, 2.7401200000000004E-10, -0.00039515300000000003, 25
DataValue, -4.79E-09, 25.001, 2.7398100000000003E-10, -0.00039497800000000004, 25
DataValue, -6.5500000000000007E-09, 25.998800000000003, 2.74082E-10, -0.00039514300000000004, 25
DataValue, -2.79E-09, 27.001, 2.7395200000000004E-10, -0.00039484400000000004, 25
DataValue, 1.6400000000000001E-09, 27.996000000000002, 2.7395800000000004E-10, -0.00039494000000000004, 25
DataValue, 2.2700000000000002E-09, 28.994600000000002, 2.74008E-10, -0.000395293, 25
DataValue, -6.950000000000001E-09, 30.001800000000003, 2.7396400000000004E-10, -0.000394697, 25
DataValue, -3.7800000000000006E-09, 30.999200000000002, 2.73961E-10, -0.00039501900000000003, 25
DataValue, -6.1100000000000006E-09, 31.998, 2.74016E-10, -0.000395179, 25
DataValue, -2.94E-09, 32.998000000000005, 2.74064E-10, -0.000395155, 25
DataValue, -1.8500000000000002E-09, 34.0004, 2.74039E-10, -0.00039495700000000003, 25
DataValue, -5.9000000000000007E-09, 34.9966, 2.7403700000000004E-10, -0.000394777, 25
DataValue, -1.4400000000000002E-09, 35.998000000000005, 2.74057E-10, -0.00039495100000000005, 25
DataValue, -4.6000000000000007E-09, 36.9998, 2.7403100000000004E-10, -0.000394797, 25
DataValue, 1.6600000000000003E-09, 37.9974, 2.7395100000000003E-10, -0.00039563900000000004, 25
DataValue, -2.8500000000000003E-09, 38.998400000000004, 2.7407800000000003E-10, -0.00039514000000000004, 25
DataValue, -2.9100000000000005E-09, 39.9994, 2.74014E-10, -0.000395306, 25
DataValue, -5.92E-09, 41.003, 2.74082E-10, -0.000394848, 25
DataValue, -4.9700000000000008E-09, 42.0036, 2.7401100000000003E-10, -0.00039433700000000003, 25
DataValue, -4.2600000000000006E-09, 43.0006, 2.7397500000000003E-10, -0.00039469500000000003, 25
DataValue, -1.3700000000000002E-09, 44.0006, 2.74101E-10, -0.00039525300000000003, 25
DataValue, 1.3200000000000002E-09, 44.996, 2.74099E-10, -0.00039535000000000004, 25
DataValue, -1.0770000000000002E-08, 46.0054, 2.74027E-10, -0.000394904, 25
DataValue, -6.0400000000000006E-09, 46.9992, 2.74008E-10, -0.000395435, 25
DataValue, 5.2000000000000007E-10, 48, 2.73984E-10, -0.000395227, 25
DataValue, -8.08E-09, 49.003800000000005, 2.74128E-10, -0.00039481200000000003, 25
DataValue, -3.8000000000000003E-10, 50, 2.7410200000000003E-10, -0.000394942, 25
SetupTitle, Cgs
PrimitiveTest, C-V Sweep
TestParameter, Channel.UnitTyp, CMU, SMU
TestParameter, Channel.Unit, Gate, VdBias
TestParameter, Channel.IName, , Ids
TestParameter, Channel.VName, VBias, Vdrain
TestParameter, Channel.Mode, , V
TestParameter, Channel.Func, CONST, VAR1
TestParameter, Channel.Index, 
TestParameter, Channel.Time, 
TestParameter, Measurement.Primary.Locus, Single
TestParameter, Measurement.Primary.Scale, Scale
TestParameter, Measurement.Primary.Start, VdStart*Polarity
TestParameter, Measurement.Primary.Stop, VdStop*Polarity
TestParameter, Measurement.Primary.Compliance, IdLimit
TestParameter, Measurement.Primary.Step, VdLinearStep*Polarity
TestParameter, Measurement.Aborting.Condition, CONTINUE AT ANY
TestParameter, Measurement.PostOutput.Value, START
TestParameter, Measurement.PostOutput.Retention, OFF
TestParameter, Measurement.Secondary.ACLevel, OscLevel
TestParameter, Measurement.Secondary.FName, Freq
TestParameter, Measurement.Secondary.Frequency, Frequency
TestParameter, Measurement.Bias.Source, 0, 0
TestParameter, Measurement.ImpedanceMode.Model, Cp-G
TestParameter, Measurement.ImpedanceMode.CName, Cgs
TestParameter, Measurement.ImpedanceMode.LName, L
TestParameter, Measurement.ImpedanceMode.GName, G
TestParameter, Measurement.ImpedanceMode.RName, R
TestParameter, Measurement.ImpedanceMode.QName, Q
TestParameter, Measurement.ImpedanceMode.DName, D
TestParameter, Measurement.ImpedanceMode.YName, Y
TestParameter, Measurement.ImpedanceMode.ZName, Z
TestParameter, Measurement.ImpedanceMode.ThName, Theta
TestParameter, Measurement.ImpedanceMode.BName, B
TestParameter, Measurement.ImpedanceMode.XName, X
TestParameter, Measurement.Monitor.Unit, CMU:=Gate, SMU:=VdBias
TestParameter, Measurement.Monitor.RangingMode, AUTO, LIMITED
TestParameter, Measurement.Monitor.RangeBoundary, 50, IdMinRange
TestParameter, Measurement.Monitor.AcMonitorSymbol, 
TestParameter, Measurement.Monitor.DcMonitorSymbol, 
TestParameter, Measurement.Timing.Hold, HoldTime
TestParameter, Measurement.Timing.Delay, DelayTime
TestParameter, Measurement.Adc.UnitType, Cmu, Smu
TestParameter, Measurement.Adc.HighResolution.Mode, IntegMode, IntegMode
TestParameter, Measurement.Adc.HighResolution.Coeff, AdcFactor, AdcFactor
TestParameter, Measurement.WaitTime.Source.Coeff, 1
TestParameter, Measurement.WaitTime.Source.Offset, 0
TestParameter, Measurement.WaitTime.Monitor.Coeff, 1
TestParameter, Measurement.WaitTime.Monitor.Offset, 0
TestParameter, Function.User.Name, Ta
TestParameter, Function.User.Unit, deg
TestParameter, Function.User.Definition, Temp
TestParameter, Output.Graph.Enabled, true
TestParameter, Output.Graph.AutoScaling, false
TestParameter, Output.Graph.XAxis.Data, Vdrain
TestParameter, Output.Graph.XAxis.Scale, ScaleStr
TestParameter, Output.Graph.XAxis.Left, VdStart*Polarity
TestParameter, Output.Graph.XAxis.Right, VdStop*Polarity
TestParameter, Output.Graph.XAxis.RunTimeAutoScale, false
TestParameter, Output.Graph.YAxis.Data, Cgs
TestParameter, Output.Graph.YAxis.Scale, Log
TestParameter, Output.Graph.YAxis.Bottom, YAxisCgsMin
TestParameter, Output.Graph.YAxis.Top, YAxisCgsMax
TestParameter, Output.Graph.YAxis.Group, 
TestParameter, Output.Graph.YAxis.RunTimeAutoScale, false
TestParameter, Output.List.Data, Vdrain, Cgs, Ids
TestParameter, Output.Scalar.Data, Ta
TestParameter, AutoAnalysis.Interpolation, true
TestParameter, AutoAnalysis.Line1.Enabled, false
TestParameter, AutoAnalysis.Line1.Type, 1
TestParameter, AutoAnalysis.Line1.Fix, True
TestParameter, AutoAnalysis.Line1.YAxis, 0
TestParameter, AutoAnalysis.Line1.Point1.Type, 0
TestParameter, AutoAnalysis.Line1.Point1.XY.X, 
TestParameter, AutoAnalysis.Line1.Point1.XY.Y, 
TestParameter, AutoAnalysis.Line1.Point1.Data.Var, 
TestParameter, AutoAnalysis.Line1.Point1.Data.Condition, 
TestParameter, AutoAnalysis.Line1.Point1.Data.Start, false
TestParameter, AutoAnalysis.Line1.Point1.Data.StartVar, 
TestParameter, AutoAnalysis.Line1.Point1.Data.StartCondition, 
TestParameter, AutoAnalysis.Line1.Point2.Type, 0
TestParameter, AutoAnalysis.Line1.Point2.XY.X, 
TestParameter, AutoAnalysis.Line1.Point2.XY.Y, 
TestParameter, AutoAnalysis.Line1.Point2.Data.Var, 
TestParameter, AutoAnalysis.Line1.Point2.Data.Condition, 
TestParameter, AutoAnalysis.Line1.Point2.Data.Start, false
TestParameter, AutoAnalysis.Line1.Point2.Data.StartVar, 
TestParameter, AutoAnalysis.Line1.Point2.Data.StartCondition, 
TestParameter, AutoAnalysis.Line1.GradientExpr, 0
TestParameter, AutoAnalysis.Line2.Enabled, false
TestParameter, AutoAnalysis.Line2.Type, 1
TestParameter, AutoAnalysis.Line2.Fix, True
TestParameter, AutoAnalysis.Line2.YAxis, 0
TestParameter, AutoAnalysis.Line2.Point1.Type, 0
TestParameter, AutoAnalysis.Line2.Point1.XY.X, 
TestParameter, AutoAnalysis.Line2.Point1.XY.Y, 
TestParameter, AutoAnalysis.Line2.Point1.Data.Var, 
TestParameter, AutoAnalysis.Line2.Point1.Data.Condition, 
TestParameter, AutoAnalysis.Line2.Point1.Data.Start, false
TestParameter, AutoAnalysis.Line2.Point1.Data.StartVar, 
TestParameter, AutoAnalysis.Line2.Point1.Data.StartCondition, 
TestParameter, AutoAnalysis.Line2.Point2.Type, 0
TestParameter, AutoAnalysis.Line2.Point2.XY.X, 
TestParameter, AutoAnalysis.Line2.Point2.XY.Y, 
TestParameter, AutoAnalysis.Line2.Point2.Data.Var, 
TestParameter, AutoAnalysis.Line2.Point2.Data.Condition, 
TestParameter, AutoAnalysis.Line2.Point2.Data.Start, false
TestParameter, AutoAnalysis.Line2.Point2.Data.StartVar, 
TestParameter, AutoAnalysis.Line2.Point2.Data.StartCondition, 
TestParameter, AutoAnalysis.Line2.GradientExpr, 0
TestParameter, AutoAnalysis.Marker.Enabled, false
TestParameter, AutoAnalysis.Marker.Data.Var, 
TestParameter, AutoAnalysis.Marker.Data.Condition, 
TestParameter, AutoAnalysis.Marker.Data.Start, false
TestParameter, AutoAnalysis.Marker.Data.StartVar, 
TestParameter, AutoAnalysis.Marker.Data.StartCondition, 
MetaData, TestRecord.EntryPoint, false
MetaData, TestRecord.RecordTime, 12/28/2020 11:13:11
MetaData, TestRecord.TestTarget, 
MetaData, TestRecord.IterationIndex, 20
MetaData, TestRecord.Preservation, true
MetaData, TestRecord.Flag, 
MetaData, TestRecord.Remarks, 
MetaData, TestRecord.LinkKey, cf24c1ea-e08b-4009-9510-2b6d364281d4
Dimension1, 51, 51, 51, 51, 51
Dimension2, 1, 1, 1, 1, 1
DataName, Ids, Vdrain, Cgs, G, Ta
DataValue, 5.8000000000000007E-10, -0.0022, 2.73852E-10, -0.00039499500000000004, 25
DataValue, -6.130000000000001E-09, 1.0058, 2.73821E-10, -0.00039508100000000003, 25
DataValue, -1.42E-09, 2.0006, 2.7381400000000004E-10, -0.00039530200000000004, 25
DataValue, -6.4100000000000008E-09, 2.9994, 2.73954E-10, -0.000394753, 25
DataValue, 5.100000000000001E-10, 4.0004, 2.7384400000000004E-10, -0.00039476500000000005, 25
DataValue, -1.17E-09, 4.9974, 2.73864E-10, -0.00039554900000000003, 25
DataValue, -7.08E-09, 5.9992, 2.73854E-10, -0.000394652, 25
DataValue, -1.5200000000000001E-09, 6.9958, 2.7394100000000005E-10, -0.000394667, 25
DataValue, -5.5900000000000008E-09, 8.0002, 2.73827E-10, -0.00039510200000000004, 25
DataValue, -7.430000000000001E-09, 8.9980000000000011, 2.73918E-10, -0.000395039, 25
DataValue, -3.8200000000000005E-09, 9.9946, 2.7399E-10, -0.000394832, 25
DataValue, -9.85E-09, 11.0046, 2.7402E-10, -0.00039436200000000004, 25
DataValue, -3.3000000000000005E-10, 11.996, 2.7400600000000004E-10, -0.00039445, 25
DataValue, -1.8000000000000003E-10, 13.000200000000001, 2.73911E-10, -0.00039430700000000005, 25
DataValue, -5.75E-09, 13.9962, 2.7393E-10, -0.000395025, 25
DataValue, -5.88E-09, 15.0004, 2.7391600000000004E-10, -0.00039517700000000003, 25
DataValue, -4.4600000000000007E-09, 16.0044, 2.73935E-10, -0.00039521200000000004, 25
DataValue, -3.2000000000000003E-10, 16.994600000000002, 2.7393900000000003E-10, -0.000394335, 25
DataValue, -8.34E-09, 18.008, 2.7403100000000004E-10, -0.00039477500000000004, 25
DataValue, -2.5100000000000002E-09, 19.0024, 2.73931E-10, -0.000394959, 25
DataValue, -1.9100000000000002E-09, 19.9938, 2.74063E-10, -0.000394842, 25
DataValue, -7.4400000000000008E-09, 21.003600000000002, 2.73996E-10, -0.000395045, 25
DataValue, -4.41E-09, 22.0018, 2.7392100000000003E-10, -0.00039539500000000005, 25
DataValue, -2.1600000000000004E-09, 23.003600000000002, 2.74016E-10, -0.000394573, 25
DataValue, -6.0400000000000006E-09, 24, 2.7401200000000004E-10, -0.00039515300000000003, 25
DataValue, -4.79E-09, 25.001, 2.7398100000000003E-10, -0.00039497800000000004, 25
DataValue, -6.5500000000000007E-09, 25.998800000000003, 2.74082E-10, -0.00039514300000000004, 25
DataValue, -2.79E-09, 27.001, 2.7395200000000004E-10, -0.00039484400000000004, 25
DataValue, 1.6400000000000001E-09, 27.996000000000002, 2.7395800000000004E-10, -0.00039494000000000004, 25
DataValue, 2.2700000000000002E-09, 28.994600000000002, 2.74008E-10, -0.000395293, 25
DataValue, -6.950000000000001E-09, 30.001800000000003, 2.7396400000000004E-10, -0.000394697, 25
DataValue, -3.7800000000000006E-09, 30.999200000000002, 2.73961E-10, -0.00039501900000000003, 25
DataValue, -6.1100000000000006E-09, 31.998, 2.74016E-10, -0.000395179, 25
DataValue, -2.94E-09, 32.998000000000005, 2.74064E-10, -0.000395155, 25
DataValue, -1.8500000000000002E-09, 34.0004, 2.74039E-10, -0.00039495700000000003, 25
DataValue, -5.9000000000000007E-09, 34.9966, 2.7403700000000004E-10, -0.000394777, 25
DataValue, -1.4400000000000002E-09, 35.998000000000005, 2.74057E-10, -0.00039495100000000005, 25
DataValue, -4.6000000000000007E-09, 36.9998, 2.7403100000000004E-10, -0.000394797, 25
DataValue, 1.6600000000000003E-09, 37.9974, 2.7395100000000003E-10, -0.00039563900000000004, 25
DataValue, -2.8500000000000003E-09, 38.998400000000004, 2.7407800000000003E-10, -0.00039514000000000004, 25
DataValue, -2.9100000000000005E-09, 39.9994, 2.74014E-10, -0.000395306, 25
DataValue, -5.92E-09, 41.003, 2.74082E-10, -0.000394848, 25
DataValue, -4.9700000000000008E-09, 42.0036, 2.7401100000000003E-10, -0.00039433700000000003, 25
DataValue, -4.2600000000000006E-09, 43.0006, 2.7397500000000003E-10, -0.00039469500000000003, 25
DataValue, -1.3700000000000002E-09, 44.0006, 2.74101E-10, -0.00039525300000000003, 25
DataValue, 1.3200000000000002E-09, 44.996, 2.74099E-10, -0.00039535000000000004, 25
DataValue, -1.0770000000000002E-08, 46.0054, 2.74027E-10, -0.000394904, 25
DataValue, -6.0400000000000006E-09, 46.9992, 2.74008E-10, -0.000395435, 25
DataValue, 5.2000000000000007E-10, 48, 2.73984E-10, -0.000395227, 25
DataValue, -8.08E-09, 49.003800000000005, 2.74128E-10, -0.00039481200000000003, 25
DataValue, -3.8000000000000003E-10, 50, 2.7410200000000003E-10, -0.000394942, 25