
SetupTitle, Cgs
ApplicationTest, Cgs, Public
TestParameter, Name, Memo, IntegTime, Frequency, OscLevel, Scale, Gate, VdBias, VdStart, VdStop, VdLinearStep, IdLimit, HoldTime, DelayTime, IdMinRange
TestParameter, Value, , SHORT, 1000000, 0.025, LINEAR, CMU1:MF	MFCMU, SMU6:HV	HVSMU, 0, 50, 1, 0.004, 1, 1, 10uA
DutParameter, Name, Polarity, Temp, YAxisCgsMin, YAxisCgsMax
DutParameter, Value, 1, 25, 1E-12, 5E-09
MetaData, TestRecord.EntryPoint, true
MetaData, TestRecord.RecordTime, 12/28/2020 11:46:26
MetaData, TestRecord.TestTarget, 
MetaData, TestRecord.IterationIndex, 22
MetaData, TestRecord.Preservation, true
MetaData, TestRecord.Flag, 
MetaData, TestRecord.Remarks, 
MetaData, TestRecord.LinkKey, 9b798015-7957-4cd3-b1ad-7f53f905799b
Dimension1, 51, 51, 51, 51, 51
Dimension2, 1, 1, 1, 1, 1
DataName, Ids, Vdrain, Cgs, G, Ta
DataValue, -6.540000000000001E-09, 0.002, 1.34503E-09, -0.00120195, 25
DataValue, -8.940000000000001E-09, 1.006, 1.3452E-09, -0.00120213, 25
DataValue, -5.61E-09, 2.0026, 1.34511E-09, -0.00120294, 25
DataValue, 6.7000000000000006E-10, 2.9994, 1.34503E-09, -0.00120182, 25
DataValue, 1.3900000000000002E-09, 3.9974000000000003, 1.34495E-09, -0.00120261, 25
DataValue, -6.5500000000000007E-09, 5.0006, 1.34502E-09, -0.00120218, 25
DataValue, -6.8700000000000005E-09, 6.003, 1.34494E-09, -0.00120216, 25
DataValue, -4.62E-09, 6.9998000000000005, 1.3448E-09, -0.00120072, 25
DataValue, -1.2100000000000002E-09, 7.9964, 1.34512E-09, -0.00120226, 25
DataValue, -3.8100000000000007E-09, 8.9978, 1.34478E-09, -0.00120206, 25
DataValue, -7.2800000000000005E-09, 10.004000000000001, 1.34485E-09, -0.00120192, 25
DataValue, -4.3000000000000007E-10, 11.002, 1.34478E-09, -0.0012024100000000001, 25
DataValue, -2.82E-09, 11.989, 1.34498E-09, -0.00120188, 25
DataValue, -5.75E-09, 13.0008, 1.3448E-09, -0.0012018600000000001, 25
DataValue, -4.2300000000000005E-09, 14.006200000000002, 1.3447699999999999E-09, -0.0012021900000000001, 25
DataValue, -4.03E-09, 15.0012, 1.34487E-09, -0.0012016800000000001, 25
DataValue, -3.8900000000000004E-09, 15.998000000000001, 1.34483E-09, -0.00120245, 25
DataValue, 4.9000000000000007E-10, 16.997, 1.34497E-09, -0.00120121, 25
DataValue, -3.4100000000000004E-09, 17.998, 1.34502E-09, -0.00120158, 25
DataValue, -2.89E-09, 19.0026, 1.34511E-09, -0.00120178, 25
DataValue, -1.3700000000000002E-09, 19.998, 1.34492E-09, -0.0012016800000000001, 25
DataValue, -8.4E-09, 21.002200000000002, 1.34506E-09, -0.00120233, 25
DataValue, -1.25E-09, 21.9954, 1.34495E-09, -0.00120189, 25
DataValue, -3.9900000000000005E-09, 22.9978, 1.34503E-09, -0.00120257, 25
DataValue, 9.000000000000001E-10, 23.995, 1.34489E-09, -0.0012014, 25
DataValue, -7.8900000000000015E-09, 25.003600000000002, 1.34508E-09, -0.00120283, 25
DataValue, -5.3100000000000009E-09, 26.000400000000003, 1.34489E-09, -0.00120318, 25
DataValue, -6.4000000000000011E-09, 26.9962, 1.34516E-09, -0.00120179, 25
DataValue, -1.9900000000000004E-09, 27.9998, 1.34471E-09, -0.0012025900000000001, 25
DataValue, -5.5900000000000008E-09, 29.0046, 1.34498E-09, -0.00120189, 25
DataValue, -4.9700000000000008E-09, 30.002000000000002, 1.34491E-09, -0.00120195, 25
DataValue, -4.76E-09, 31.0012, 1.34497E-09, -0.00120189, 25
DataValue, -3.0900000000000003E-09, 31.9978, 1.34495E-09, -0.00120185, 25
DataValue, -3.25E-09, 33.0026, 1.34511E-09, -0.00120198, 25
DataValue, -4.0600000000000005E-09, 34.001200000000004, 1.34517E-09, -0.00120158, 25
DataValue, -3.83E-09, 35.0026, 1.34494E-09, -0.00120217, 25
DataValue, 1.1000000000000001E-10, 35.9996, 1.34491E-09, -0.0012009100000000001, 25
DataValue, -5.9800000000000004E-09, 37.001400000000004, 1.34501E-09, -0.00120235, 25
DataValue, -4.0900000000000006E-09, 38.0004, 1.34481E-09, -0.00120307, 25
DataValue, 1.47E-09, 38.9942, 1.34493E-09, -0.00120255, 25
DataValue, -5.88E-09, 40.0006, 1.34495E-09, -0.00120264, 25
DataValue, -2.94E-09, 41.0026, 1.3448E-09, -0.0012021, 25
DataValue, -8.3000000000000015E-09, 42.001200000000004, 1.34489E-09, -0.00120302, 25
DataValue, -6.7000000000000006E-10, 42.9968, 1.34484E-09, -0.00120235, 25
DataValue, -4.8100000000000006E-09, 43.997800000000005, 1.34498E-09, -0.0012019, 25
DataValue, -7.7700000000000011E-09, 45.0056, 1.34507E-09, -0.00120218, 25
DataValue, -5.9E-10, 46.001000000000005, 1.34486E-09, -0.00120195, 25
DataValue, -7.2700000000000007E-09, 47.005, 1.34504E-09, -0.00120165, 25
DataValue, 4.59E-09, 47.9942, 1.34497E-09, -0.00120092, 25
DataValue, -5.95E-09, 49.0026, 1.34488E-09, -0.00120216, 25
DataValue, -2.22E-09, 49.9998, 1.34504E-09, -0.00120213, 25
SetupTitle, Cgs
PrimitiveTest, C-V Sweep
TestParameter, Channel.UnitTyp, CMU, SMU
TestParameter, Channel.Unit, Gate, VdBias
TestParameter, Channel.IName, , Ids
TestParameter, Channel.VName, VBias, Vdrain
TestParameter, Channel.Mode, , V
TestParameter, Channel.Func, CONST, VAR1
TestParameter, Channel.Index, 
TestParameter, Channel.Time, 
TestParameter, Measurement.Primary.Locus, Single
TestParameter, Measurement.Primary.Scale, Scale
TestParameter, Measurement.Primary.Start, VdStart*Polarity
TestParameter, Measurement.Primary.Stop, VdStop*Polarity
TestParameter, Measurement.Primary.Compliance, IdLimit
TestParameter, Measurement.Primary.Step, VdLinearStep*Polarity
TestParameter, Measurement.Aborting.Condition, CONTINUE AT ANY
TestParameter, Measurement.PostOutput.Value, START
TestParameter, Measurement.PostOutput.Retention, OFF
TestParameter, Measurement.Secondary.ACLevel, OscLevel
TestParameter, Measurement.Secondary.FName, Freq
TestParameter, Measurement.Secondary.Frequency, Frequency
TestParameter, Measurement.Bias.Source, 0, 0
TestParameter, Measurement.ImpedanceMode.Model, Cp-G
TestParameter, Measurement.ImpedanceMode.CName, Cgs
TestParameter, Measurement.ImpedanceMode.LName, L
TestParameter, Measurement.ImpedanceMode.GName, G
TestParameter, Measurement.ImpedanceMode.RName, R
TestParameter, Measurement.ImpedanceMode.QName, Q
TestParameter, Measurement.ImpedanceMode.DName, D
TestParameter, Measurement.ImpedanceMode.YName, Y
TestParameter, Measurement.ImpedanceMode.ZName, Z
TestParameter, Measurement.ImpedanceMode.ThName, Theta
TestParameter, Measurement.ImpedanceMode.BName, B
TestParameter, Measurement.ImpedanceMode.XName, X
TestParameter, Measurement.Monitor.Unit, CMU:=Gate, SMU:=VdBias
TestParameter, Measurement.Monitor.RangingMode, AUTO, LIMITED
TestParameter, Measurement.Monitor.RangeBoundary, 50, IdMinRange
TestParameter, Measurement.Monitor.AcMonitorSymbol, 
TestParameter, Measurement.Monitor.DcMonitorSymbol, 
TestParameter, Measurement.Timing.Hold, HoldTime
TestParameter, Measurement.Timing.Delay, DelayTime
TestParameter, Measurement.Adc.UnitType, Cmu, Smu
TestParameter, Measurement.Adc.HighResolution.Mode, IntegMode, IntegMode
TestParameter, Measurement.Adc.HighResolution.Coeff, AdcFactor, AdcFactor
TestParameter, Measurement.WaitTime.Source.Coeff, 1
TestParameter, Measurement.WaitTime.Source.Offset, 0
TestParameter, Measurement.WaitTime.Monitor.Coeff, 1
TestParameter, Measurement.WaitTime.Monitor.Offset, 0
TestParameter, Function.User.Name, Ta
TestParameter, Function.User.Unit, deg
TestParameter, Function.User.Definition, Temp
TestParameter, Output.Graph.Enabled, true
TestParameter, Output.Graph.AutoScaling, false
TestParameter, Output.Graph.XAxis.Data, Vdrain
TestParameter, Output.Graph.XAxis.Scale, ScaleStr
TestParameter, Output.Graph.XAxis.Left, VdStart*Polarity
TestParameter, Output.Graph.XAxis.Right, VdStop*Polarity
TestParameter, Output.Graph.XAxis.RunTimeAutoScale, false
TestParameter, Output.Graph.YAxis.Data, Cgs
TestParameter, Output.Graph.YAxis.Scale, Log
TestParameter, Output.Graph.YAxis.Bottom, YAxisCgsMin
TestParameter, Output.Graph.YAxis.Top, YAxisCgsMax
TestParameter, Output.Graph.YAxis.Group, 
TestParameter, Output.Graph.YAxis.RunTimeAutoScale, false
TestParameter, Output.List.Data, Vdrain, Cgs, Ids
TestParameter, Output.Scalar.Data, Ta
TestParameter, AutoAnalysis.Interpolation, true
TestParameter, AutoAnalysis.Line1.Enabled, false
TestParameter, AutoAnalysis.Line1.Type, 1
TestParameter, AutoAnalysis.Line1.Fix, True
TestParameter, AutoAnalysis.Line1.YAxis, 0
TestParameter, AutoAnalysis.Line1.Point1.Type, 0
TestParameter, AutoAnalysis.Line1.Point1.XY.X, 
TestParameter, AutoAnalysis.Line1.Point1.XY.Y, 
TestParameter, AutoAnalysis.Line1.Point1.Data.Var, 
TestParameter, AutoAnalysis.Line1.Point1.Data.Condition, 
TestParameter, AutoAnalysis.Line1.Point1.Data.Start, false
TestParameter, AutoAnalysis.Line1.Point1.Data.StartVar, 
TestParameter, AutoAnalysis.Line1.Point1.Data.StartCondition, 
TestParameter, AutoAnalysis.Line1.Point2.Type, 0
TestParameter, AutoAnalysis.Line1.Point2.XY.X, 
TestParameter, AutoAnalysis.Line1.Point2.XY.Y, 
TestParameter, AutoAnalysis.Line1.Point2.Data.Var, 
TestParameter, AutoAnalysis.Line1.Point2.Data.Condition, 
TestParameter, AutoAnalysis.Line1.Point2.Data.Start, false
TestParameter, AutoAnalysis.Line1.Point2.Data.StartVar, 
TestParameter, AutoAnalysis.Line1.Point2.Data.StartCondition, 
TestParameter, AutoAnalysis.Line1.GradientExpr, 0
TestParameter, AutoAnalysis.Line2.Enabled, false
TestParameter, AutoAnalysis.Line2.Type, 1
TestParameter, AutoAnalysis.Line2.Fix, True
TestParameter, AutoAnalysis.Line2.YAxis, 0
TestParameter, AutoAnalysis.Line2.Point1.Type, 0
TestParameter, AutoAnalysis.Line2.Point1.XY.X, 
TestParameter, AutoAnalysis.Line2.Point1.XY.Y, 
TestParameter, AutoAnalysis.Line2.Point1.Data.Var, 
TestParameter, AutoAnalysis.Line2.Point1.Data.Condition, 
TestParameter, AutoAnalysis.Line2.Point1.Data.Start, false
TestParameter, AutoAnalysis.Line2.Point1.Data.StartVar, 
TestParameter, AutoAnalysis.Line2.Point1.Data.StartCondition, 
TestParameter, AutoAnalysis.Line2.Point2.Type, 0
TestParameter, AutoAnalysis.Line2.Point2.XY.X, 
TestParameter, AutoAnalysis.Line2.Point2.XY.Y, 
TestParameter, AutoAnalysis.Line2.Point2.Data.Var, 
TestParameter, AutoAnalysis.Line2.Point2.Data.Condition, 
TestParameter, AutoAnalysis.Line2.Point2.Data.Start, false
TestParameter, AutoAnalysis.Line2.Point2.Data.StartVar, 
TestParameter, AutoAnalysis.Line2.Point2.Data.StartCondition, 
TestParameter, AutoAnalysis.Line2.GradientExpr, 0
TestParameter, AutoAnalysis.Marker.Enabled, false
TestParameter, AutoAnalysis.Marker.Data.Var, 
TestParameter, AutoAnalysis.Marker.Data.Condition, 
TestParameter, AutoAnalysis.Marker.Data.Start, false
TestParameter, AutoAnalysis.Marker.Data.StartVar, 
TestParameter, AutoAnalysis.Marker.Data.StartCondition, 
MetaData, TestRecord.EntryPoint, false
MetaData, TestRecord.RecordTime, 12/28/2020 11:46:26
MetaData, TestRecord.TestTarget, 
MetaData, TestRecord.IterationIndex, 22
MetaData, TestRecord.Preservation, true
MetaData, TestRecord.Flag, 
MetaData, TestRecord.Remarks, 
MetaData, TestRecord.LinkKey, 9b798015-7957-4cd3-b1ad-7f53f905799b
Dimension1, 51, 51, 51, 51, 51
Dimension2, 1, 1, 1, 1, 1
DataName, Ids, Vdrain, Cgs, G, Ta
DataValue, -6.540000000000001E-09, 0.002, 1.34503E-09, -0.00120195, 25
DataValue, -8.940000000000001E-09, 1.006, 1.3452E-09, -0.00120213, 25
DataValue, -5.61E-09, 2.0026, 1.34511E-09, -0.00120294, 25
DataValue, 6.7000000000000006E-10, 2.9994, 1.34503E-09, -0.00120182, 25
DataValue, 1.3900000000000002E-09, 3.9974000000000003, 1.34495E-09, -0.00120261, 25
DataValue, -6.5500000000000007E-09, 5.0006, 1.34502E-09, -0.00120218, 25
DataValue, -6.8700000000000005E-09, 6.003, 1.34494E-09, -0.00120216, 25
DataValue, -4.62E-09, 6.9998000000000005, 1.3448E-09, -0.00120072, 25
DataValue, -1.2100000000000002E-09, 7.9964, 1.34512E-09, -0.00120226, 25
DataValue, -3.8100000000000007E-09, 8.9978, 1.34478E-09, -0.00120206, 25
DataValue, -7.2800000000000005E-09, 10.004000000000001, 1.34485E-09, -0.00120192, 25
DataValue, -4.3000000000000007E-10, 11.002, 1.34478E-09, -0.0012024100000000001, 25
DataValue, -2.82E-09, 11.989, 1.34498E-09, -0.00120188, 25
DataValue, -5.75E-09, 13.0008, 1.3448E-09, -0.0012018600000000001, 25
DataValue, -4.2300000000000005E-09, 14.006200000000002, 1.3447699999999999E-09, -0.0012021900000000001, 25
DataValue, -4.03E-09, 15.0012, 1.34487E-09, -0.0012016800000000001, 25
DataValue, -3.8900000000000004E-09, 15.998000000000001, 1.34483E-09, -0.00120245, 25
DataValue, 4.9000000000000007E-10, 16.997, 1.34497E-09, -0.00120121, 25
DataValue, -3.4100000000000004E-09, 17.998, 1.34502E-09, -0.00120158, 25
DataValue, -2.89E-09, 19.0026, 1.34511E-09, -0.00120178, 25
DataValue, -1.3700000000000002E-09, 19.998, 1.34492E-09, -0.0012016800000000001, 25
DataValue, -8.4E-09, 21.002200000000002, 1.34506E-09, -0.00120233, 25
DataValue, -1.25E-09, 21.9954, 1.34495E-09, -0.00120189, 25
DataValue, -3.9900000000000005E-09, 22.9978, 1.34503E-09, -0.00120257, 25
DataValue, 9.000000000000001E-10, 23.995, 1.34489E-09, -0.0012014, 25
DataValue, -7.8900000000000015E-09, 25.003600000000002, 1.34508E-09, -0.00120283, 25
DataValue, -5.3100000000000009E-09, 26.000400000000003, 1.34489E-09, -0.00120318, 25
DataValue, -6.4000000000000011E-09, 26.9962, 1.34516E-09, -0.00120179, 25
DataValue, -1.9900000000000004E-09, 27.9998, 1.34471E-09, -0.0012025900000000001, 25
DataValue, -5.5900000000000008E-09, 29.0046, 1.34498E-09, -0.00120189, 25
DataValue, -4.9700000000000008E-09, 30.002000000000002, 1.34491E-09, -0.00120195, 25
DataValue, -4.76E-09, 31.0012, 1.34497E-09, -0.00120189, 25
DataValue, -3.0900000000000003E-09, 31.9978, 1.34495E-09, -0.00120185, 25
DataValue, -3.25E-09, 33.0026, 1.34511E-09, -0.00120198, 25
DataValue, -4.0600000000000005E-09, 34.001200000000004, 1.34517E-09, -0.00120158, 25
DataValue, -3.83E-09, 35.0026, 1.34494E-09, -0.00120217, 25
DataValue, 1.1000000000000001E-10, 35.9996, 1.34491E-09, -0.0012009100000000001, 25
DataValue, -5.9800000000000004E-09, 37.001400000000004, 1.34501E-09, -0.00120235, 25
DataValue, -4.0900000000000006E-09, 38.0004, 1.34481E-09, -0.00120307, 25
DataValue, 1.47E-09, 38.9942, 1.34493E-09, -0.00120255, 25
DataValue, -5.88E-09, 40.0006, 1.34495E-09, -0.00120264, 25
DataValue, -2.94E-09, 41.0026, 1.3448E-09, -0.0012021, 25
DataValue, -8.3000000000000015E-09, 42.001200000000004, 1.34489E-09, -0.00120302, 25
DataValue, -6.7000000000000006E-10, 42.9968, 1.34484E-09, -0.00120235, 25
DataValue, -4.8100000000000006E-09, 43.997800000000005, 1.34498E-09, -0.0012019, 25
DataValue, -7.7700000000000011E-09, 45.0056, 1.34507E-09, -0.00120218, 25
DataValue, -5.9E-10, 46.001000000000005, 1.34486E-09, -0.00120195, 25
DataValue, -7.2700000000000007E-09, 47.005, 1.34504E-09, -0.00120165, 25
DataValue, 4.59E-09, 47.9942, 1.34497E-09, -0.00120092, 25
DataValue, -5.95E-09, 49.0026, 1.34488E-09, -0.00120216, 25
DataValue, -2.22E-09, 49.9998, 1.34504E-09, -0.00120213, 25