
SetupTitle, Cgs
ApplicationTest, Cgs, Public
TestParameter, Name, Memo, IntegTime, Frequency, OscLevel, Scale, Gate, VdBias, VdStart, VdStop, VdLinearStep, IdLimit, HoldTime, DelayTime, IdMinRange
TestParameter, Value, , SHORT, 1000000, 0.025, LINEAR, CMU1:MF	MFCMU, SMU6:HV	HVSMU, 0, 600, 10, 0.004, 1, 1, 10uA
DutParameter, Name, Polarity, Temp, YAxisCgsMin, YAxisCgsMax
DutParameter, Value, 1, 25, 1E-12, 5E-09
MetaData, TestRecord.EntryPoint, true
MetaData, TestRecord.RecordTime, 04/24/2021 12:13:29
MetaData, TestRecord.TestTarget, 
MetaData, TestRecord.IterationIndex, 46
MetaData, TestRecord.Preservation, true
MetaData, TestRecord.Flag, 
MetaData, TestRecord.Remarks, 
MetaData, TestRecord.LinkKey, 7f8d1d18-6c0c-48d5-8947-e84fb2dbe85b
Dimension1, 61, 61, 61, 61, 61
Dimension2, 1, 1, 1, 1, 1
DataName, Ids, Vdrain, Cgs, G, Ta
DataValue, -4.14E-09, -0.003, 2.35448E-09, -0.00333056, 25
DataValue, -1.48E-09, 9.999, 2.35457E-09, -0.00332933, 25
DataValue, -7.81E-09, 19.9995, 2.35509E-09, -0.0033376400000000002, 25
DataValue, 1.29E-09, 29.9955, 2.35447E-09, -0.00332787, 25
DataValue, -4.1000000000000003E-10, 40.002, 2.35459E-09, -0.00333202, 25
DataValue, -2.7000000000000005E-10, 49.9965, 2.35468E-09, -0.00333371, 25
DataValue, -9.8000000000000013E-10, 60, 2.35415E-09, -0.0033287300000000002, 25
DataValue, -4.2000000000000005E-10, 70.0005, 2.35547E-09, -0.00333492, 25
DataValue, -2.17E-09, 80.001, 2.35452E-09, -0.00333079, 25
DataValue, -6.9700000000000005E-09, 90.001500000000007, 2.35454E-09, -0.00333437, 25
DataValue, -1.5200000000000001E-09, 99.999, 2.35492E-09, -0.0033330400000000002, 25
DataValue, 3.87E-09, 109.9965, 2.35429E-09, -0.00332875, 25
DataValue, -3.0200000000000003E-09, 120.00150000000001, 2.35517E-09, -0.00333465, 25
DataValue, 1.4E-10, 129.9975, 2.35433E-09, -0.0033293, 25
DataValue, 3.1000000000000005E-09, 139.998, 2.35501E-09, -0.00333233, 25
DataValue, -3.8200000000000005E-09, 149.9985, 2.35492E-09, -0.00332923, 25
DataValue, -5.1200000000000005E-09, 160.002, 2.35458E-09, -0.00332913, 25
DataValue, -2.67E-09, 170.001, 2.35502E-09, -0.00333441, 25
DataValue, 7.6000000000000006E-10, 179.9985, 2.35432E-09, -0.0033284400000000002, 25
DataValue, -5.9000000000000007E-09, 190.002, 2.35547E-09, -0.0033332, 25
DataValue, -7.74E-09, 200.001, 2.35442E-09, -0.00332949, 25
DataValue, -6.0300000000000009E-09, 210, 2.3551E-09, -0.00333329, 25
DataValue, -7.53E-09, 220.002, 2.35441E-09, -0.00332799, 25
DataValue, -9.0000000000000012E-09, 230.004, 2.35533E-09, -0.00333305, 25
DataValue, -6.6600000000000006E-09, 240.0015, 2.35417E-09, -0.00333344, 25
DataValue, -2.1600000000000004E-09, 249.999, 2.35518E-09, -0.00333273, 25
DataValue, 2.0100000000000003E-09, 259.998, 2.35418E-09, -0.00333416, 25
DataValue, 2.4E-10, 269.9955, 2.35502E-09, -0.00333259, 25
DataValue, -5.4500000000000008E-09, 280.002, 2.35408E-09, -0.00333049, 25
DataValue, -2E-09, 290.004, 2.35506E-09, -0.00333211, 25
DataValue, 3.4100000000000004E-09, 299.9955, 2.35471E-09, -0.0033311400000000002, 25
DataValue, -1.0200000000000002E-09, 309.996, 2.35527E-09, -0.00333239, 25
DataValue, -3.9000000000000005E-10, 319.998, 2.3544E-09, -0.0033331, 25
DataValue, 1.9900000000000004E-09, 329.997, 2.35477E-09, -0.00333188, 25
DataValue, 1.13E-09, 339.9975, 2.35479E-09, -0.0033310600000000003, 25
DataValue, -3.1400000000000003E-09, 349.9995, 2.35496E-09, -0.00333052, 25
DataValue, -2.2700000000000002E-09, 359.99850000000004, 2.35456E-09, -0.00333167, 25
DataValue, -2.7100000000000004E-09, 369.996, 2.3549E-09, -0.00333044, 25
DataValue, -2.5400000000000003E-09, 379.998, 2.35472E-09, -0.00333222, 25
DataValue, -7.66E-09, 390, 2.35493E-09, -0.0033293800000000003, 25
DataValue, -8.84E-09, 400.002, 2.35493E-09, -0.0033342800000000002, 25
DataValue, -2.8600000000000005E-09, 409.9995, 2.35447E-09, -0.0033315700000000003, 25
DataValue, -5.34E-09, 420.003, 2.35481E-09, -0.00333505, 25
DataValue, -1.1000000000000001E-10, 429.999, 2.35432E-09, -0.00332978, 25
DataValue, 5.100000000000001E-10, 439.9935, 2.35515E-09, -0.00333064, 25
DataValue, -2.3500000000000004E-09, 450.0015, 2.35405E-09, -0.00333129, 25
DataValue, -7.2700000000000007E-09, 460.00350000000003, 2.35473E-09, -0.0033356, 25
DataValue, -6.1000000000000009E-09, 469.998, 2.3551E-09, -0.00333122, 25
DataValue, -3.93E-09, 480.0015, 2.35422E-09, -0.0033328, 25
DataValue, -7.46E-09, 490.005, 2.35541E-09, -0.00333412, 25
DataValue, -4.6300000000000008E-09, 500.00100000000003, 2.3546E-09, -0.00332933, 25
DataValue, -6.2E-10, 510.0015, 2.35502E-09, -0.00333251, 25
DataValue, 2.72E-09, 519.999, 2.35468E-09, -0.00333087, 25
DataValue, -3.9900000000000005E-09, 529.9965, 2.35429E-09, -0.00333219, 25
DataValue, -1.3980000000000002E-08, 540.0045, 2.35567E-09, -0.00333358, 25
DataValue, 3.94E-09, 549.9945, 2.35433E-09, -0.0033301, 25
DataValue, -7.0400000000000005E-09, 560.001, 2.35489E-09, -0.00333652, 25
DataValue, -8.0000000000000013E-10, 570.0015, 2.35484E-09, -0.00333299, 25
DataValue, -8.34E-09, 580.0005, 2.35453E-09, -0.00333178, 25
DataValue, -6.7300000000000005E-09, 589.9995, 2.35553E-09, -0.00333494, 25
DataValue, -5.88E-09, 600, 2.35424E-09, -0.00333027, 25
SetupTitle, Cgs
PrimitiveTest, C-V Sweep
TestParameter, Channel.UnitTyp, CMU, SMU
TestParameter, Channel.Unit, Gate, VdBias
TestParameter, Channel.IName, , Ids
TestParameter, Channel.VName, VBias, Vdrain
TestParameter, Channel.Mode, , V
TestParameter, Channel.Func, CONST, VAR1
TestParameter, Channel.Index, 
TestParameter, Channel.Time, 
TestParameter, Measurement.Primary.Locus, Single
TestParameter, Measurement.Primary.Scale, Scale
TestParameter, Measurement.Primary.Start, VdStart*Polarity
TestParameter, Measurement.Primary.Stop, VdStop*Polarity
TestParameter, Measurement.Primary.Compliance, IdLimit
TestParameter, Measurement.Primary.Step, VdLinearStep*Polarity
TestParameter, Measurement.Aborting.Condition, CONTINUE AT ANY
TestParameter, Measurement.PostOutput.Value, START
TestParameter, Measurement.PostOutput.Retention, OFF
TestParameter, Measurement.Secondary.ACLevel, OscLevel
TestParameter, Measurement.Secondary.FName, Freq
TestParameter, Measurement.Secondary.Frequency, Frequency
TestParameter, Measurement.Bias.Source, 0, 0
TestParameter, Measurement.ImpedanceMode.Model, Cp-G
TestParameter, Measurement.ImpedanceMode.CName, Cgs
TestParameter, Measurement.ImpedanceMode.LName, L
TestParameter, Measurement.ImpedanceMode.GName, G
TestParameter, Measurement.ImpedanceMode.RName, R
TestParameter, Measurement.ImpedanceMode.QName, Q
TestParameter, Measurement.ImpedanceMode.DName, D
TestParameter, Measurement.ImpedanceMode.YName, Y
TestParameter, Measurement.ImpedanceMode.ZName, Z
TestParameter, Measurement.ImpedanceMode.ThName, Theta
TestParameter, Measurement.ImpedanceMode.BName, B
TestParameter, Measurement.ImpedanceMode.XName, X
TestParameter, Measurement.Monitor.Unit, CMU:=Gate, SMU:=VdBias
TestParameter, Measurement.Monitor.RangingMode, AUTO, LIMITED
TestParameter, Measurement.Monitor.RangeBoundary, 50, IdMinRange
TestParameter, Measurement.Monitor.AcMonitorSymbol, 
TestParameter, Measurement.Monitor.DcMonitorSymbol, 
TestParameter, Measurement.Timing.Hold, HoldTime
TestParameter, Measurement.Timing.Delay, DelayTime
TestParameter, Measurement.Adc.UnitType, Cmu, Smu
TestParameter, Measurement.Adc.HighResolution.Mode, IntegMode, IntegMode
TestParameter, Measurement.Adc.HighResolution.Coeff, AdcFactor, AdcFactor
TestParameter, Measurement.WaitTime.Source.Coeff, 1
TestParameter, Measurement.WaitTime.Source.Offset, 0
TestParameter, Measurement.WaitTime.Monitor.Coeff, 1
TestParameter, Measurement.WaitTime.Monitor.Offset, 0
TestParameter, Function.User.Name, Ta
TestParameter, Function.User.Unit, deg
TestParameter, Function.User.Definition, Temp
TestParameter, Output.Graph.Enabled, true
TestParameter, Output.Graph.AutoScaling, false
TestParameter, Output.Graph.XAxis.Data, Vdrain
TestParameter, Output.Graph.XAxis.Scale, ScaleStr
TestParameter, Output.Graph.XAxis.Left, VdStart*Polarity
TestParameter, Output.Graph.XAxis.Right, VdStop*Polarity
TestParameter, Output.Graph.XAxis.RunTimeAutoScale, false
TestParameter, Output.Graph.YAxis.Data, Cgs
TestParameter, Output.Graph.YAxis.Scale, Log
TestParameter, Output.Graph.YAxis.Bottom, YAxisCgsMin
TestParameter, Output.Graph.YAxis.Top, YAxisCgsMax
TestParameter, Output.Graph.YAxis.Group, 
TestParameter, Output.Graph.YAxis.RunTimeAutoScale, false
TestParameter, Output.List.Data, Vdrain, Cgs, Ids
TestParameter, Output.Scalar.Data, Ta
TestParameter, AutoAnalysis.Interpolation, true
TestParameter, AutoAnalysis.Line1.Enabled, false
TestParameter, AutoAnalysis.Line1.Type, 1
TestParameter, AutoAnalysis.Line1.Fix, True
TestParameter, AutoAnalysis.Line1.YAxis, 0
TestParameter, AutoAnalysis.Line1.Point1.Type, 0
TestParameter, AutoAnalysis.Line1.Point1.XY.X, 
TestParameter, AutoAnalysis.Line1.Point1.XY.Y, 
TestParameter, AutoAnalysis.Line1.Point1.Data.Var, 
TestParameter, AutoAnalysis.Line1.Point1.Data.Condition, 
TestParameter, AutoAnalysis.Line1.Point1.Data.Start, false
TestParameter, AutoAnalysis.Line1.Point1.Data.StartVar, 
TestParameter, AutoAnalysis.Line1.Point1.Data.StartCondition, 
TestParameter, AutoAnalysis.Line1.Point2.Type, 0
TestParameter, AutoAnalysis.Line1.Point2.XY.X, 
TestParameter, AutoAnalysis.Line1.Point2.XY.Y, 
TestParameter, AutoAnalysis.Line1.Point2.Data.Var, 
TestParameter, AutoAnalysis.Line1.Point2.Data.Condition, 
TestParameter, AutoAnalysis.Line1.Point2.Data.Start, false
TestParameter, AutoAnalysis.Line1.Point2.Data.StartVar, 
TestParameter, AutoAnalysis.Line1.Point2.Data.StartCondition, 
TestParameter, AutoAnalysis.Line1.GradientExpr, 0
TestParameter, AutoAnalysis.Line2.Enabled, false
TestParameter, AutoAnalysis.Line2.Type, 1
TestParameter, AutoAnalysis.Line2.Fix, True
TestParameter, AutoAnalysis.Line2.YAxis, 0
TestParameter, AutoAnalysis.Line2.Point1.Type, 0
TestParameter, AutoAnalysis.Line2.Point1.XY.X, 
TestParameter, AutoAnalysis.Line2.Point1.XY.Y, 
TestParameter, AutoAnalysis.Line2.Point1.Data.Var, 
TestParameter, AutoAnalysis.Line2.Point1.Data.Condition, 
TestParameter, AutoAnalysis.Line2.Point1.Data.Start, false
TestParameter, AutoAnalysis.Line2.Point1.Data.StartVar, 
TestParameter, AutoAnalysis.Line2.Point1.Data.StartCondition, 
TestParameter, AutoAnalysis.Line2.Point2.Type, 0
TestParameter, AutoAnalysis.Line2.Point2.XY.X, 
TestParameter, AutoAnalysis.Line2.Point2.XY.Y, 
TestParameter, AutoAnalysis.Line2.Point2.Data.Var, 
TestParameter, AutoAnalysis.Line2.Point2.Data.Condition, 
TestParameter, AutoAnalysis.Line2.Point2.Data.Start, false
TestParameter, AutoAnalysis.Line2.Point2.Data.StartVar, 
TestParameter, AutoAnalysis.Line2.Point2.Data.StartCondition, 
TestParameter, AutoAnalysis.Line2.GradientExpr, 0
TestParameter, AutoAnalysis.Marker.Enabled, false
TestParameter, AutoAnalysis.Marker.Data.Var, 
TestParameter, AutoAnalysis.Marker.Data.Condition, 
TestParameter, AutoAnalysis.Marker.Data.Start, false
TestParameter, AutoAnalysis.Marker.Data.StartVar, 
TestParameter, AutoAnalysis.Marker.Data.StartCondition, 
MetaData, TestRecord.EntryPoint, false
MetaData, TestRecord.RecordTime, 04/24/2021 12:13:29
MetaData, TestRecord.TestTarget, 
MetaData, TestRecord.IterationIndex, 46
MetaData, TestRecord.Preservation, true
MetaData, TestRecord.Flag, 
MetaData, TestRecord.Remarks, 
MetaData, TestRecord.LinkKey, 7f8d1d18-6c0c-48d5-8947-e84fb2dbe85b
Dimension1, 61, 61, 61, 61, 61
Dimension2, 1, 1, 1, 1, 1
DataName, Ids, Vdrain, Cgs, G, Ta
DataValue, -4.14E-09, -0.003, 2.35448E-09, -0.00333056, 25
DataValue, -1.48E-09, 9.999, 2.35457E-09, -0.00332933, 25
DataValue, -7.81E-09, 19.9995, 2.35509E-09, -0.0033376400000000002, 25
DataValue, 1.29E-09, 29.9955, 2.35447E-09, -0.00332787, 25
DataValue, -4.1000000000000003E-10, 40.002, 2.35459E-09, -0.00333202, 25
DataValue, -2.7000000000000005E-10, 49.9965, 2.35468E-09, -0.00333371, 25
DataValue, -9.8000000000000013E-10, 60, 2.35415E-09, -0.0033287300000000002, 25
DataValue, -4.2000000000000005E-10, 70.0005, 2.35547E-09, -0.00333492, 25
DataValue, -2.17E-09, 80.001, 2.35452E-09, -0.00333079, 25
DataValue, -6.9700000000000005E-09, 90.001500000000007, 2.35454E-09, -0.00333437, 25
DataValue, -1.5200000000000001E-09, 99.999, 2.35492E-09, -0.0033330400000000002, 25
DataValue, 3.87E-09, 109.9965, 2.35429E-09, -0.00332875, 25
DataValue, -3.0200000000000003E-09, 120.00150000000001, 2.35517E-09, -0.00333465, 25
DataValue, 1.4E-10, 129.9975, 2.35433E-09, -0.0033293, 25
DataValue, 3.1000000000000005E-09, 139.998, 2.35501E-09, -0.00333233, 25
DataValue, -3.8200000000000005E-09, 149.9985, 2.35492E-09, -0.00332923, 25
DataValue, -5.1200000000000005E-09, 160.002, 2.35458E-09, -0.00332913, 25
DataValue, -2.67E-09, 170.001, 2.35502E-09, -0.00333441, 25
DataValue, 7.6000000000000006E-10, 179.9985, 2.35432E-09, -0.0033284400000000002, 25
DataValue, -5.9000000000000007E-09, 190.002, 2.35547E-09, -0.0033332, 25
DataValue, -7.74E-09, 200.001, 2.35442E-09, -0.00332949, 25
DataValue, -6.0300000000000009E-09, 210, 2.3551E-09, -0.00333329, 25
DataValue, -7.53E-09, 220.002, 2.35441E-09, -0.00332799, 25
DataValue, -9.0000000000000012E-09, 230.004, 2.35533E-09, -0.00333305, 25
DataValue, -6.6600000000000006E-09, 240.0015, 2.35417E-09, -0.00333344, 25
DataValue, -2.1600000000000004E-09, 249.999, 2.35518E-09, -0.00333273, 25
DataValue, 2.0100000000000003E-09, 259.998, 2.35418E-09, -0.00333416, 25
DataValue, 2.4E-10, 269.9955, 2.35502E-09, -0.00333259, 25
DataValue, -5.4500000000000008E-09, 280.002, 2.35408E-09, -0.00333049, 25
DataValue, -2E-09, 290.004, 2.35506E-09, -0.00333211, 25
DataValue, 3.4100000000000004E-09, 299.9955, 2.35471E-09, -0.0033311400000000002, 25
DataValue, -1.0200000000000002E-09, 309.996, 2.35527E-09, -0.00333239, 25
DataValue, -3.9000000000000005E-10, 319.998, 2.3544E-09, -0.0033331, 25
DataValue, 1.9900000000000004E-09, 329.997, 2.35477E-09, -0.00333188, 25
DataValue, 1.13E-09, 339.9975, 2.35479E-09, -0.0033310600000000003, 25
DataValue, -3.1400000000000003E-09, 349.9995, 2.35496E-09, -0.00333052, 25
DataValue, -2.2700000000000002E-09, 359.99850000000004, 2.35456E-09, -0.00333167, 25
DataValue, -2.7100000000000004E-09, 369.996, 2.3549E-09, -0.00333044, 25
DataValue, -2.5400000000000003E-09, 379.998, 2.35472E-09, -0.00333222, 25
DataValue, -7.66E-09, 390, 2.35493E-09, -0.0033293800000000003, 25
DataValue, -8.84E-09, 400.002, 2.35493E-09, -0.0033342800000000002, 25
DataValue, -2.8600000000000005E-09, 409.9995, 2.35447E-09, -0.0033315700000000003, 25
DataValue, -5.34E-09, 420.003, 2.35481E-09, -0.00333505, 25
DataValue, -1.1000000000000001E-10, 429.999, 2.35432E-09, -0.00332978, 25
DataValue, 5.100000000000001E-10, 439.9935, 2.35515E-09, -0.00333064, 25
DataValue, -2.3500000000000004E-09, 450.0015, 2.35405E-09, -0.00333129, 25
DataValue, -7.2700000000000007E-09, 460.00350000000003, 2.35473E-09, -0.0033356, 25
DataValue, -6.1000000000000009E-09, 469.998, 2.3551E-09, -0.00333122, 25
DataValue, -3.93E-09, 480.0015, 2.35422E-09, -0.0033328, 25
DataValue, -7.46E-09, 490.005, 2.35541E-09, -0.00333412, 25
DataValue, -4.6300000000000008E-09, 500.00100000000003, 2.3546E-09, -0.00332933, 25
DataValue, -6.2E-10, 510.0015, 2.35502E-09, -0.00333251, 25
DataValue, 2.72E-09, 519.999, 2.35468E-09, -0.00333087, 25
DataValue, -3.9900000000000005E-09, 529.9965, 2.35429E-09, -0.00333219, 25
DataValue, -1.3980000000000002E-08, 540.0045, 2.35567E-09, -0.00333358, 25
DataValue, 3.94E-09, 549.9945, 2.35433E-09, -0.0033301, 25
DataValue, -7.0400000000000005E-09, 560.001, 2.35489E-09, -0.00333652, 25
DataValue, -8.0000000000000013E-10, 570.0015, 2.35484E-09, -0.00333299, 25
DataValue, -8.34E-09, 580.0005, 2.35453E-09, -0.00333178, 25
DataValue, -6.7300000000000005E-09, 589.9995, 2.35553E-09, -0.00333494, 25
DataValue, -5.88E-09, 600, 2.35424E-09, -0.00333027, 25