
SetupTitle, Cgs
ApplicationTest, Cgs, Public
TestParameter, Name, Memo, IntegTime, Frequency, OscLevel, Scale, Gate, VdBias, VdStart, VdStop, VdLinearStep, IdLimit, HoldTime, DelayTime, IdMinRange
TestParameter, Value, , SHORT, 1000000, 0.025, LINEAR, CMU1:MF	MFCMU, SMU6:HV	HVSMU, 0, 600, 10, 0.004, 1, 1, 10uA
DutParameter, Name, Polarity, Temp, YAxisCgsMin, YAxisCgsMax
DutParameter, Value, 1, 25, 1E-12, 5E-09
MetaData, TestRecord.EntryPoint, true
MetaData, TestRecord.RecordTime, 04/23/2021 15:06:21
MetaData, TestRecord.TestTarget, 
MetaData, TestRecord.IterationIndex, 39
MetaData, TestRecord.Preservation, true
MetaData, TestRecord.Flag, 
MetaData, TestRecord.Remarks, 
MetaData, TestRecord.LinkKey, 2ca7c45b-9a13-49f9-b676-9e864b54ce24
Dimension1, 61, 61, 61, 61, 61
Dimension2, 1, 1, 1, 1, 1
DataName, Ids, Vdrain, Cgs, G, Ta
DataValue, -2.5E-09, 0.0045000000000000005, 4.6024E-09, -0.0054459800000000004, 25
DataValue, -5.4600000000000006E-09, 10.0005, 4.60277E-09, -0.0054434, 25
DataValue, -5.0500000000000006E-09, 20.001, 4.60312E-09, -0.0054434800000000005, 25
DataValue, -2.0100000000000003E-09, 30, 4.6028E-09, -0.00544467, 25
DataValue, 4.4000000000000003E-10, 39.9975, 4.60263E-09, -0.0054448000000000005, 25
DataValue, 1.5000000000000003E-10, 49.9965, 4.6032E-09, -0.0054444, 25
DataValue, -9.3300000000000015E-09, 60.003, 4.60273E-09, -0.00544472, 25
DataValue, 1.98E-09, 70.0005, 4.60293E-09, -0.00544563, 25
DataValue, 5E-10, 79.998, 4.60281E-09, -0.00544607, 25
DataValue, -5.1800000000000007E-09, 90, 4.60218E-09, -0.00544482, 25
DataValue, -2.5200000000000004E-09, 100.002, 4.60217E-09, -0.00544428, 25
DataValue, -6.7000000000000006E-10, 110.001, 4.60265E-09, -0.00544573, 25
DataValue, -6.3200000000000005E-09, 120.00450000000001, 4.60225E-09, -0.00544434, 25
DataValue, -2.6300000000000002E-09, 129.999, 4.60284E-09, -0.00544292, 25
DataValue, -2.7000000000000005E-10, 139.9995, 4.60221E-09, -0.00544688, 25
DataValue, -9.350000000000001E-09, 150.0045, 4.60195E-09, -0.00544499, 25
DataValue, -8.69E-09, 160.002, 4.60219E-09, -0.0054420200000000005, 25
DataValue, -5.2E-09, 169.998, 4.60229E-09, -0.00544513, 25
DataValue, -5.3900000000000006E-09, 180, 4.60215E-09, -0.00544537, 25
DataValue, -3.6400000000000003E-09, 190.0035, 4.60223E-09, -0.00544792, 25
DataValue, -1.7E-10, 199.9995, 4.6009E-09, -0.00544706, 25
DataValue, 2.7400000000000005E-09, 209.9985, 4.60245E-09, -0.00544605, 25
DataValue, -4.1300000000000004E-09, 219.999, 4.60205E-09, -0.00544822, 25
DataValue, -2.89E-09, 229.99800000000002, 4.60159E-09, -0.00544739, 25
DataValue, -1.5000000000000002E-09, 240, 4.60211E-09, -0.00545067, 25
DataValue, -5.41E-09, 250.002, 4.602E-09, -0.00544798, 25
DataValue, 1.6700000000000002E-09, 260.00100000000003, 4.60177E-09, -0.0054521100000000005, 25
DataValue, 1.5000000000000002E-09, 270.0045, 4.60231E-09, -0.0054478700000000005, 25
DataValue, -3.6700000000000004E-09, 279.999, 4.6015E-09, -0.0054502100000000005, 25
DataValue, 3.08E-09, 289.9965, 4.60178E-09, -0.00544797, 25
DataValue, -2.5600000000000003E-09, 300.0015, 4.60146E-09, -0.00545086, 25
DataValue, -1.13E-09, 310.0005, 4.60144E-09, -0.0054482, 25
DataValue, -2.1500000000000002E-09, 319.9965, 4.60209E-09, -0.00545066, 25
DataValue, -1.5100000000000002E-09, 329.9985, 4.60148E-09, -0.00545071, 25
DataValue, -4.76E-09, 340.00350000000003, 4.60167E-09, -0.00544847, 25
DataValue, -6.2400000000000008E-09, 350.00100000000003, 4.60105E-09, -0.00544849, 25
DataValue, -2.7300000000000003E-09, 360.003, 4.60199E-09, -0.00545106, 25
DataValue, -5.7300000000000007E-09, 369.999, 4.60126E-09, -0.00545027, 25
DataValue, 2.7300000000000003E-09, 379.9965, 4.60109E-09, -0.0054551, 25
DataValue, -9.79E-09, 390.00600000000003, 4.60081E-09, -0.0054537200000000004, 25
DataValue, -2.12E-09, 399.999, 4.60115E-09, -0.0054543000000000005, 25
DataValue, -3.93E-09, 410.00100000000003, 4.60087E-09, -0.00545334, 25
DataValue, -3.96E-09, 420, 4.60039E-09, -0.00544943, 25
DataValue, -9.6600000000000018E-09, 430.002, 4.60069E-09, -0.00545407, 25
DataValue, -9.4100000000000012E-09, 439.9995, 4.60033E-09, -0.0054562000000000005, 25
DataValue, 1.8100000000000002E-09, 449.99850000000004, 4.60049E-09, -0.00545316, 25
DataValue, 9.4E-10, 460.0005, 4.60061E-09, -0.00545414, 25
DataValue, -2.0400000000000004E-09, 469.9965, 4.60079E-09, -0.0054540000000000005, 25
DataValue, -3.1700000000000004E-09, 480.00600000000003, 4.60057E-09, -0.00545641, 25
DataValue, 2.7E-09, 489.9975, 4.60109E-09, -0.00545487, 25
DataValue, 9.300000000000001E-10, 499.995, 4.60051E-09, -0.00545643, 25
DataValue, -6.4100000000000008E-09, 510.0075, 4.59998E-09, -0.0054592, 25
DataValue, -7.15E-09, 520.0005, 4.60019E-09, -0.0054564800000000005, 25
DataValue, 2.6100000000000003E-09, 529.998, 4.60048E-09, -0.0054600000000000004, 25
DataValue, -1.0000000000000002E-10, 539.9955, 4.59966E-09, -0.00545525, 25
DataValue, -5.1900000000000005E-09, 550.0005, 4.59973E-09, -0.00545834, 25
DataValue, -5.5300000000000005E-09, 559.9995, 4.60027E-09, -0.0054572200000000005, 25
DataValue, -8.6700000000000009E-09, 570.003, 4.59975E-09, -0.0054547400000000005, 25
DataValue, -5.1500000000000006E-09, 579.999, 4.59947E-09, -0.0054567700000000005, 25
DataValue, -2.19E-09, 589.9995, 4.60055E-09, -0.005458, 25
DataValue, -1.0700000000000002E-08, 600.003, 4.59964E-09, -0.0054604300000000005, 25
SetupTitle, Cgs
PrimitiveTest, C-V Sweep
TestParameter, Channel.UnitTyp, CMU, SMU
TestParameter, Channel.Unit, Gate, VdBias
TestParameter, Channel.IName, , Ids
TestParameter, Channel.VName, VBias, Vdrain
TestParameter, Channel.Mode, , V
TestParameter, Channel.Func, CONST, VAR1
TestParameter, Channel.Index, 
TestParameter, Channel.Time, 
TestParameter, Measurement.Primary.Locus, Single
TestParameter, Measurement.Primary.Scale, Scale
TestParameter, Measurement.Primary.Start, VdStart*Polarity
TestParameter, Measurement.Primary.Stop, VdStop*Polarity
TestParameter, Measurement.Primary.Compliance, IdLimit
TestParameter, Measurement.Primary.Step, VdLinearStep*Polarity
TestParameter, Measurement.Aborting.Condition, CONTINUE AT ANY
TestParameter, Measurement.PostOutput.Value, START
TestParameter, Measurement.PostOutput.Retention, OFF
TestParameter, Measurement.Secondary.ACLevel, OscLevel
TestParameter, Measurement.Secondary.FName, Freq
TestParameter, Measurement.Secondary.Frequency, Frequency
TestParameter, Measurement.Bias.Source, 0, 0
TestParameter, Measurement.ImpedanceMode.Model, Cp-G
TestParameter, Measurement.ImpedanceMode.CName, Cgs
TestParameter, Measurement.ImpedanceMode.LName, L
TestParameter, Measurement.ImpedanceMode.GName, G
TestParameter, Measurement.ImpedanceMode.RName, R
TestParameter, Measurement.ImpedanceMode.QName, Q
TestParameter, Measurement.ImpedanceMode.DName, D
TestParameter, Measurement.ImpedanceMode.YName, Y
TestParameter, Measurement.ImpedanceMode.ZName, Z
TestParameter, Measurement.ImpedanceMode.ThName, Theta
TestParameter, Measurement.ImpedanceMode.BName, B
TestParameter, Measurement.ImpedanceMode.XName, X
TestParameter, Measurement.Monitor.Unit, CMU:=Gate, SMU:=VdBias
TestParameter, Measurement.Monitor.RangingMode, AUTO, LIMITED
TestParameter, Measurement.Monitor.RangeBoundary, 50, IdMinRange
TestParameter, Measurement.Monitor.AcMonitorSymbol, 
TestParameter, Measurement.Monitor.DcMonitorSymbol, 
TestParameter, Measurement.Timing.Hold, HoldTime
TestParameter, Measurement.Timing.Delay, DelayTime
TestParameter, Measurement.Adc.UnitType, Cmu, Smu
TestParameter, Measurement.Adc.HighResolution.Mode, IntegMode, IntegMode
TestParameter, Measurement.Adc.HighResolution.Coeff, AdcFactor, AdcFactor
TestParameter, Measurement.WaitTime.Source.Coeff, 1
TestParameter, Measurement.WaitTime.Source.Offset, 0
TestParameter, Measurement.WaitTime.Monitor.Coeff, 1
TestParameter, Measurement.WaitTime.Monitor.Offset, 0
TestParameter, Function.User.Name, Ta
TestParameter, Function.User.Unit, deg
TestParameter, Function.User.Definition, Temp
TestParameter, Output.Graph.Enabled, true
TestParameter, Output.Graph.AutoScaling, false
TestParameter, Output.Graph.XAxis.Data, Vdrain
TestParameter, Output.Graph.XAxis.Scale, ScaleStr
TestParameter, Output.Graph.XAxis.Left, VdStart*Polarity
TestParameter, Output.Graph.XAxis.Right, VdStop*Polarity
TestParameter, Output.Graph.XAxis.RunTimeAutoScale, false
TestParameter, Output.Graph.YAxis.Data, Cgs
TestParameter, Output.Graph.YAxis.Scale, Log
TestParameter, Output.Graph.YAxis.Bottom, YAxisCgsMin
TestParameter, Output.Graph.YAxis.Top, YAxisCgsMax
TestParameter, Output.Graph.YAxis.Group, 
TestParameter, Output.Graph.YAxis.RunTimeAutoScale, false
TestParameter, Output.List.Data, Vdrain, Cgs, Ids
TestParameter, Output.Scalar.Data, Ta
TestParameter, AutoAnalysis.Interpolation, true
TestParameter, AutoAnalysis.Line1.Enabled, false
TestParameter, AutoAnalysis.Line1.Type, 1
TestParameter, AutoAnalysis.Line1.Fix, True
TestParameter, AutoAnalysis.Line1.YAxis, 0
TestParameter, AutoAnalysis.Line1.Point1.Type, 0
TestParameter, AutoAnalysis.Line1.Point1.XY.X, 
TestParameter, AutoAnalysis.Line1.Point1.XY.Y, 
TestParameter, AutoAnalysis.Line1.Point1.Data.Var, 
TestParameter, AutoAnalysis.Line1.Point1.Data.Condition, 
TestParameter, AutoAnalysis.Line1.Point1.Data.Start, false
TestParameter, AutoAnalysis.Line1.Point1.Data.StartVar, 
TestParameter, AutoAnalysis.Line1.Point1.Data.StartCondition, 
TestParameter, AutoAnalysis.Line1.Point2.Type, 0
TestParameter, AutoAnalysis.Line1.Point2.XY.X, 
TestParameter, AutoAnalysis.Line1.Point2.XY.Y, 
TestParameter, AutoAnalysis.Line1.Point2.Data.Var, 
TestParameter, AutoAnalysis.Line1.Point2.Data.Condition, 
TestParameter, AutoAnalysis.Line1.Point2.Data.Start, false
TestParameter, AutoAnalysis.Line1.Point2.Data.StartVar, 
TestParameter, AutoAnalysis.Line1.Point2.Data.StartCondition, 
TestParameter, AutoAnalysis.Line1.GradientExpr, 0
TestParameter, AutoAnalysis.Line2.Enabled, false
TestParameter, AutoAnalysis.Line2.Type, 1
TestParameter, AutoAnalysis.Line2.Fix, True
TestParameter, AutoAnalysis.Line2.YAxis, 0
TestParameter, AutoAnalysis.Line2.Point1.Type, 0
TestParameter, AutoAnalysis.Line2.Point1.XY.X, 
TestParameter, AutoAnalysis.Line2.Point1.XY.Y, 
TestParameter, AutoAnalysis.Line2.Point1.Data.Var, 
TestParameter, AutoAnalysis.Line2.Point1.Data.Condition, 
TestParameter, AutoAnalysis.Line2.Point1.Data.Start, false
TestParameter, AutoAnalysis.Line2.Point1.Data.StartVar, 
TestParameter, AutoAnalysis.Line2.Point1.Data.StartCondition, 
TestParameter, AutoAnalysis.Line2.Point2.Type, 0
TestParameter, AutoAnalysis.Line2.Point2.XY.X, 
TestParameter, AutoAnalysis.Line2.Point2.XY.Y, 
TestParameter, AutoAnalysis.Line2.Point2.Data.Var, 
TestParameter, AutoAnalysis.Line2.Point2.Data.Condition, 
TestParameter, AutoAnalysis.Line2.Point2.Data.Start, false
TestParameter, AutoAnalysis.Line2.Point2.Data.StartVar, 
TestParameter, AutoAnalysis.Line2.Point2.Data.StartCondition, 
TestParameter, AutoAnalysis.Line2.GradientExpr, 0
TestParameter, AutoAnalysis.Marker.Enabled, false
TestParameter, AutoAnalysis.Marker.Data.Var, 
TestParameter, AutoAnalysis.Marker.Data.Condition, 
TestParameter, AutoAnalysis.Marker.Data.Start, false
TestParameter, AutoAnalysis.Marker.Data.StartVar, 
TestParameter, AutoAnalysis.Marker.Data.StartCondition, 
MetaData, TestRecord.EntryPoint, false
MetaData, TestRecord.RecordTime, 04/23/2021 15:06:21
MetaData, TestRecord.TestTarget, 
MetaData, TestRecord.IterationIndex, 39
MetaData, TestRecord.Preservation, true
MetaData, TestRecord.Flag, 
MetaData, TestRecord.Remarks, 
MetaData, TestRecord.LinkKey, 2ca7c45b-9a13-49f9-b676-9e864b54ce24
Dimension1, 61, 61, 61, 61, 61
Dimension2, 1, 1, 1, 1, 1
DataName, Ids, Vdrain, Cgs, G, Ta
DataValue, -2.5E-09, 0.0045000000000000005, 4.6024E-09, -0.0054459800000000004, 25
DataValue, -5.4600000000000006E-09, 10.0005, 4.60277E-09, -0.0054434, 25
DataValue, -5.0500000000000006E-09, 20.001, 4.60312E-09, -0.0054434800000000005, 25
DataValue, -2.0100000000000003E-09, 30, 4.6028E-09, -0.00544467, 25
DataValue, 4.4000000000000003E-10, 39.9975, 4.60263E-09, -0.0054448000000000005, 25
DataValue, 1.5000000000000003E-10, 49.9965, 4.6032E-09, -0.0054444, 25
DataValue, -9.3300000000000015E-09, 60.003, 4.60273E-09, -0.00544472, 25
DataValue, 1.98E-09, 70.0005, 4.60293E-09, -0.00544563, 25
DataValue, 5E-10, 79.998, 4.60281E-09, -0.00544607, 25
DataValue, -5.1800000000000007E-09, 90, 4.60218E-09, -0.00544482, 25
DataValue, -2.5200000000000004E-09, 100.002, 4.60217E-09, -0.00544428, 25
DataValue, -6.7000000000000006E-10, 110.001, 4.60265E-09, -0.00544573, 25
DataValue, -6.3200000000000005E-09, 120.00450000000001, 4.60225E-09, -0.00544434, 25
DataValue, -2.6300000000000002E-09, 129.999, 4.60284E-09, -0.00544292, 25
DataValue, -2.7000000000000005E-10, 139.9995, 4.60221E-09, -0.00544688, 25
DataValue, -9.350000000000001E-09, 150.0045, 4.60195E-09, -0.00544499, 25
DataValue, -8.69E-09, 160.002, 4.60219E-09, -0.0054420200000000005, 25
DataValue, -5.2E-09, 169.998, 4.60229E-09, -0.00544513, 25
DataValue, -5.3900000000000006E-09, 180, 4.60215E-09, -0.00544537, 25
DataValue, -3.6400000000000003E-09, 190.0035, 4.60223E-09, -0.00544792, 25
DataValue, -1.7E-10, 199.9995, 4.6009E-09, -0.00544706, 25
DataValue, 2.7400000000000005E-09, 209.9985, 4.60245E-09, -0.00544605, 25
DataValue, -4.1300000000000004E-09, 219.999, 4.60205E-09, -0.00544822, 25
DataValue, -2.89E-09, 229.99800000000002, 4.60159E-09, -0.00544739, 25
DataValue, -1.5000000000000002E-09, 240, 4.60211E-09, -0.00545067, 25
DataValue, -5.41E-09, 250.002, 4.602E-09, -0.00544798, 25
DataValue, 1.6700000000000002E-09, 260.00100000000003, 4.60177E-09, -0.0054521100000000005, 25
DataValue, 1.5000000000000002E-09, 270.0045, 4.60231E-09, -0.0054478700000000005, 25
DataValue, -3.6700000000000004E-09, 279.999, 4.6015E-09, -0.0054502100000000005, 25
DataValue, 3.08E-09, 289.9965, 4.60178E-09, -0.00544797, 25
DataValue, -2.5600000000000003E-09, 300.0015, 4.60146E-09, -0.00545086, 25
DataValue, -1.13E-09, 310.0005, 4.60144E-09, -0.0054482, 25
DataValue, -2.1500000000000002E-09, 319.9965, 4.60209E-09, -0.00545066, 25
DataValue, -1.5100000000000002E-09, 329.9985, 4.60148E-09, -0.00545071, 25
DataValue, -4.76E-09, 340.00350000000003, 4.60167E-09, -0.00544847, 25
DataValue, -6.2400000000000008E-09, 350.00100000000003, 4.60105E-09, -0.00544849, 25
DataValue, -2.7300000000000003E-09, 360.003, 4.60199E-09, -0.00545106, 25
DataValue, -5.7300000000000007E-09, 369.999, 4.60126E-09, -0.00545027, 25
DataValue, 2.7300000000000003E-09, 379.9965, 4.60109E-09, -0.0054551, 25
DataValue, -9.79E-09, 390.00600000000003, 4.60081E-09, -0.0054537200000000004, 25
DataValue, -2.12E-09, 399.999, 4.60115E-09, -0.0054543000000000005, 25
DataValue, -3.93E-09, 410.00100000000003, 4.60087E-09, -0.00545334, 25
DataValue, -3.96E-09, 420, 4.60039E-09, -0.00544943, 25
DataValue, -9.6600000000000018E-09, 430.002, 4.60069E-09, -0.00545407, 25
DataValue, -9.4100000000000012E-09, 439.9995, 4.60033E-09, -0.0054562000000000005, 25
DataValue, 1.8100000000000002E-09, 449.99850000000004, 4.60049E-09, -0.00545316, 25
DataValue, 9.4E-10, 460.0005, 4.60061E-09, -0.00545414, 25
DataValue, -2.0400000000000004E-09, 469.9965, 4.60079E-09, -0.0054540000000000005, 25
DataValue, -3.1700000000000004E-09, 480.00600000000003, 4.60057E-09, -0.00545641, 25
DataValue, 2.7E-09, 489.9975, 4.60109E-09, -0.00545487, 25
DataValue, 9.300000000000001E-10, 499.995, 4.60051E-09, -0.00545643, 25
DataValue, -6.4100000000000008E-09, 510.0075, 4.59998E-09, -0.0054592, 25
DataValue, -7.15E-09, 520.0005, 4.60019E-09, -0.0054564800000000005, 25
DataValue, 2.6100000000000003E-09, 529.998, 4.60048E-09, -0.0054600000000000004, 25
DataValue, -1.0000000000000002E-10, 539.9955, 4.59966E-09, -0.00545525, 25
DataValue, -5.1900000000000005E-09, 550.0005, 4.59973E-09, -0.00545834, 25
DataValue, -5.5300000000000005E-09, 559.9995, 4.60027E-09, -0.0054572200000000005, 25
DataValue, -8.6700000000000009E-09, 570.003, 4.59975E-09, -0.0054547400000000005, 25
DataValue, -5.1500000000000006E-09, 579.999, 4.59947E-09, -0.0054567700000000005, 25
DataValue, -2.19E-09, 589.9995, 4.60055E-09, -0.005458, 25
DataValue, -1.0700000000000002E-08, 600.003, 4.59964E-09, -0.0054604300000000005, 25