
SetupTitle, Cgs
ApplicationTest, Cgs, Public
TestParameter, Name, Memo, IntegTime, Frequency, OscLevel, Scale, Gate, VdBias, VdStart, VdStop, VdLinearStep, IdLimit, HoldTime, DelayTime, IdMinRange
TestParameter, Value, , SHORT, 1000000, 0.025, LINEAR, CMU1:MF	MFCMU, SMU6:HV	HVSMU, 0, 600, 10, 0.004, 1, 1, 10uA
DutParameter, Name, Polarity, Temp, YAxisCgsMin, YAxisCgsMax
DutParameter, Value, 1, 25, 1E-12, 5E-09
MetaData, TestRecord.EntryPoint, true
MetaData, TestRecord.RecordTime, 12/28/2020 13:48:21
MetaData, TestRecord.TestTarget, 
MetaData, TestRecord.IterationIndex, 34
MetaData, TestRecord.Preservation, true
MetaData, TestRecord.Flag, 
MetaData, TestRecord.Remarks, 
MetaData, TestRecord.LinkKey, ac8f05a6-aee9-4774-b85e-8f2a5f1c75d8
Dimension1, 61, 61, 61, 61, 61
Dimension2, 1, 1, 1, 1, 1
DataName, Ids, Vdrain, Cgs, G, Ta
DataValue, -6.77E-09, 0, 1.36124E-09, -0.00117031, 25
DataValue, -2.8300000000000004E-09, 9.999, 1.36145E-09, -0.00117009, 25
DataValue, -2E-09, 19.998, 1.36151E-09, -0.00117004, 25
DataValue, -2.07E-09, 29.997, 1.36135E-09, -0.0011693300000000001, 25
DataValue, -3.76E-09, 40.002, 1.36148E-09, -0.00117, 25
DataValue, -8.15E-09, 50.001, 1.36138E-09, -0.00117048, 25
DataValue, -4.96E-09, 60, 1.36139E-09, -0.00117133, 25
DataValue, -2.72E-09, 70.005, 1.36143E-09, -0.00117113, 25
DataValue, -7.0600000000000008E-09, 80.0055, 1.36134E-09, -0.00117044, 25
DataValue, -1.0040000000000001E-08, 90.004500000000007, 1.36154E-09, -0.00117047, 25
DataValue, -1.5700000000000002E-09, 100.002, 1.36151E-09, -0.00116986, 25
DataValue, -4.6100000000000004E-09, 110.004, 1.36161E-09, -0.00117083, 25
DataValue, -6.0100000000000005E-09, 119.997, 1.36144E-09, -0.00116996, 25
DataValue, -5.4600000000000006E-09, 130.00050000000002, 1.36161E-09, -0.0011686, 25
DataValue, -2.8500000000000003E-09, 140.0025, 1.36161E-09, -0.0011697300000000001, 25
DataValue, -4.6700000000000006E-09, 149.9985, 1.36152E-09, -0.00116968, 25
DataValue, -5.9100000000000005E-09, 160.005, 1.36136E-09, -0.0011699500000000001, 25
DataValue, -5.68E-09, 170.001, 1.36154E-09, -0.00116981, 25
DataValue, 1.7000000000000001E-09, 179.9955, 1.36159E-09, -0.00117073, 25
DataValue, -3.3500000000000002E-09, 189.999, 1.3614E-09, -0.00116969, 25
DataValue, -6.4900000000000005E-09, 200.001, 1.36165E-09, -0.0011707500000000001, 25
DataValue, -3.6200000000000003E-09, 209.9955, 1.36156E-09, -0.00117048, 25
DataValue, 5.100000000000001E-10, 219.99450000000002, 1.36149E-09, -0.00117208, 25
DataValue, -6.67E-09, 230.001, 1.36163E-09, -0.00117063, 25
DataValue, -5.5000000000000004E-09, 240, 1.3617E-09, -0.00117151, 25
DataValue, -6.2400000000000008E-09, 249.9975, 1.36172E-09, -0.0011728, 25
DataValue, -6.540000000000001E-09, 259.9995, 1.36152E-09, -0.00117052, 25
DataValue, -4.0800000000000008E-09, 270.0015, 1.3618E-09, -0.00117408, 25
DataValue, -4.9800000000000006E-09, 280.002, 1.36158E-09, -0.00117206, 25
DataValue, -7.1100000000000005E-09, 290.0025, 1.36186E-09, -0.0011732000000000001, 25
DataValue, -8.7800000000000015E-09, 299.9985, 1.36174E-09, -0.00117245, 25
DataValue, -8.22E-09, 310.002, 1.3617E-09, -0.00117248, 25
DataValue, -8.5300000000000009E-09, 320.00100000000003, 1.3617E-09, -0.00117242, 25
DataValue, -1.1000000000000001E-10, 330, 1.36165E-09, -0.00117155, 25
DataValue, -3.3E-09, 339.999, 1.36174E-09, -0.00117292, 25
DataValue, -1.7900000000000002E-09, 349.998, 1.3617E-09, -0.0011731, 25
DataValue, -1.1940000000000001E-08, 360.00600000000003, 1.36192E-09, -0.00117268, 25
DataValue, -8.3100000000000013E-09, 370.00350000000003, 1.36167E-09, -0.00117326, 25
DataValue, 1.1000000000000001E-10, 379.9965, 1.36189E-09, -0.00117283, 25
DataValue, -4.42E-09, 390.003, 1.36183E-09, -0.00117317, 25
DataValue, -9.5E-10, 400.0005, 1.36178E-09, -0.00117311, 25
DataValue, -5.0700000000000009E-09, 410.0025, 1.36188E-09, -0.00117359, 25
DataValue, -8.33E-09, 420.0015, 1.36203E-09, -0.00117235, 25
DataValue, -9.280000000000001E-09, 430.00350000000003, 1.36202E-09, -0.00117322, 25
DataValue, -9.4900000000000009E-09, 440.004, 1.36173E-09, -0.00117398, 25
DataValue, 2.9800000000000005E-09, 449.99850000000004, 1.36185E-09, -0.00117342, 25
DataValue, -5.16E-09, 459.9975, 1.36203E-09, -0.00117283, 25
DataValue, -7.88E-09, 470.0055, 1.3619E-09, -0.00117378, 25
DataValue, -2.7100000000000004E-09, 480.003, 1.36198E-09, -0.00117344, 25
DataValue, -5.3900000000000006E-09, 489.999, 1.36203E-09, -0.00117341, 25
DataValue, -8.6600000000000011E-09, 499.9995, 1.36215E-09, -0.00117363, 25
DataValue, -9.830000000000001E-09, 510.0045, 1.36193E-09, -0.0011741, 25
DataValue, -6.2100000000000007E-09, 520.005, 1.3621E-09, -0.0011733, 25
DataValue, -1.3950000000000001E-08, 530.0085, 1.36214E-09, -0.00117429, 25
DataValue, 4.0000000000000004E-11, 539.9955, 1.36206E-09, -0.00117504, 25
DataValue, -2.2800000000000004E-09, 549.996, 1.36196E-09, -0.00117445, 25
DataValue, -2.5900000000000004E-09, 559.9995, 1.36203E-09, -0.0011742200000000001, 25
DataValue, -7.6300000000000012E-09, 570.003, 1.36207E-09, -0.0011740000000000001, 25
DataValue, -7.68E-09, 580.005, 1.3621E-09, -0.0011745, 25
DataValue, -5.71E-09, 589.995, 1.36193E-09, -0.00117457, 25
DataValue, -7.4500000000000005E-09, 600.006, 1.36215E-09, -0.00117414, 25
SetupTitle, Cgs
PrimitiveTest, C-V Sweep
TestParameter, Channel.UnitTyp, CMU, SMU
TestParameter, Channel.Unit, Gate, VdBias
TestParameter, Channel.IName, , Ids
TestParameter, Channel.VName, VBias, Vdrain
TestParameter, Channel.Mode, , V
TestParameter, Channel.Func, CONST, VAR1
TestParameter, Channel.Index, 
TestParameter, Channel.Time, 
TestParameter, Measurement.Primary.Locus, Single
TestParameter, Measurement.Primary.Scale, Scale
TestParameter, Measurement.Primary.Start, VdStart*Polarity
TestParameter, Measurement.Primary.Stop, VdStop*Polarity
TestParameter, Measurement.Primary.Compliance, IdLimit
TestParameter, Measurement.Primary.Step, VdLinearStep*Polarity
TestParameter, Measurement.Aborting.Condition, CONTINUE AT ANY
TestParameter, Measurement.PostOutput.Value, START
TestParameter, Measurement.PostOutput.Retention, OFF
TestParameter, Measurement.Secondary.ACLevel, OscLevel
TestParameter, Measurement.Secondary.FName, Freq
TestParameter, Measurement.Secondary.Frequency, Frequency
TestParameter, Measurement.Bias.Source, 0, 0
TestParameter, Measurement.ImpedanceMode.Model, Cp-G
TestParameter, Measurement.ImpedanceMode.CName, Cgs
TestParameter, Measurement.ImpedanceMode.LName, L
TestParameter, Measurement.ImpedanceMode.GName, G
TestParameter, Measurement.ImpedanceMode.RName, R
TestParameter, Measurement.ImpedanceMode.QName, Q
TestParameter, Measurement.ImpedanceMode.DName, D
TestParameter, Measurement.ImpedanceMode.YName, Y
TestParameter, Measurement.ImpedanceMode.ZName, Z
TestParameter, Measurement.ImpedanceMode.ThName, Theta
TestParameter, Measurement.ImpedanceMode.BName, B
TestParameter, Measurement.ImpedanceMode.XName, X
TestParameter, Measurement.Monitor.Unit, CMU:=Gate, SMU:=VdBias
TestParameter, Measurement.Monitor.RangingMode, AUTO, LIMITED
TestParameter, Measurement.Monitor.RangeBoundary, 50, IdMinRange
TestParameter, Measurement.Monitor.AcMonitorSymbol, 
TestParameter, Measurement.Monitor.DcMonitorSymbol, 
TestParameter, Measurement.Timing.Hold, HoldTime
TestParameter, Measurement.Timing.Delay, DelayTime
TestParameter, Measurement.Adc.UnitType, Cmu, Smu
TestParameter, Measurement.Adc.HighResolution.Mode, IntegMode, IntegMode
TestParameter, Measurement.Adc.HighResolution.Coeff, AdcFactor, AdcFactor
TestParameter, Measurement.WaitTime.Source.Coeff, 1
TestParameter, Measurement.WaitTime.Source.Offset, 0
TestParameter, Measurement.WaitTime.Monitor.Coeff, 1
TestParameter, Measurement.WaitTime.Monitor.Offset, 0
TestParameter, Function.User.Name, Ta
TestParameter, Function.User.Unit, deg
TestParameter, Function.User.Definition, Temp
TestParameter, Output.Graph.Enabled, true
TestParameter, Output.Graph.AutoScaling, false
TestParameter, Output.Graph.XAxis.Data, Vdrain
TestParameter, Output.Graph.XAxis.Scale, ScaleStr
TestParameter, Output.Graph.XAxis.Left, VdStart*Polarity
TestParameter, Output.Graph.XAxis.Right, VdStop*Polarity
TestParameter, Output.Graph.XAxis.RunTimeAutoScale, false
TestParameter, Output.Graph.YAxis.Data, Cgs
TestParameter, Output.Graph.YAxis.Scale, Log
TestParameter, Output.Graph.YAxis.Bottom, YAxisCgsMin
TestParameter, Output.Graph.YAxis.Top, YAxisCgsMax
TestParameter, Output.Graph.YAxis.Group, 
TestParameter, Output.Graph.YAxis.RunTimeAutoScale, false
TestParameter, Output.List.Data, Vdrain, Cgs, Ids
TestParameter, Output.Scalar.Data, Ta
TestParameter, AutoAnalysis.Interpolation, true
TestParameter, AutoAnalysis.Line1.Enabled, false
TestParameter, AutoAnalysis.Line1.Type, 1
TestParameter, AutoAnalysis.Line1.Fix, True
TestParameter, AutoAnalysis.Line1.YAxis, 0
TestParameter, AutoAnalysis.Line1.Point1.Type, 0
TestParameter, AutoAnalysis.Line1.Point1.XY.X, 
TestParameter, AutoAnalysis.Line1.Point1.XY.Y, 
TestParameter, AutoAnalysis.Line1.Point1.Data.Var, 
TestParameter, AutoAnalysis.Line1.Point1.Data.Condition, 
TestParameter, AutoAnalysis.Line1.Point1.Data.Start, false
TestParameter, AutoAnalysis.Line1.Point1.Data.StartVar, 
TestParameter, AutoAnalysis.Line1.Point1.Data.StartCondition, 
TestParameter, AutoAnalysis.Line1.Point2.Type, 0
TestParameter, AutoAnalysis.Line1.Point2.XY.X, 
TestParameter, AutoAnalysis.Line1.Point2.XY.Y, 
TestParameter, AutoAnalysis.Line1.Point2.Data.Var, 
TestParameter, AutoAnalysis.Line1.Point2.Data.Condition, 
TestParameter, AutoAnalysis.Line1.Point2.Data.Start, false
TestParameter, AutoAnalysis.Line1.Point2.Data.StartVar, 
TestParameter, AutoAnalysis.Line1.Point2.Data.StartCondition, 
TestParameter, AutoAnalysis.Line1.GradientExpr, 0
TestParameter, AutoAnalysis.Line2.Enabled, false
TestParameter, AutoAnalysis.Line2.Type, 1
TestParameter, AutoAnalysis.Line2.Fix, True
TestParameter, AutoAnalysis.Line2.YAxis, 0
TestParameter, AutoAnalysis.Line2.Point1.Type, 0
TestParameter, AutoAnalysis.Line2.Point1.XY.X, 
TestParameter, AutoAnalysis.Line2.Point1.XY.Y, 
TestParameter, AutoAnalysis.Line2.Point1.Data.Var, 
TestParameter, AutoAnalysis.Line2.Point1.Data.Condition, 
TestParameter, AutoAnalysis.Line2.Point1.Data.Start, false
TestParameter, AutoAnalysis.Line2.Point1.Data.StartVar, 
TestParameter, AutoAnalysis.Line2.Point1.Data.StartCondition, 
TestParameter, AutoAnalysis.Line2.Point2.Type, 0
TestParameter, AutoAnalysis.Line2.Point2.XY.X, 
TestParameter, AutoAnalysis.Line2.Point2.XY.Y, 
TestParameter, AutoAnalysis.Line2.Point2.Data.Var, 
TestParameter, AutoAnalysis.Line2.Point2.Data.Condition, 
TestParameter, AutoAnalysis.Line2.Point2.Data.Start, false
TestParameter, AutoAnalysis.Line2.Point2.Data.StartVar, 
TestParameter, AutoAnalysis.Line2.Point2.Data.StartCondition, 
TestParameter, AutoAnalysis.Line2.GradientExpr, 0
TestParameter, AutoAnalysis.Marker.Enabled, false
TestParameter, AutoAnalysis.Marker.Data.Var, 
TestParameter, AutoAnalysis.Marker.Data.Condition, 
TestParameter, AutoAnalysis.Marker.Data.Start, false
TestParameter, AutoAnalysis.Marker.Data.StartVar, 
TestParameter, AutoAnalysis.Marker.Data.StartCondition, 
MetaData, TestRecord.EntryPoint, false
MetaData, TestRecord.RecordTime, 12/28/2020 13:48:21
MetaData, TestRecord.TestTarget, 
MetaData, TestRecord.IterationIndex, 34
MetaData, TestRecord.Preservation, true
MetaData, TestRecord.Flag, 
MetaData, TestRecord.Remarks, 
MetaData, TestRecord.LinkKey, ac8f05a6-aee9-4774-b85e-8f2a5f1c75d8
Dimension1, 61, 61, 61, 61, 61
Dimension2, 1, 1, 1, 1, 1
DataName, Ids, Vdrain, Cgs, G, Ta
DataValue, -6.77E-09, 0, 1.36124E-09, -0.00117031, 25
DataValue, -2.8300000000000004E-09, 9.999, 1.36145E-09, -0.00117009, 25
DataValue, -2E-09, 19.998, 1.36151E-09, -0.00117004, 25
DataValue, -2.07E-09, 29.997, 1.36135E-09, -0.0011693300000000001, 25
DataValue, -3.76E-09, 40.002, 1.36148E-09, -0.00117, 25
DataValue, -8.15E-09, 50.001, 1.36138E-09, -0.00117048, 25
DataValue, -4.96E-09, 60, 1.36139E-09, -0.00117133, 25
DataValue, -2.72E-09, 70.005, 1.36143E-09, -0.00117113, 25
DataValue, -7.0600000000000008E-09, 80.0055, 1.36134E-09, -0.00117044, 25
DataValue, -1.0040000000000001E-08, 90.004500000000007, 1.36154E-09, -0.00117047, 25
DataValue, -1.5700000000000002E-09, 100.002, 1.36151E-09, -0.00116986, 25
DataValue, -4.6100000000000004E-09, 110.004, 1.36161E-09, -0.00117083, 25
DataValue, -6.0100000000000005E-09, 119.997, 1.36144E-09, -0.00116996, 25
DataValue, -5.4600000000000006E-09, 130.00050000000002, 1.36161E-09, -0.0011686, 25
DataValue, -2.8500000000000003E-09, 140.0025, 1.36161E-09, -0.0011697300000000001, 25
DataValue, -4.6700000000000006E-09, 149.9985, 1.36152E-09, -0.00116968, 25
DataValue, -5.9100000000000005E-09, 160.005, 1.36136E-09, -0.0011699500000000001, 25
DataValue, -5.68E-09, 170.001, 1.36154E-09, -0.00116981, 25
DataValue, 1.7000000000000001E-09, 179.9955, 1.36159E-09, -0.00117073, 25
DataValue, -3.3500000000000002E-09, 189.999, 1.3614E-09, -0.00116969, 25
DataValue, -6.4900000000000005E-09, 200.001, 1.36165E-09, -0.0011707500000000001, 25
DataValue, -3.6200000000000003E-09, 209.9955, 1.36156E-09, -0.00117048, 25
DataValue, 5.100000000000001E-10, 219.99450000000002, 1.36149E-09, -0.00117208, 25
DataValue, -6.67E-09, 230.001, 1.36163E-09, -0.00117063, 25
DataValue, -5.5000000000000004E-09, 240, 1.3617E-09, -0.00117151, 25
DataValue, -6.2400000000000008E-09, 249.9975, 1.36172E-09, -0.0011728, 25
DataValue, -6.540000000000001E-09, 259.9995, 1.36152E-09, -0.00117052, 25
DataValue, -4.0800000000000008E-09, 270.0015, 1.3618E-09, -0.00117408, 25
DataValue, -4.9800000000000006E-09, 280.002, 1.36158E-09, -0.00117206, 25
DataValue, -7.1100000000000005E-09, 290.0025, 1.36186E-09, -0.0011732000000000001, 25
DataValue, -8.7800000000000015E-09, 299.9985, 1.36174E-09, -0.00117245, 25
DataValue, -8.22E-09, 310.002, 1.3617E-09, -0.00117248, 25
DataValue, -8.5300000000000009E-09, 320.00100000000003, 1.3617E-09, -0.00117242, 25
DataValue, -1.1000000000000001E-10, 330, 1.36165E-09, -0.00117155, 25
DataValue, -3.3E-09, 339.999, 1.36174E-09, -0.00117292, 25
DataValue, -1.7900000000000002E-09, 349.998, 1.3617E-09, -0.0011731, 25
DataValue, -1.1940000000000001E-08, 360.00600000000003, 1.36192E-09, -0.00117268, 25
DataValue, -8.3100000000000013E-09, 370.00350000000003, 1.36167E-09, -0.00117326, 25
DataValue, 1.1000000000000001E-10, 379.9965, 1.36189E-09, -0.00117283, 25
DataValue, -4.42E-09, 390.003, 1.36183E-09, -0.00117317, 25
DataValue, -9.5E-10, 400.0005, 1.36178E-09, -0.00117311, 25
DataValue, -5.0700000000000009E-09, 410.0025, 1.36188E-09, -0.00117359, 25
DataValue, -8.33E-09, 420.0015, 1.36203E-09, -0.00117235, 25
DataValue, -9.280000000000001E-09, 430.00350000000003, 1.36202E-09, -0.00117322, 25
DataValue, -9.4900000000000009E-09, 440.004, 1.36173E-09, -0.00117398, 25
DataValue, 2.9800000000000005E-09, 449.99850000000004, 1.36185E-09, -0.00117342, 25
DataValue, -5.16E-09, 459.9975, 1.36203E-09, -0.00117283, 25
DataValue, -7.88E-09, 470.0055, 1.3619E-09, -0.00117378, 25
DataValue, -2.7100000000000004E-09, 480.003, 1.36198E-09, -0.00117344, 25
DataValue, -5.3900000000000006E-09, 489.999, 1.36203E-09, -0.00117341, 25
DataValue, -8.6600000000000011E-09, 499.9995, 1.36215E-09, -0.00117363, 25
DataValue, -9.830000000000001E-09, 510.0045, 1.36193E-09, -0.0011741, 25
DataValue, -6.2100000000000007E-09, 520.005, 1.3621E-09, -0.0011733, 25
DataValue, -1.3950000000000001E-08, 530.0085, 1.36214E-09, -0.00117429, 25
DataValue, 4.0000000000000004E-11, 539.9955, 1.36206E-09, -0.00117504, 25
DataValue, -2.2800000000000004E-09, 549.996, 1.36196E-09, -0.00117445, 25
DataValue, -2.5900000000000004E-09, 559.9995, 1.36203E-09, -0.0011742200000000001, 25
DataValue, -7.6300000000000012E-09, 570.003, 1.36207E-09, -0.0011740000000000001, 25
DataValue, -7.68E-09, 580.005, 1.3621E-09, -0.0011745, 25
DataValue, -5.71E-09, 589.995, 1.36193E-09, -0.00117457, 25
DataValue, -7.4500000000000005E-09, 600.006, 1.36215E-09, -0.00117414, 25