
SetupTitle, Cgs
ApplicationTest, Cgs, Public
TestParameter, Name, Memo, IntegTime, Frequency, OscLevel, Scale, Gate, VdBias, VdStart, VdStop, VdLinearStep, IdLimit, HoldTime, DelayTime, IdMinRange
TestParameter, Value, , SHORT, 1000000, 0.025, LINEAR, CMU1:MF	MFCMU, SMU6:HV	HVSMU, 0, 50, 1, 0.004, 1, 1, 10uA
DutParameter, Name, Polarity, Temp, YAxisCgsMin, YAxisCgsMax
DutParameter, Value, 1, 25, 1E-12, 5E-09
MetaData, TestRecord.EntryPoint, true
MetaData, TestRecord.RecordTime, 12/28/2020 12:18:32
MetaData, TestRecord.TestTarget, 
MetaData, TestRecord.IterationIndex, 24
MetaData, TestRecord.Preservation, true
MetaData, TestRecord.Flag, 
MetaData, TestRecord.Remarks, 
MetaData, TestRecord.LinkKey, 30c8b68c-3979-47f1-8658-3406cbaa0692
Dimension1, 51, 51, 51, 51, 51
Dimension2, 1, 1, 1, 1, 1
DataName, Ids, Vdrain, Cgs, G, Ta
DataValue, -3.8100000000000007E-09, -0.0012000000000000001, 1.16859E-09, -0.00154304, 25
DataValue, -4.4300000000000006E-09, 0.997, 1.16874E-09, -0.0015430700000000001, 25
DataValue, -6.610000000000001E-09, 2.0026, 1.16864E-09, -0.00154232, 25
DataValue, -3.6400000000000003E-09, 2.998, 1.16887E-09, -0.00154178, 25
DataValue, -7.200000000000001E-10, 3.998, 1.16876E-09, -0.00154154, 25
DataValue, -6.230000000000001E-09, 5.0004, 1.16881E-09, -0.00154265, 25
DataValue, -1.53E-09, 6.001, 1.16872E-09, -0.00154311, 25
DataValue, -6.950000000000001E-09, 6.998, 1.1688E-09, -0.00154246, 25
DataValue, -1.046E-08, 8.0066, 1.16879E-09, -0.0015427, 25
DataValue, -9.5600000000000009E-09, 9.0096, 1.16868E-09, -0.0015424, 25
DataValue, -1.1230000000000002E-08, 10.0038, 1.16884E-09, -0.00154294, 25
DataValue, -7.3000000000000006E-10, 10.9948, 1.16877E-09, -0.0015423400000000001, 25
DataValue, -3.1700000000000004E-09, 11.9984, 1.16876E-09, -0.00154305, 25
DataValue, -3.4700000000000002E-09, 13.0016, 1.16883E-09, -0.00154294, 25
DataValue, -7.68E-09, 14, 1.16884E-09, -0.00154293, 25
DataValue, -5.41E-09, 14.998800000000001, 1.16883E-09, -0.0015430700000000001, 25
DataValue, -9.7000000000000017E-10, 15.9946, 1.16883E-09, -0.00154293, 25
DataValue, -9.65E-09, 17.003, 1.16885E-09, -0.00154218, 25
DataValue, -1.0160000000000001E-08, 18.003, 1.16894E-09, -0.00154406, 25
DataValue, -6.3500000000000006E-09, 18.9982, 1.16879E-09, -0.00154311, 25
DataValue, -8.9200000000000015E-09, 20.0032, 1.16898E-09, -0.00154282, 25
DataValue, -2.1E-09, 20.994600000000002, 1.16872E-09, -0.001543, 25
DataValue, 1.13E-09, 21.997600000000002, 1.16893E-09, -0.00154198, 25
DataValue, -3.9000000000000005E-10, 23.003400000000003, 1.16885E-09, -0.001543, 25
DataValue, -1.3300000000000002E-09, 24.004, 1.16897E-09, -0.00154341, 25
DataValue, -1.9E-09, 25.000600000000002, 1.16857E-09, -0.00154309, 25
DataValue, -5.2600000000000004E-09, 26.0026, 1.16902E-09, -0.00154229, 25
DataValue, 2.1800000000000003E-09, 26.998, 1.16885E-09, -0.00154284, 25
DataValue, -7.79E-09, 27.9964, 1.16901E-09, -0.00154333, 25
DataValue, -5.2200000000000006E-09, 29.0026, 1.16883E-09, -0.0015428500000000001, 25
DataValue, -2.0000000000000002E-11, 29.995600000000003, 1.16909E-09, -0.00154213, 25
DataValue, -3.9500000000000006E-09, 31.0008, 1.16893E-09, -0.00154279, 25
DataValue, -1.7800000000000003E-09, 31.998600000000003, 1.16911E-09, -0.00154312, 25
DataValue, -1.4600000000000001E-09, 33.001000000000005, 1.16889E-09, -0.00154311, 25
DataValue, -4.92E-09, 34.0006, 1.16889E-09, -0.00154259, 25
DataValue, -1.0900000000000002E-09, 34.9976, 1.16891E-09, -0.00154301, 25
DataValue, 5.700000000000001E-10, 35.999, 1.16909E-09, -0.0015428, 25
DataValue, -4.4900000000000008E-09, 36.996, 1.16897E-09, -0.00154237, 25
DataValue, -2.77E-09, 38.002, 1.16893E-09, -0.00154357, 25
DataValue, -3.3000000000000005E-10, 38.9924, 1.16885E-09, -0.00154367, 25
DataValue, -8.95E-09, 40.0026, 1.16904E-09, -0.0015429, 25
DataValue, -4.72E-09, 40.9992, 1.16889E-09, -0.00154322, 25
DataValue, -6.0100000000000005E-09, 42.004000000000005, 1.16905E-09, -0.00154297, 25
DataValue, -3.5200000000000003E-09, 42.996, 1.16895E-09, -0.00154365, 25
DataValue, -5.1200000000000005E-09, 43.9998, 1.16913E-09, -0.00154273, 25
DataValue, -7.1800000000000004E-09, 45.0032, 1.16909E-09, -0.00154317, 25
DataValue, -7.7800000000000008E-09, 46.0004, 1.169E-09, -0.00154243, 25
DataValue, -8.8600000000000013E-09, 47.0066, 1.16899E-09, -0.00154353, 25
DataValue, -1.2570000000000001E-08, 48.003600000000006, 1.16904E-09, -0.0015432500000000001, 25
DataValue, -5.44E-09, 49.006800000000005, 1.16898E-09, -0.00154268, 25
DataValue, -9.02E-09, 50.0048, 1.1689E-09, -0.0015440200000000001, 25
SetupTitle, Cgs
PrimitiveTest, C-V Sweep
TestParameter, Channel.UnitTyp, CMU, SMU
TestParameter, Channel.Unit, Gate, VdBias
TestParameter, Channel.IName, , Ids
TestParameter, Channel.VName, VBias, Vdrain
TestParameter, Channel.Mode, , V
TestParameter, Channel.Func, CONST, VAR1
TestParameter, Channel.Index, 
TestParameter, Channel.Time, 
TestParameter, Measurement.Primary.Locus, Single
TestParameter, Measurement.Primary.Scale, Scale
TestParameter, Measurement.Primary.Start, VdStart*Polarity
TestParameter, Measurement.Primary.Stop, VdStop*Polarity
TestParameter, Measurement.Primary.Compliance, IdLimit
TestParameter, Measurement.Primary.Step, VdLinearStep*Polarity
TestParameter, Measurement.Aborting.Condition, CONTINUE AT ANY
TestParameter, Measurement.PostOutput.Value, START
TestParameter, Measurement.PostOutput.Retention, OFF
TestParameter, Measurement.Secondary.ACLevel, OscLevel
TestParameter, Measurement.Secondary.FName, Freq
TestParameter, Measurement.Secondary.Frequency, Frequency
TestParameter, Measurement.Bias.Source, 0, 0
TestParameter, Measurement.ImpedanceMode.Model, Cp-G
TestParameter, Measurement.ImpedanceMode.CName, Cgs
TestParameter, Measurement.ImpedanceMode.LName, L
TestParameter, Measurement.ImpedanceMode.GName, G
TestParameter, Measurement.ImpedanceMode.RName, R
TestParameter, Measurement.ImpedanceMode.QName, Q
TestParameter, Measurement.ImpedanceMode.DName, D
TestParameter, Measurement.ImpedanceMode.YName, Y
TestParameter, Measurement.ImpedanceMode.ZName, Z
TestParameter, Measurement.ImpedanceMode.ThName, Theta
TestParameter, Measurement.ImpedanceMode.BName, B
TestParameter, Measurement.ImpedanceMode.XName, X
TestParameter, Measurement.Monitor.Unit, CMU:=Gate, SMU:=VdBias
TestParameter, Measurement.Monitor.RangingMode, AUTO, LIMITED
TestParameter, Measurement.Monitor.RangeBoundary, 50, IdMinRange
TestParameter, Measurement.Monitor.AcMonitorSymbol, 
TestParameter, Measurement.Monitor.DcMonitorSymbol, 
TestParameter, Measurement.Timing.Hold, HoldTime
TestParameter, Measurement.Timing.Delay, DelayTime
TestParameter, Measurement.Adc.UnitType, Cmu, Smu
TestParameter, Measurement.Adc.HighResolution.Mode, IntegMode, IntegMode
TestParameter, Measurement.Adc.HighResolution.Coeff, AdcFactor, AdcFactor
TestParameter, Measurement.WaitTime.Source.Coeff, 1
TestParameter, Measurement.WaitTime.Source.Offset, 0
TestParameter, Measurement.WaitTime.Monitor.Coeff, 1
TestParameter, Measurement.WaitTime.Monitor.Offset, 0
TestParameter, Function.User.Name, Ta
TestParameter, Function.User.Unit, deg
TestParameter, Function.User.Definition, Temp
TestParameter, Output.Graph.Enabled, true
TestParameter, Output.Graph.AutoScaling, false
TestParameter, Output.Graph.XAxis.Data, Vdrain
TestParameter, Output.Graph.XAxis.Scale, ScaleStr
TestParameter, Output.Graph.XAxis.Left, VdStart*Polarity
TestParameter, Output.Graph.XAxis.Right, VdStop*Polarity
TestParameter, Output.Graph.XAxis.RunTimeAutoScale, false
TestParameter, Output.Graph.YAxis.Data, Cgs
TestParameter, Output.Graph.YAxis.Scale, Log
TestParameter, Output.Graph.YAxis.Bottom, YAxisCgsMin
TestParameter, Output.Graph.YAxis.Top, YAxisCgsMax
TestParameter, Output.Graph.YAxis.Group, 
TestParameter, Output.Graph.YAxis.RunTimeAutoScale, false
TestParameter, Output.List.Data, Vdrain, Cgs, Ids
TestParameter, Output.Scalar.Data, Ta
TestParameter, AutoAnalysis.Interpolation, true
TestParameter, AutoAnalysis.Line1.Enabled, false
TestParameter, AutoAnalysis.Line1.Type, 1
TestParameter, AutoAnalysis.Line1.Fix, True
TestParameter, AutoAnalysis.Line1.YAxis, 0
TestParameter, AutoAnalysis.Line1.Point1.Type, 0
TestParameter, AutoAnalysis.Line1.Point1.XY.X, 
TestParameter, AutoAnalysis.Line1.Point1.XY.Y, 
TestParameter, AutoAnalysis.Line1.Point1.Data.Var, 
TestParameter, AutoAnalysis.Line1.Point1.Data.Condition, 
TestParameter, AutoAnalysis.Line1.Point1.Data.Start, false
TestParameter, AutoAnalysis.Line1.Point1.Data.StartVar, 
TestParameter, AutoAnalysis.Line1.Point1.Data.StartCondition, 
TestParameter, AutoAnalysis.Line1.Point2.Type, 0
TestParameter, AutoAnalysis.Line1.Point2.XY.X, 
TestParameter, AutoAnalysis.Line1.Point2.XY.Y, 
TestParameter, AutoAnalysis.Line1.Point2.Data.Var, 
TestParameter, AutoAnalysis.Line1.Point2.Data.Condition, 
TestParameter, AutoAnalysis.Line1.Point2.Data.Start, false
TestParameter, AutoAnalysis.Line1.Point2.Data.StartVar, 
TestParameter, AutoAnalysis.Line1.Point2.Data.StartCondition, 
TestParameter, AutoAnalysis.Line1.GradientExpr, 0
TestParameter, AutoAnalysis.Line2.Enabled, false
TestParameter, AutoAnalysis.Line2.Type, 1
TestParameter, AutoAnalysis.Line2.Fix, True
TestParameter, AutoAnalysis.Line2.YAxis, 0
TestParameter, AutoAnalysis.Line2.Point1.Type, 0
TestParameter, AutoAnalysis.Line2.Point1.XY.X, 
TestParameter, AutoAnalysis.Line2.Point1.XY.Y, 
TestParameter, AutoAnalysis.Line2.Point1.Data.Var, 
TestParameter, AutoAnalysis.Line2.Point1.Data.Condition, 
TestParameter, AutoAnalysis.Line2.Point1.Data.Start, false
TestParameter, AutoAnalysis.Line2.Point1.Data.StartVar, 
TestParameter, AutoAnalysis.Line2.Point1.Data.StartCondition, 
TestParameter, AutoAnalysis.Line2.Point2.Type, 0
TestParameter, AutoAnalysis.Line2.Point2.XY.X, 
TestParameter, AutoAnalysis.Line2.Point2.XY.Y, 
TestParameter, AutoAnalysis.Line2.Point2.Data.Var, 
TestParameter, AutoAnalysis.Line2.Point2.Data.Condition, 
TestParameter, AutoAnalysis.Line2.Point2.Data.Start, false
TestParameter, AutoAnalysis.Line2.Point2.Data.StartVar, 
TestParameter, AutoAnalysis.Line2.Point2.Data.StartCondition, 
TestParameter, AutoAnalysis.Line2.GradientExpr, 0
TestParameter, AutoAnalysis.Marker.Enabled, false
TestParameter, AutoAnalysis.Marker.Data.Var, 
TestParameter, AutoAnalysis.Marker.Data.Condition, 
TestParameter, AutoAnalysis.Marker.Data.Start, false
TestParameter, AutoAnalysis.Marker.Data.StartVar, 
TestParameter, AutoAnalysis.Marker.Data.StartCondition, 
MetaData, TestRecord.EntryPoint, false
MetaData, TestRecord.RecordTime, 12/28/2020 12:18:32
MetaData, TestRecord.TestTarget, 
MetaData, TestRecord.IterationIndex, 24
MetaData, TestRecord.Preservation, true
MetaData, TestRecord.Flag, 
MetaData, TestRecord.Remarks, 
MetaData, TestRecord.LinkKey, 30c8b68c-3979-47f1-8658-3406cbaa0692
Dimension1, 51, 51, 51, 51, 51
Dimension2, 1, 1, 1, 1, 1
DataName, Ids, Vdrain, Cgs, G, Ta
DataValue, -3.8100000000000007E-09, -0.0012000000000000001, 1.16859E-09, -0.00154304, 25
DataValue, -4.4300000000000006E-09, 0.997, 1.16874E-09, -0.0015430700000000001, 25
DataValue, -6.610000000000001E-09, 2.0026, 1.16864E-09, -0.00154232, 25
DataValue, -3.6400000000000003E-09, 2.998, 1.16887E-09, -0.00154178, 25
DataValue, -7.200000000000001E-10, 3.998, 1.16876E-09, -0.00154154, 25
DataValue, -6.230000000000001E-09, 5.0004, 1.16881E-09, -0.00154265, 25
DataValue, -1.53E-09, 6.001, 1.16872E-09, -0.00154311, 25
DataValue, -6.950000000000001E-09, 6.998, 1.1688E-09, -0.00154246, 25
DataValue, -1.046E-08, 8.0066, 1.16879E-09, -0.0015427, 25
DataValue, -9.5600000000000009E-09, 9.0096, 1.16868E-09, -0.0015424, 25
DataValue, -1.1230000000000002E-08, 10.0038, 1.16884E-09, -0.00154294, 25
DataValue, -7.3000000000000006E-10, 10.9948, 1.16877E-09, -0.0015423400000000001, 25
DataValue, -3.1700000000000004E-09, 11.9984, 1.16876E-09, -0.00154305, 25
DataValue, -3.4700000000000002E-09, 13.0016, 1.16883E-09, -0.00154294, 25
DataValue, -7.68E-09, 14, 1.16884E-09, -0.00154293, 25
DataValue, -5.41E-09, 14.998800000000001, 1.16883E-09, -0.0015430700000000001, 25
DataValue, -9.7000000000000017E-10, 15.9946, 1.16883E-09, -0.00154293, 25
DataValue, -9.65E-09, 17.003, 1.16885E-09, -0.00154218, 25
DataValue, -1.0160000000000001E-08, 18.003, 1.16894E-09, -0.00154406, 25
DataValue, -6.3500000000000006E-09, 18.9982, 1.16879E-09, -0.00154311, 25
DataValue, -8.9200000000000015E-09, 20.0032, 1.16898E-09, -0.00154282, 25
DataValue, -2.1E-09, 20.994600000000002, 1.16872E-09, -0.001543, 25
DataValue, 1.13E-09, 21.997600000000002, 1.16893E-09, -0.00154198, 25
DataValue, -3.9000000000000005E-10, 23.003400000000003, 1.16885E-09, -0.001543, 25
DataValue, -1.3300000000000002E-09, 24.004, 1.16897E-09, -0.00154341, 25
DataValue, -1.9E-09, 25.000600000000002, 1.16857E-09, -0.00154309, 25
DataValue, -5.2600000000000004E-09, 26.0026, 1.16902E-09, -0.00154229, 25
DataValue, 2.1800000000000003E-09, 26.998, 1.16885E-09, -0.00154284, 25
DataValue, -7.79E-09, 27.9964, 1.16901E-09, -0.00154333, 25
DataValue, -5.2200000000000006E-09, 29.0026, 1.16883E-09, -0.0015428500000000001, 25
DataValue, -2.0000000000000002E-11, 29.995600000000003, 1.16909E-09, -0.00154213, 25
DataValue, -3.9500000000000006E-09, 31.0008, 1.16893E-09, -0.00154279, 25
DataValue, -1.7800000000000003E-09, 31.998600000000003, 1.16911E-09, -0.00154312, 25
DataValue, -1.4600000000000001E-09, 33.001000000000005, 1.16889E-09, -0.00154311, 25
DataValue, -4.92E-09, 34.0006, 1.16889E-09, -0.00154259, 25
DataValue, -1.0900000000000002E-09, 34.9976, 1.16891E-09, -0.00154301, 25
DataValue, 5.700000000000001E-10, 35.999, 1.16909E-09, -0.0015428, 25
DataValue, -4.4900000000000008E-09, 36.996, 1.16897E-09, -0.00154237, 25
DataValue, -2.77E-09, 38.002, 1.16893E-09, -0.00154357, 25
DataValue, -3.3000000000000005E-10, 38.9924, 1.16885E-09, -0.00154367, 25
DataValue, -8.95E-09, 40.0026, 1.16904E-09, -0.0015429, 25
DataValue, -4.72E-09, 40.9992, 1.16889E-09, -0.00154322, 25
DataValue, -6.0100000000000005E-09, 42.004000000000005, 1.16905E-09, -0.00154297, 25
DataValue, -3.5200000000000003E-09, 42.996, 1.16895E-09, -0.00154365, 25
DataValue, -5.1200000000000005E-09, 43.9998, 1.16913E-09, -0.00154273, 25
DataValue, -7.1800000000000004E-09, 45.0032, 1.16909E-09, -0.00154317, 25
DataValue, -7.7800000000000008E-09, 46.0004, 1.169E-09, -0.00154243, 25
DataValue, -8.8600000000000013E-09, 47.0066, 1.16899E-09, -0.00154353, 25
DataValue, -1.2570000000000001E-08, 48.003600000000006, 1.16904E-09, -0.0015432500000000001, 25
DataValue, -5.44E-09, 49.006800000000005, 1.16898E-09, -0.00154268, 25
DataValue, -9.02E-09, 50.0048, 1.1689E-09, -0.0015440200000000001, 25