
SetupTitle, Cgs
ApplicationTest, Cgs, Public
TestParameter, Name, Memo, IntegTime, Frequency, OscLevel, Scale, Gate, VdBias, VdStart, VdStop, VdLinearStep, IdLimit, HoldTime, DelayTime, IdMinRange
TestParameter, Value, , SHORT, 1000000, 0.025, LINEAR, CMU1:MF	MFCMU, SMU6:HV	HVSMU, 0, 50, 1, 0.004, 1, 1, 10uA
DutParameter, Name, Polarity, Temp, YAxisCgsMin, YAxisCgsMax
DutParameter, Value, 1, 25, 1E-12, 5E-09
MetaData, TestRecord.EntryPoint, true
MetaData, TestRecord.RecordTime, 12/28/2020 11:11:31
MetaData, TestRecord.TestTarget, 
MetaData, TestRecord.IterationIndex, 19
MetaData, TestRecord.Preservation, true
MetaData, TestRecord.Flag, 
MetaData, TestRecord.Remarks, 
MetaData, TestRecord.LinkKey, 40cc21d2-788b-4515-9f34-f943299ed029
Dimension1, 51, 51, 51, 51, 51
Dimension2, 1, 1, 1, 1, 1
DataName, Ids, Vdrain, Cgs, G, Ta
DataValue, -7.1600000000000009E-09, 0.0054, 1.34564E-09, -0.00121288, 25
DataValue, -7.1700000000000007E-09, 0.99720000000000009, 1.34563E-09, -0.00121241, 25
DataValue, -1.0400000000000001E-09, 1.9976, 1.34575E-09, -0.00121319, 25
DataValue, -2.77E-09, 2.9976000000000003, 1.34553E-09, -0.00121399, 25
DataValue, -5.78E-09, 4.001, 1.34546E-09, -0.00121343, 25
DataValue, -6.0000000000000008E-09, 4.9994000000000005, 1.3455E-09, -0.00121381, 25
DataValue, 3.6500000000000004E-09, 5.9958, 1.3454E-09, -0.00121262, 25
DataValue, -1.19E-09, 6.9986000000000006, 1.34526E-09, -0.00121242, 25
DataValue, -3.5000000000000003E-09, 8.0038, 1.34521E-09, -0.00121295, 25
DataValue, -1.0400000000000001E-09, 8.996, 1.34528E-09, -0.00121167, 25
DataValue, -1.0900000000000002E-09, 9.9978, 1.345E-09, -0.00121217, 25
DataValue, -7.53E-09, 11.008000000000001, 1.34512E-09, -0.001213, 25
DataValue, 1.6100000000000002E-09, 11.9974, 1.34506E-09, -0.00121231, 25
DataValue, -5.6300000000000006E-09, 13.0008, 1.34512E-09, -0.0012123400000000001, 25
DataValue, 7.4E-10, 14.002400000000002, 1.34511E-09, -0.00121238, 25
DataValue, -7.74E-09, 15.0006, 1.34499E-09, -0.00121227, 25
DataValue, -2.26E-09, 16.0034, 1.34514E-09, -0.00121353, 25
DataValue, 1.01E-09, 16.9926, 1.34483E-09, -0.00121237, 25
DataValue, -3.5600000000000005E-09, 17.9986, 1.34503E-09, -0.00121278, 25
DataValue, 7.7E-10, 18.9984, 1.34493E-09, -0.0012115000000000001, 25
DataValue, -4.2E-09, 19.9998, 1.34501E-09, -0.0012135800000000001, 25
DataValue, -6.2100000000000007E-09, 21.0018, 1.34487E-09, -0.0012125, 25
DataValue, -3.9800000000000007E-09, 21.997600000000002, 1.34505E-09, -0.00121241, 25
DataValue, -8.55E-09, 23.0002, 1.34461E-09, -0.00121253, 25
DataValue, -1.0200000000000002E-09, 24.003800000000002, 1.34493E-09, -0.00121352, 25
DataValue, -9.2000000000000013E-09, 24.991600000000002, 1.34475E-09, -0.00121252, 25
DataValue, -2.12E-09, 25.9954, 1.3448E-09, -0.0012117, 25
DataValue, -4.8000000000000008E-09, 27.0016, 1.3447699999999999E-09, -0.0012128500000000001, 25
DataValue, -3.6700000000000004E-09, 28.002000000000002, 1.34484E-09, -0.00121224, 25
DataValue, -1.6000000000000003E-09, 28.9986, 1.34472E-09, -0.00121163, 25
DataValue, -5.1200000000000005E-09, 29.9978, 1.34462E-09, -0.00121302, 25
DataValue, -3.2400000000000004E-09, 30.997200000000003, 1.34479E-09, -0.00121193, 25
DataValue, -1.6900000000000002E-09, 31.9998, 1.34457E-09, -0.00121222, 25
DataValue, -6.4100000000000008E-09, 32.996, 1.34468E-09, -0.00121165, 25
DataValue, -6.9900000000000009E-09, 34.0006, 1.34465E-09, -0.0012120100000000001, 25
DataValue, 2.4000000000000004E-09, 34.998200000000004, 1.34443E-09, -0.00121208, 25
DataValue, -8.88E-09, 36.0002, 1.3446E-09, -0.00121233, 25
DataValue, -3.6700000000000004E-09, 37.0052, 1.34451E-09, -0.00121204, 25
DataValue, -6.5200000000000006E-09, 38.001400000000004, 1.34456E-09, -0.00121241, 25
DataValue, -8.0000000000000008E-11, 38.999, 1.34453E-09, -0.00121244, 25
DataValue, -1.1930000000000002E-08, 40.010000000000005, 1.34443E-09, -0.00121181, 25
DataValue, -5.64E-09, 41.001400000000004, 1.34458E-09, -0.00121119, 25
DataValue, -9.84E-09, 42.0024, 1.34464E-09, -0.0012118300000000001, 25
DataValue, -3.3500000000000002E-09, 42.998400000000004, 1.34459E-09, -0.00121243, 25
DataValue, -6.470000000000001E-09, 44.0036, 1.34449E-09, -0.00121141, 25
DataValue, -5.5600000000000007E-09, 44.9994, 1.34429E-09, -0.0012122, 25
DataValue, -1.0090000000000001E-08, 46.0018, 1.34457E-09, -0.00121266, 25
DataValue, 2.8E-10, 46.9934, 1.34437E-09, -0.00121083, 25
DataValue, -5.5000000000000004E-09, 48.004000000000005, 1.34442E-09, -0.00121125, 25
DataValue, -3.3000000000000005E-10, 49.000800000000005, 1.34463E-09, -0.00121258, 25
DataValue, -5.06E-09, 49.9956, 1.3446E-09, -0.00121185, 25
SetupTitle, Cgs
PrimitiveTest, C-V Sweep
TestParameter, Channel.UnitTyp, CMU, SMU
TestParameter, Channel.Unit, Gate, VdBias
TestParameter, Channel.IName, , Ids
TestParameter, Channel.VName, VBias, Vdrain
TestParameter, Channel.Mode, , V
TestParameter, Channel.Func, CONST, VAR1
TestParameter, Channel.Index, 
TestParameter, Channel.Time, 
TestParameter, Measurement.Primary.Locus, Single
TestParameter, Measurement.Primary.Scale, Scale
TestParameter, Measurement.Primary.Start, VdStart*Polarity
TestParameter, Measurement.Primary.Stop, VdStop*Polarity
TestParameter, Measurement.Primary.Compliance, IdLimit
TestParameter, Measurement.Primary.Step, VdLinearStep*Polarity
TestParameter, Measurement.Aborting.Condition, CONTINUE AT ANY
TestParameter, Measurement.PostOutput.Value, START
TestParameter, Measurement.PostOutput.Retention, OFF
TestParameter, Measurement.Secondary.ACLevel, OscLevel
TestParameter, Measurement.Secondary.FName, Freq
TestParameter, Measurement.Secondary.Frequency, Frequency
TestParameter, Measurement.Bias.Source, 0, 0
TestParameter, Measurement.ImpedanceMode.Model, Cp-G
TestParameter, Measurement.ImpedanceMode.CName, Cgs
TestParameter, Measurement.ImpedanceMode.LName, L
TestParameter, Measurement.ImpedanceMode.GName, G
TestParameter, Measurement.ImpedanceMode.RName, R
TestParameter, Measurement.ImpedanceMode.QName, Q
TestParameter, Measurement.ImpedanceMode.DName, D
TestParameter, Measurement.ImpedanceMode.YName, Y
TestParameter, Measurement.ImpedanceMode.ZName, Z
TestParameter, Measurement.ImpedanceMode.ThName, Theta
TestParameter, Measurement.ImpedanceMode.BName, B
TestParameter, Measurement.ImpedanceMode.XName, X
TestParameter, Measurement.Monitor.Unit, CMU:=Gate, SMU:=VdBias
TestParameter, Measurement.Monitor.RangingMode, AUTO, LIMITED
TestParameter, Measurement.Monitor.RangeBoundary, 50, IdMinRange
TestParameter, Measurement.Monitor.AcMonitorSymbol, 
TestParameter, Measurement.Monitor.DcMonitorSymbol, 
TestParameter, Measurement.Timing.Hold, HoldTime
TestParameter, Measurement.Timing.Delay, DelayTime
TestParameter, Measurement.Adc.UnitType, Cmu, Smu
TestParameter, Measurement.Adc.HighResolution.Mode, IntegMode, IntegMode
TestParameter, Measurement.Adc.HighResolution.Coeff, AdcFactor, AdcFactor
TestParameter, Measurement.WaitTime.Source.Coeff, 1
TestParameter, Measurement.WaitTime.Source.Offset, 0
TestParameter, Measurement.WaitTime.Monitor.Coeff, 1
TestParameter, Measurement.WaitTime.Monitor.Offset, 0
TestParameter, Function.User.Name, Ta
TestParameter, Function.User.Unit, deg
TestParameter, Function.User.Definition, Temp
TestParameter, Output.Graph.Enabled, true
TestParameter, Output.Graph.AutoScaling, false
TestParameter, Output.Graph.XAxis.Data, Vdrain
TestParameter, Output.Graph.XAxis.Scale, ScaleStr
TestParameter, Output.Graph.XAxis.Left, VdStart*Polarity
TestParameter, Output.Graph.XAxis.Right, VdStop*Polarity
TestParameter, Output.Graph.XAxis.RunTimeAutoScale, false
TestParameter, Output.Graph.YAxis.Data, Cgs
TestParameter, Output.Graph.YAxis.Scale, Log
TestParameter, Output.Graph.YAxis.Bottom, YAxisCgsMin
TestParameter, Output.Graph.YAxis.Top, YAxisCgsMax
TestParameter, Output.Graph.YAxis.Group, 
TestParameter, Output.Graph.YAxis.RunTimeAutoScale, false
TestParameter, Output.List.Data, Vdrain, Cgs, Ids
TestParameter, Output.Scalar.Data, Ta
TestParameter, AutoAnalysis.Interpolation, true
TestParameter, AutoAnalysis.Line1.Enabled, false
TestParameter, AutoAnalysis.Line1.Type, 1
TestParameter, AutoAnalysis.Line1.Fix, True
TestParameter, AutoAnalysis.Line1.YAxis, 0
TestParameter, AutoAnalysis.Line1.Point1.Type, 0
TestParameter, AutoAnalysis.Line1.Point1.XY.X, 
TestParameter, AutoAnalysis.Line1.Point1.XY.Y, 
TestParameter, AutoAnalysis.Line1.Point1.Data.Var, 
TestParameter, AutoAnalysis.Line1.Point1.Data.Condition, 
TestParameter, AutoAnalysis.Line1.Point1.Data.Start, false
TestParameter, AutoAnalysis.Line1.Point1.Data.StartVar, 
TestParameter, AutoAnalysis.Line1.Point1.Data.StartCondition, 
TestParameter, AutoAnalysis.Line1.Point2.Type, 0
TestParameter, AutoAnalysis.Line1.Point2.XY.X, 
TestParameter, AutoAnalysis.Line1.Point2.XY.Y, 
TestParameter, AutoAnalysis.Line1.Point2.Data.Var, 
TestParameter, AutoAnalysis.Line1.Point2.Data.Condition, 
TestParameter, AutoAnalysis.Line1.Point2.Data.Start, false
TestParameter, AutoAnalysis.Line1.Point2.Data.StartVar, 
TestParameter, AutoAnalysis.Line1.Point2.Data.StartCondition, 
TestParameter, AutoAnalysis.Line1.GradientExpr, 0
TestParameter, AutoAnalysis.Line2.Enabled, false
TestParameter, AutoAnalysis.Line2.Type, 1
TestParameter, AutoAnalysis.Line2.Fix, True
TestParameter, AutoAnalysis.Line2.YAxis, 0
TestParameter, AutoAnalysis.Line2.Point1.Type, 0
TestParameter, AutoAnalysis.Line2.Point1.XY.X, 
TestParameter, AutoAnalysis.Line2.Point1.XY.Y, 
TestParameter, AutoAnalysis.Line2.Point1.Data.Var, 
TestParameter, AutoAnalysis.Line2.Point1.Data.Condition, 
TestParameter, AutoAnalysis.Line2.Point1.Data.Start, false
TestParameter, AutoAnalysis.Line2.Point1.Data.StartVar, 
TestParameter, AutoAnalysis.Line2.Point1.Data.StartCondition, 
TestParameter, AutoAnalysis.Line2.Point2.Type, 0
TestParameter, AutoAnalysis.Line2.Point2.XY.X, 
TestParameter, AutoAnalysis.Line2.Point2.XY.Y, 
TestParameter, AutoAnalysis.Line2.Point2.Data.Var, 
TestParameter, AutoAnalysis.Line2.Point2.Data.Condition, 
TestParameter, AutoAnalysis.Line2.Point2.Data.Start, false
TestParameter, AutoAnalysis.Line2.Point2.Data.StartVar, 
TestParameter, AutoAnalysis.Line2.Point2.Data.StartCondition, 
TestParameter, AutoAnalysis.Line2.GradientExpr, 0
TestParameter, AutoAnalysis.Marker.Enabled, false
TestParameter, AutoAnalysis.Marker.Data.Var, 
TestParameter, AutoAnalysis.Marker.Data.Condition, 
TestParameter, AutoAnalysis.Marker.Data.Start, false
TestParameter, AutoAnalysis.Marker.Data.StartVar, 
TestParameter, AutoAnalysis.Marker.Data.StartCondition, 
MetaData, TestRecord.EntryPoint, false
MetaData, TestRecord.RecordTime, 12/28/2020 11:11:31
MetaData, TestRecord.TestTarget, 
MetaData, TestRecord.IterationIndex, 19
MetaData, TestRecord.Preservation, true
MetaData, TestRecord.Flag, 
MetaData, TestRecord.Remarks, 
MetaData, TestRecord.LinkKey, 40cc21d2-788b-4515-9f34-f943299ed029
Dimension1, 51, 51, 51, 51, 51
Dimension2, 1, 1, 1, 1, 1
DataName, Ids, Vdrain, Cgs, G, Ta
DataValue, -7.1600000000000009E-09, 0.0054, 1.34564E-09, -0.00121288, 25
DataValue, -7.1700000000000007E-09, 0.99720000000000009, 1.34563E-09, -0.00121241, 25
DataValue, -1.0400000000000001E-09, 1.9976, 1.34575E-09, -0.00121319, 25
DataValue, -2.77E-09, 2.9976000000000003, 1.34553E-09, -0.00121399, 25
DataValue, -5.78E-09, 4.001, 1.34546E-09, -0.00121343, 25
DataValue, -6.0000000000000008E-09, 4.9994000000000005, 1.3455E-09, -0.00121381, 25
DataValue, 3.6500000000000004E-09, 5.9958, 1.3454E-09, -0.00121262, 25
DataValue, -1.19E-09, 6.9986000000000006, 1.34526E-09, -0.00121242, 25
DataValue, -3.5000000000000003E-09, 8.0038, 1.34521E-09, -0.00121295, 25
DataValue, -1.0400000000000001E-09, 8.996, 1.34528E-09, -0.00121167, 25
DataValue, -1.0900000000000002E-09, 9.9978, 1.345E-09, -0.00121217, 25
DataValue, -7.53E-09, 11.008000000000001, 1.34512E-09, -0.001213, 25
DataValue, 1.6100000000000002E-09, 11.9974, 1.34506E-09, -0.00121231, 25
DataValue, -5.6300000000000006E-09, 13.0008, 1.34512E-09, -0.0012123400000000001, 25
DataValue, 7.4E-10, 14.002400000000002, 1.34511E-09, -0.00121238, 25
DataValue, -7.74E-09, 15.0006, 1.34499E-09, -0.00121227, 25
DataValue, -2.26E-09, 16.0034, 1.34514E-09, -0.00121353, 25
DataValue, 1.01E-09, 16.9926, 1.34483E-09, -0.00121237, 25
DataValue, -3.5600000000000005E-09, 17.9986, 1.34503E-09, -0.00121278, 25
DataValue, 7.7E-10, 18.9984, 1.34493E-09, -0.0012115000000000001, 25
DataValue, -4.2E-09, 19.9998, 1.34501E-09, -0.0012135800000000001, 25
DataValue, -6.2100000000000007E-09, 21.0018, 1.34487E-09, -0.0012125, 25
DataValue, -3.9800000000000007E-09, 21.997600000000002, 1.34505E-09, -0.00121241, 25
DataValue, -8.55E-09, 23.0002, 1.34461E-09, -0.00121253, 25
DataValue, -1.0200000000000002E-09, 24.003800000000002, 1.34493E-09, -0.00121352, 25
DataValue, -9.2000000000000013E-09, 24.991600000000002, 1.34475E-09, -0.00121252, 25
DataValue, -2.12E-09, 25.9954, 1.3448E-09, -0.0012117, 25
DataValue, -4.8000000000000008E-09, 27.0016, 1.3447699999999999E-09, -0.0012128500000000001, 25
DataValue, -3.6700000000000004E-09, 28.002000000000002, 1.34484E-09, -0.00121224, 25
DataValue, -1.6000000000000003E-09, 28.9986, 1.34472E-09, -0.00121163, 25
DataValue, -5.1200000000000005E-09, 29.9978, 1.34462E-09, -0.00121302, 25
DataValue, -3.2400000000000004E-09, 30.997200000000003, 1.34479E-09, -0.00121193, 25
DataValue, -1.6900000000000002E-09, 31.9998, 1.34457E-09, -0.00121222, 25
DataValue, -6.4100000000000008E-09, 32.996, 1.34468E-09, -0.00121165, 25
DataValue, -6.9900000000000009E-09, 34.0006, 1.34465E-09, -0.0012120100000000001, 25
DataValue, 2.4000000000000004E-09, 34.998200000000004, 1.34443E-09, -0.00121208, 25
DataValue, -8.88E-09, 36.0002, 1.3446E-09, -0.00121233, 25
DataValue, -3.6700000000000004E-09, 37.0052, 1.34451E-09, -0.00121204, 25
DataValue, -6.5200000000000006E-09, 38.001400000000004, 1.34456E-09, -0.00121241, 25
DataValue, -8.0000000000000008E-11, 38.999, 1.34453E-09, -0.00121244, 25
DataValue, -1.1930000000000002E-08, 40.010000000000005, 1.34443E-09, -0.00121181, 25
DataValue, -5.64E-09, 41.001400000000004, 1.34458E-09, -0.00121119, 25
DataValue, -9.84E-09, 42.0024, 1.34464E-09, -0.0012118300000000001, 25
DataValue, -3.3500000000000002E-09, 42.998400000000004, 1.34459E-09, -0.00121243, 25
DataValue, -6.470000000000001E-09, 44.0036, 1.34449E-09, -0.00121141, 25
DataValue, -5.5600000000000007E-09, 44.9994, 1.34429E-09, -0.0012122, 25
DataValue, -1.0090000000000001E-08, 46.0018, 1.34457E-09, -0.00121266, 25
DataValue, 2.8E-10, 46.9934, 1.34437E-09, -0.00121083, 25
DataValue, -5.5000000000000004E-09, 48.004000000000005, 1.34442E-09, -0.00121125, 25
DataValue, -3.3000000000000005E-10, 49.000800000000005, 1.34463E-09, -0.00121258, 25
DataValue, -5.06E-09, 49.9956, 1.3446E-09, -0.00121185, 25