
SetupTitle, Cgs
ApplicationTest, Cgs, Public
TestParameter, Name, Memo, IntegTime, Frequency, OscLevel, Scale, Gate, VdBias, VdStart, VdStop, VdLinearStep, IdLimit, HoldTime, DelayTime, IdMinRange
TestParameter, Value, , SHORT, 1000000, 0.025, LINEAR, CMU1:MF	MFCMU, SMU6:HV	HVSMU, 0, 600, 10, 0.004, 1, 1, 10uA
DutParameter, Name, Polarity, Temp, YAxisCgsMin, YAxisCgsMax
DutParameter, Value, 1, 25, 1E-12, 5E-09
MetaData, TestRecord.EntryPoint, true
MetaData, TestRecord.RecordTime, 04/24/2021 12:06:00
MetaData, TestRecord.TestTarget, 
MetaData, TestRecord.IterationIndex, 42
MetaData, TestRecord.Preservation, true
MetaData, TestRecord.Flag, 
MetaData, TestRecord.Remarks, 
MetaData, TestRecord.LinkKey, 136476e8-f964-45de-a883-0d1d56a59624
Dimension1, 61, 61, 61, 61, 61
Dimension2, 1, 1, 1, 1, 1
DataName, Ids, Vdrain, Cgs, G, Ta
DataValue, -9.5E-10, -0.003, 4.33957E-09, -0.00580691, 25
DataValue, -4.3600000000000007E-09, 10.002, 4.33816E-09, -0.00580324, 25
DataValue, -9.3400000000000012E-09, 20.0025, 4.34024E-09, -0.00581277, 25
DataValue, -8.06E-09, 30, 4.33917E-09, -0.00580901, 25
DataValue, -6.130000000000001E-09, 40.0035, 4.34055E-09, -0.00580827, 25
DataValue, -5.3200000000000007E-09, 50.001, 4.33928E-09, -0.0058073000000000005, 25
DataValue, -3.1100000000000002E-09, 60, 4.33912E-09, -0.0058061, 25
DataValue, -7.190000000000001E-09, 70.0005, 4.33932E-09, -0.0058029200000000005, 25
DataValue, -1.17E-09, 79.9995, 4.3387E-09, -0.00580562, 25
DataValue, -3.2200000000000005E-09, 89.9955, 4.33906E-09, -0.00580503, 25
DataValue, -3.6100000000000006E-09, 99.999, 4.33906E-09, -0.0058084700000000005, 25
DataValue, 2.6800000000000003E-09, 109.998, 4.33836E-09, -0.0058058300000000005, 25
DataValue, -4.1200000000000007E-09, 120, 4.33979E-09, -0.00580855, 25
DataValue, -1.47E-09, 129.999, 4.33856E-09, -0.00580527, 25
DataValue, -3.0200000000000003E-09, 140.0025, 4.33948E-09, -0.00580417, 25
DataValue, -7.32E-09, 150.0015, 4.33817E-09, -0.00580873, 25
DataValue, -1.2800000000000001E-09, 160.00050000000002, 4.33777E-09, -0.00580958, 25
DataValue, -6.130000000000001E-09, 169.9995, 4.34012E-09, -0.00580977, 25
DataValue, -3.0000000000000005E-10, 179.997, 4.33755E-09, -0.00580732, 25
DataValue, -4.7300000000000008E-09, 190.005, 4.33849E-09, -0.0058071, 25
DataValue, -7.5700000000000009E-09, 199.9995, 4.33788E-09, -0.00580706, 25
DataValue, -8.6400000000000016E-09, 209.9985, 4.33844E-09, -0.00580521, 25
DataValue, -7.94E-09, 219.999, 4.33973E-09, -0.00580771, 25
DataValue, -2.2000000000000002E-10, 229.9995, 4.33854E-09, -0.00580658, 25
DataValue, -5.23E-09, 240.0045, 4.3396E-09, -0.00580227, 25
DataValue, -3.2700000000000005E-09, 250.00050000000002, 4.33852E-09, -0.00580265, 25
DataValue, 6.8E-10, 260.00100000000003, 4.3382E-09, -0.0058015, 25
DataValue, -3.4600000000000005E-09, 270, 4.33868E-09, -0.0057987, 25
DataValue, -3.66E-09, 280.00350000000003, 4.33756E-09, -0.00580517, 25
DataValue, -1.92E-09, 290.00100000000003, 4.33874E-09, -0.00579919, 25
DataValue, -6.1000000000000009E-09, 299.997, 4.33733E-09, -0.00580417, 25
DataValue, -2.24E-09, 310.0005, 4.3393E-09, -0.0058002, 25
DataValue, -8.9000000000000013E-10, 319.998, 4.33698E-09, -0.00579726, 25
DataValue, -2.67E-09, 330, 4.3388E-09, -0.00580032, 25
DataValue, -3.6100000000000006E-09, 340.002, 4.33843E-09, -0.0058020300000000006, 25
DataValue, -8.400000000000001E-10, 349.9965, 4.33827E-09, -0.00580148, 25
DataValue, -2.8300000000000004E-09, 360.0015, 4.33829E-09, -0.00580543, 25
DataValue, -3.7500000000000005E-09, 370.002, 4.33852E-09, -0.00580109, 25
DataValue, -2.6100000000000003E-09, 379.9995, 4.33869E-09, -0.0058043700000000005, 25
DataValue, -6.4900000000000005E-09, 389.997, 4.33817E-09, -0.0057967900000000004, 25
DataValue, -8.7E-09, 400.002, 4.3383E-09, -0.0057948900000000005, 25
DataValue, 2.6200000000000005E-09, 409.9965, 4.33813E-09, -0.00579131, 25
DataValue, -9.9400000000000017E-09, 420.0015, 4.33898E-09, -0.0057992600000000005, 25
DataValue, -3.4500000000000003E-09, 430.005, 4.33785E-09, -0.00579961, 25
DataValue, -2.02E-09, 439.998, 4.33866E-09, -0.0057958, 25
DataValue, -2.7E-09, 450.003, 4.33804E-09, -0.00579944, 25
DataValue, -1.23E-09, 460.002, 4.33825E-09, -0.00579461, 25
DataValue, -4.0500000000000007E-09, 469.9965, 4.33794E-09, -0.00579464, 25
DataValue, -5.9700000000000007E-09, 480.0015, 4.33758E-09, -0.0057975, 25
DataValue, -7.4500000000000005E-09, 490.002, 4.33845E-09, -0.00579685, 25
DataValue, -3.8500000000000006E-09, 500.00100000000003, 4.33793E-09, -0.0057949, 25
DataValue, 3.2200000000000005E-09, 510.0015, 4.3383E-09, -0.00579207, 25
DataValue, -1.5000000000000002E-09, 520.0065, 4.33815E-09, -0.00579438, 25
DataValue, -6.4000000000000011E-09, 530.001, 4.3393E-09, -0.00579481, 25
DataValue, -9.4600000000000017E-09, 540, 4.33725E-09, -0.00578985, 25
DataValue, -3.3300000000000003E-09, 550.0035, 4.33868E-09, -0.0057922, 25
DataValue, -8.81E-09, 560.004, 4.33806E-09, -0.00579178, 25
DataValue, 3.7100000000000002E-09, 570.0015, 4.33983E-09, -0.00579273, 25
DataValue, -9.78E-09, 580.005, 4.33829E-09, -0.00579233, 25
DataValue, 2.6E-09, 589.998, 4.33841E-09, -0.0057897700000000005, 25
DataValue, -2.8100000000000004E-09, 600.006, 4.33849E-09, -0.00579074, 25
SetupTitle, Cgs
PrimitiveTest, C-V Sweep
TestParameter, Channel.UnitTyp, CMU, SMU
TestParameter, Channel.Unit, Gate, VdBias
TestParameter, Channel.IName, , Ids
TestParameter, Channel.VName, VBias, Vdrain
TestParameter, Channel.Mode, , V
TestParameter, Channel.Func, CONST, VAR1
TestParameter, Channel.Index, 
TestParameter, Channel.Time, 
TestParameter, Measurement.Primary.Locus, Single
TestParameter, Measurement.Primary.Scale, Scale
TestParameter, Measurement.Primary.Start, VdStart*Polarity
TestParameter, Measurement.Primary.Stop, VdStop*Polarity
TestParameter, Measurement.Primary.Compliance, IdLimit
TestParameter, Measurement.Primary.Step, VdLinearStep*Polarity
TestParameter, Measurement.Aborting.Condition, CONTINUE AT ANY
TestParameter, Measurement.PostOutput.Value, START
TestParameter, Measurement.PostOutput.Retention, OFF
TestParameter, Measurement.Secondary.ACLevel, OscLevel
TestParameter, Measurement.Secondary.FName, Freq
TestParameter, Measurement.Secondary.Frequency, Frequency
TestParameter, Measurement.Bias.Source, 0, 0
TestParameter, Measurement.ImpedanceMode.Model, Cp-G
TestParameter, Measurement.ImpedanceMode.CName, Cgs
TestParameter, Measurement.ImpedanceMode.LName, L
TestParameter, Measurement.ImpedanceMode.GName, G
TestParameter, Measurement.ImpedanceMode.RName, R
TestParameter, Measurement.ImpedanceMode.QName, Q
TestParameter, Measurement.ImpedanceMode.DName, D
TestParameter, Measurement.ImpedanceMode.YName, Y
TestParameter, Measurement.ImpedanceMode.ZName, Z
TestParameter, Measurement.ImpedanceMode.ThName, Theta
TestParameter, Measurement.ImpedanceMode.BName, B
TestParameter, Measurement.ImpedanceMode.XName, X
TestParameter, Measurement.Monitor.Unit, CMU:=Gate, SMU:=VdBias
TestParameter, Measurement.Monitor.RangingMode, AUTO, LIMITED
TestParameter, Measurement.Monitor.RangeBoundary, 50, IdMinRange
TestParameter, Measurement.Monitor.AcMonitorSymbol, 
TestParameter, Measurement.Monitor.DcMonitorSymbol, 
TestParameter, Measurement.Timing.Hold, HoldTime
TestParameter, Measurement.Timing.Delay, DelayTime
TestParameter, Measurement.Adc.UnitType, Cmu, Smu
TestParameter, Measurement.Adc.HighResolution.Mode, IntegMode, IntegMode
TestParameter, Measurement.Adc.HighResolution.Coeff, AdcFactor, AdcFactor
TestParameter, Measurement.WaitTime.Source.Coeff, 1
TestParameter, Measurement.WaitTime.Source.Offset, 0
TestParameter, Measurement.WaitTime.Monitor.Coeff, 1
TestParameter, Measurement.WaitTime.Monitor.Offset, 0
TestParameter, Function.User.Name, Ta
TestParameter, Function.User.Unit, deg
TestParameter, Function.User.Definition, Temp
TestParameter, Output.Graph.Enabled, true
TestParameter, Output.Graph.AutoScaling, false
TestParameter, Output.Graph.XAxis.Data, Vdrain
TestParameter, Output.Graph.XAxis.Scale, ScaleStr
TestParameter, Output.Graph.XAxis.Left, VdStart*Polarity
TestParameter, Output.Graph.XAxis.Right, VdStop*Polarity
TestParameter, Output.Graph.XAxis.RunTimeAutoScale, false
TestParameter, Output.Graph.YAxis.Data, Cgs
TestParameter, Output.Graph.YAxis.Scale, Log
TestParameter, Output.Graph.YAxis.Bottom, YAxisCgsMin
TestParameter, Output.Graph.YAxis.Top, YAxisCgsMax
TestParameter, Output.Graph.YAxis.Group, 
TestParameter, Output.Graph.YAxis.RunTimeAutoScale, false
TestParameter, Output.List.Data, Vdrain, Cgs, Ids
TestParameter, Output.Scalar.Data, Ta
TestParameter, AutoAnalysis.Interpolation, true
TestParameter, AutoAnalysis.Line1.Enabled, false
TestParameter, AutoAnalysis.Line1.Type, 1
TestParameter, AutoAnalysis.Line1.Fix, True
TestParameter, AutoAnalysis.Line1.YAxis, 0
TestParameter, AutoAnalysis.Line1.Point1.Type, 0
TestParameter, AutoAnalysis.Line1.Point1.XY.X, 
TestParameter, AutoAnalysis.Line1.Point1.XY.Y, 
TestParameter, AutoAnalysis.Line1.Point1.Data.Var, 
TestParameter, AutoAnalysis.Line1.Point1.Data.Condition, 
TestParameter, AutoAnalysis.Line1.Point1.Data.Start, false
TestParameter, AutoAnalysis.Line1.Point1.Data.StartVar, 
TestParameter, AutoAnalysis.Line1.Point1.Data.StartCondition, 
TestParameter, AutoAnalysis.Line1.Point2.Type, 0
TestParameter, AutoAnalysis.Line1.Point2.XY.X, 
TestParameter, AutoAnalysis.Line1.Point2.XY.Y, 
TestParameter, AutoAnalysis.Line1.Point2.Data.Var, 
TestParameter, AutoAnalysis.Line1.Point2.Data.Condition, 
TestParameter, AutoAnalysis.Line1.Point2.Data.Start, false
TestParameter, AutoAnalysis.Line1.Point2.Data.StartVar, 
TestParameter, AutoAnalysis.Line1.Point2.Data.StartCondition, 
TestParameter, AutoAnalysis.Line1.GradientExpr, 0
TestParameter, AutoAnalysis.Line2.Enabled, false
TestParameter, AutoAnalysis.Line2.Type, 1
TestParameter, AutoAnalysis.Line2.Fix, True
TestParameter, AutoAnalysis.Line2.YAxis, 0
TestParameter, AutoAnalysis.Line2.Point1.Type, 0
TestParameter, AutoAnalysis.Line2.Point1.XY.X, 
TestParameter, AutoAnalysis.Line2.Point1.XY.Y, 
TestParameter, AutoAnalysis.Line2.Point1.Data.Var, 
TestParameter, AutoAnalysis.Line2.Point1.Data.Condition, 
TestParameter, AutoAnalysis.Line2.Point1.Data.Start, false
TestParameter, AutoAnalysis.Line2.Point1.Data.StartVar, 
TestParameter, AutoAnalysis.Line2.Point1.Data.StartCondition, 
TestParameter, AutoAnalysis.Line2.Point2.Type, 0
TestParameter, AutoAnalysis.Line2.Point2.XY.X, 
TestParameter, AutoAnalysis.Line2.Point2.XY.Y, 
TestParameter, AutoAnalysis.Line2.Point2.Data.Var, 
TestParameter, AutoAnalysis.Line2.Point2.Data.Condition, 
TestParameter, AutoAnalysis.Line2.Point2.Data.Start, false
TestParameter, AutoAnalysis.Line2.Point2.Data.StartVar, 
TestParameter, AutoAnalysis.Line2.Point2.Data.StartCondition, 
TestParameter, AutoAnalysis.Line2.GradientExpr, 0
TestParameter, AutoAnalysis.Marker.Enabled, false
TestParameter, AutoAnalysis.Marker.Data.Var, 
TestParameter, AutoAnalysis.Marker.Data.Condition, 
TestParameter, AutoAnalysis.Marker.Data.Start, false
TestParameter, AutoAnalysis.Marker.Data.StartVar, 
TestParameter, AutoAnalysis.Marker.Data.StartCondition, 
MetaData, TestRecord.EntryPoint, false
MetaData, TestRecord.RecordTime, 04/24/2021 12:06:00
MetaData, TestRecord.TestTarget, 
MetaData, TestRecord.IterationIndex, 42
MetaData, TestRecord.Preservation, true
MetaData, TestRecord.Flag, 
MetaData, TestRecord.Remarks, 
MetaData, TestRecord.LinkKey, 136476e8-f964-45de-a883-0d1d56a59624
Dimension1, 61, 61, 61, 61, 61
Dimension2, 1, 1, 1, 1, 1
DataName, Ids, Vdrain, Cgs, G, Ta
DataValue, -9.5E-10, -0.003, 4.33957E-09, -0.00580691, 25
DataValue, -4.3600000000000007E-09, 10.002, 4.33816E-09, -0.00580324, 25
DataValue, -9.3400000000000012E-09, 20.0025, 4.34024E-09, -0.00581277, 25
DataValue, -8.06E-09, 30, 4.33917E-09, -0.00580901, 25
DataValue, -6.130000000000001E-09, 40.0035, 4.34055E-09, -0.00580827, 25
DataValue, -5.3200000000000007E-09, 50.001, 4.33928E-09, -0.0058073000000000005, 25
DataValue, -3.1100000000000002E-09, 60, 4.33912E-09, -0.0058061, 25
DataValue, -7.190000000000001E-09, 70.0005, 4.33932E-09, -0.0058029200000000005, 25
DataValue, -1.17E-09, 79.9995, 4.3387E-09, -0.00580562, 25
DataValue, -3.2200000000000005E-09, 89.9955, 4.33906E-09, -0.00580503, 25
DataValue, -3.6100000000000006E-09, 99.999, 4.33906E-09, -0.0058084700000000005, 25
DataValue, 2.6800000000000003E-09, 109.998, 4.33836E-09, -0.0058058300000000005, 25
DataValue, -4.1200000000000007E-09, 120, 4.33979E-09, -0.00580855, 25
DataValue, -1.47E-09, 129.999, 4.33856E-09, -0.00580527, 25
DataValue, -3.0200000000000003E-09, 140.0025, 4.33948E-09, -0.00580417, 25
DataValue, -7.32E-09, 150.0015, 4.33817E-09, -0.00580873, 25
DataValue, -1.2800000000000001E-09, 160.00050000000002, 4.33777E-09, -0.00580958, 25
DataValue, -6.130000000000001E-09, 169.9995, 4.34012E-09, -0.00580977, 25
DataValue, -3.0000000000000005E-10, 179.997, 4.33755E-09, -0.00580732, 25
DataValue, -4.7300000000000008E-09, 190.005, 4.33849E-09, -0.0058071, 25
DataValue, -7.5700000000000009E-09, 199.9995, 4.33788E-09, -0.00580706, 25
DataValue, -8.6400000000000016E-09, 209.9985, 4.33844E-09, -0.00580521, 25
DataValue, -7.94E-09, 219.999, 4.33973E-09, -0.00580771, 25
DataValue, -2.2000000000000002E-10, 229.9995, 4.33854E-09, -0.00580658, 25
DataValue, -5.23E-09, 240.0045, 4.3396E-09, -0.00580227, 25
DataValue, -3.2700000000000005E-09, 250.00050000000002, 4.33852E-09, -0.00580265, 25
DataValue, 6.8E-10, 260.00100000000003, 4.3382E-09, -0.0058015, 25
DataValue, -3.4600000000000005E-09, 270, 4.33868E-09, -0.0057987, 25
DataValue, -3.66E-09, 280.00350000000003, 4.33756E-09, -0.00580517, 25
DataValue, -1.92E-09, 290.00100000000003, 4.33874E-09, -0.00579919, 25
DataValue, -6.1000000000000009E-09, 299.997, 4.33733E-09, -0.00580417, 25
DataValue, -2.24E-09, 310.0005, 4.3393E-09, -0.0058002, 25
DataValue, -8.9000000000000013E-10, 319.998, 4.33698E-09, -0.00579726, 25
DataValue, -2.67E-09, 330, 4.3388E-09, -0.00580032, 25
DataValue, -3.6100000000000006E-09, 340.002, 4.33843E-09, -0.0058020300000000006, 25
DataValue, -8.400000000000001E-10, 349.9965, 4.33827E-09, -0.00580148, 25
DataValue, -2.8300000000000004E-09, 360.0015, 4.33829E-09, -0.00580543, 25
DataValue, -3.7500000000000005E-09, 370.002, 4.33852E-09, -0.00580109, 25
DataValue, -2.6100000000000003E-09, 379.9995, 4.33869E-09, -0.0058043700000000005, 25
DataValue, -6.4900000000000005E-09, 389.997, 4.33817E-09, -0.0057967900000000004, 25
DataValue, -8.7E-09, 400.002, 4.3383E-09, -0.0057948900000000005, 25
DataValue, 2.6200000000000005E-09, 409.9965, 4.33813E-09, -0.00579131, 25
DataValue, -9.9400000000000017E-09, 420.0015, 4.33898E-09, -0.0057992600000000005, 25
DataValue, -3.4500000000000003E-09, 430.005, 4.33785E-09, -0.00579961, 25
DataValue, -2.02E-09, 439.998, 4.33866E-09, -0.0057958, 25
DataValue, -2.7E-09, 450.003, 4.33804E-09, -0.00579944, 25
DataValue, -1.23E-09, 460.002, 4.33825E-09, -0.00579461, 25
DataValue, -4.0500000000000007E-09, 469.9965, 4.33794E-09, -0.00579464, 25
DataValue, -5.9700000000000007E-09, 480.0015, 4.33758E-09, -0.0057975, 25
DataValue, -7.4500000000000005E-09, 490.002, 4.33845E-09, -0.00579685, 25
DataValue, -3.8500000000000006E-09, 500.00100000000003, 4.33793E-09, -0.0057949, 25
DataValue, 3.2200000000000005E-09, 510.0015, 4.3383E-09, -0.00579207, 25
DataValue, -1.5000000000000002E-09, 520.0065, 4.33815E-09, -0.00579438, 25
DataValue, -6.4000000000000011E-09, 530.001, 4.3393E-09, -0.00579481, 25
DataValue, -9.4600000000000017E-09, 540, 4.33725E-09, -0.00578985, 25
DataValue, -3.3300000000000003E-09, 550.0035, 4.33868E-09, -0.0057922, 25
DataValue, -8.81E-09, 560.004, 4.33806E-09, -0.00579178, 25
DataValue, 3.7100000000000002E-09, 570.0015, 4.33983E-09, -0.00579273, 25
DataValue, -9.78E-09, 580.005, 4.33829E-09, -0.00579233, 25
DataValue, 2.6E-09, 589.998, 4.33841E-09, -0.0057897700000000005, 25
DataValue, -2.8100000000000004E-09, 600.006, 4.33849E-09, -0.00579074, 25