
SetupTitle, Cgs
ApplicationTest, Cgs, Public
TestParameter, Name, Memo, IntegTime, Frequency, OscLevel, Scale, Gate, VdBias, VdStart, VdStop, VdLinearStep, IdLimit, HoldTime, DelayTime, IdMinRange
TestParameter, Value, , SHORT, 1000000, 0.025, LINEAR, CMU1:MF	MFCMU, SMU6:HV	HVSMU, 0, 50, 1, 0.004, 1, 1, 10uA
DutParameter, Name, Polarity, Temp, YAxisCgsMin, YAxisCgsMax
DutParameter, Value, 1, 25, 1E-12, 5E-09
MetaData, TestRecord.EntryPoint, true
MetaData, TestRecord.RecordTime, 12/28/2020 10:37:52
MetaData, TestRecord.TestTarget, 
MetaData, TestRecord.IterationIndex, 16
MetaData, TestRecord.Preservation, true
MetaData, TestRecord.Flag, 
MetaData, TestRecord.Remarks, 
MetaData, TestRecord.LinkKey, 25c06af5-5b35-4538-b33f-d616d7fe8056
Dimension1, 51, 51, 51, 51, 51
Dimension2, 1, 1, 1, 1, 1
DataName, Ids, Vdrain, Cgs, G, Ta
DataValue, -3.2300000000000002E-09, 0.0008, 1.33841E-09, -0.00120022, 25
DataValue, -5.400000000000001E-10, 1.0048000000000001, 1.33827E-09, -0.00119963, 25
DataValue, -8.0000000000000008E-11, 1.9976, 1.33817E-09, -0.00119884, 25
DataValue, -3.2700000000000005E-09, 2.9986, 1.33807E-09, -0.0011998900000000001, 25
DataValue, -1.0170000000000001E-08, 4.0028000000000006, 1.33827E-09, -0.00119848, 25
DataValue, -8.9000000000000013E-10, 4.9992, 1.33817E-09, -0.00119891, 25
DataValue, -1.101E-08, 6.0070000000000006, 1.33803E-09, -0.00119981, 25
DataValue, -3.2700000000000005E-09, 7.0026, 1.33811E-09, -0.00119914, 25
DataValue, -3.0000000000000004E-09, 7.995, 1.33797E-09, -0.0011995600000000001, 25
DataValue, -9.16E-09, 9.0032, 1.33797E-09, -0.00119941, 25
DataValue, -5.7200000000000009E-09, 9.9958000000000009, 1.33801E-09, -0.00120022, 25
DataValue, -5.3800000000000009E-09, 11.0016, 1.33801E-09, -0.00119959, 25
DataValue, -1.9400000000000003E-09, 11.994200000000001, 1.33807E-09, -0.00119951, 25
DataValue, -1.0170000000000001E-08, 13.0028, 1.33805E-09, -0.0011990500000000001, 25
DataValue, 4.8E-10, 13.9936, 1.33805E-09, -0.00119964, 25
DataValue, -6.5E-10, 14.996400000000001, 1.3379E-09, -0.00119988, 25
DataValue, -2.77E-09, 15.996400000000001, 1.33793E-09, -0.0012009, 25
DataValue, -4.45E-09, 17.0016, 1.33781E-09, -0.00119904, 25
DataValue, -7.4000000000000009E-09, 18.0034, 1.33774E-09, -0.00119924, 25
DataValue, -3.1600000000000003E-09, 19.0044, 1.33773E-09, -0.00119993, 25
DataValue, -2.6900000000000004E-09, 19.998, 1.33784E-09, -0.00119901, 25
DataValue, -7.6000000000000006E-10, 20.9988, 1.3379E-09, -0.00119937, 25
DataValue, -5.2500000000000007E-09, 21.999000000000002, 1.33787E-09, -0.0011997800000000001, 25
DataValue, -1.8000000000000003E-10, 23, 1.33779E-09, -0.0011999, 25
DataValue, -5.61E-09, 24.0012, 1.3377E-09, -0.0011993, 25
DataValue, -6.1000000000000009E-09, 25.000600000000002, 1.33779E-09, -0.0012001800000000001, 25
DataValue, -9.0000000000000012E-11, 25.996000000000002, 1.33761E-09, -0.00119873, 25
DataValue, -3.8800000000000007E-09, 26.997600000000002, 1.3378E-09, -0.0011992700000000001, 25
DataValue, -5.4300000000000005E-09, 28.002200000000002, 1.33758E-09, -0.00120012, 25
DataValue, -3.3500000000000002E-09, 29.0046, 1.33773E-09, -0.00119936, 25
DataValue, -3.2200000000000005E-09, 30.001, 1.33773E-09, -0.00120022, 25
DataValue, -1.0240000000000001E-08, 31.0062, 1.33769E-09, -0.00119992, 25
DataValue, -8.27E-09, 32.0068, 1.33767E-09, -0.00119846, 25
DataValue, -1.3300000000000002E-09, 32.9964, 1.33783E-09, -0.00120026, 25
DataValue, -8.0000000000000008E-11, 33.9958, 1.33748E-09, -0.00119972, 25
DataValue, -2.5E-10, 34.9976, 1.33759E-09, -0.00119984, 25
DataValue, -3.4E-10, 35.9976, 1.3375E-09, -0.00119963, 25
DataValue, -7.32E-09, 37.0024, 1.33772E-09, -0.00119984, 25
DataValue, -1.1680000000000001E-08, 38.003800000000005, 1.33745E-09, -0.00120025, 25
DataValue, -3.3400000000000005E-09, 38.9988, 1.33751E-09, -0.00119904, 25
DataValue, 3.2100000000000003E-09, 39.9968, 1.3376E-09, -0.00120027, 25
DataValue, -2.5600000000000003E-09, 40.9974, 1.3375E-09, -0.00119938, 25
DataValue, -2.3900000000000002E-09, 41.998000000000005, 1.33754E-09, -0.00119957, 25
DataValue, -4.6700000000000006E-09, 42.9988, 1.33745E-09, -0.00119909, 25
DataValue, -2.55E-09, 43.9972, 1.33738E-09, -0.00119881, 25
DataValue, -2.4000000000000004E-09, 45.005, 1.33765E-09, -0.00119988, 25
DataValue, -4.1200000000000007E-09, 45.9992, 1.33739E-09, -0.0011991600000000001, 25
DataValue, -7.190000000000001E-09, 47.0046, 1.33755E-09, -0.00119975, 25
DataValue, -6.6E-09, 48.002, 1.3373E-09, -0.00119977, 25
DataValue, 1.8200000000000001E-09, 48.994800000000005, 1.33737E-09, -0.00120042, 25
DataValue, -8.390000000000001E-09, 50.0026, 1.33745E-09, -0.0011996, 25
SetupTitle, Cgs
PrimitiveTest, C-V Sweep
TestParameter, Channel.UnitTyp, CMU, SMU
TestParameter, Channel.Unit, Gate, VdBias
TestParameter, Channel.IName, , Ids
TestParameter, Channel.VName, VBias, Vdrain
TestParameter, Channel.Mode, , V
TestParameter, Channel.Func, CONST, VAR1
TestParameter, Channel.Index, 
TestParameter, Channel.Time, 
TestParameter, Measurement.Primary.Locus, Single
TestParameter, Measurement.Primary.Scale, Scale
TestParameter, Measurement.Primary.Start, VdStart*Polarity
TestParameter, Measurement.Primary.Stop, VdStop*Polarity
TestParameter, Measurement.Primary.Compliance, IdLimit
TestParameter, Measurement.Primary.Step, VdLinearStep*Polarity
TestParameter, Measurement.Aborting.Condition, CONTINUE AT ANY
TestParameter, Measurement.PostOutput.Value, START
TestParameter, Measurement.PostOutput.Retention, OFF
TestParameter, Measurement.Secondary.ACLevel, OscLevel
TestParameter, Measurement.Secondary.FName, Freq
TestParameter, Measurement.Secondary.Frequency, Frequency
TestParameter, Measurement.Bias.Source, 0, 0
TestParameter, Measurement.ImpedanceMode.Model, Cp-G
TestParameter, Measurement.ImpedanceMode.CName, Cgs
TestParameter, Measurement.ImpedanceMode.LName, L
TestParameter, Measurement.ImpedanceMode.GName, G
TestParameter, Measurement.ImpedanceMode.RName, R
TestParameter, Measurement.ImpedanceMode.QName, Q
TestParameter, Measurement.ImpedanceMode.DName, D
TestParameter, Measurement.ImpedanceMode.YName, Y
TestParameter, Measurement.ImpedanceMode.ZName, Z
TestParameter, Measurement.ImpedanceMode.ThName, Theta
TestParameter, Measurement.ImpedanceMode.BName, B
TestParameter, Measurement.ImpedanceMode.XName, X
TestParameter, Measurement.Monitor.Unit, CMU:=Gate, SMU:=VdBias
TestParameter, Measurement.Monitor.RangingMode, AUTO, LIMITED
TestParameter, Measurement.Monitor.RangeBoundary, 50, IdMinRange
TestParameter, Measurement.Monitor.AcMonitorSymbol, 
TestParameter, Measurement.Monitor.DcMonitorSymbol, 
TestParameter, Measurement.Timing.Hold, HoldTime
TestParameter, Measurement.Timing.Delay, DelayTime
TestParameter, Measurement.Adc.UnitType, Cmu, Smu
TestParameter, Measurement.Adc.HighResolution.Mode, IntegMode, IntegMode
TestParameter, Measurement.Adc.HighResolution.Coeff, AdcFactor, AdcFactor
TestParameter, Measurement.WaitTime.Source.Coeff, 1
TestParameter, Measurement.WaitTime.Source.Offset, 0
TestParameter, Measurement.WaitTime.Monitor.Coeff, 1
TestParameter, Measurement.WaitTime.Monitor.Offset, 0
TestParameter, Function.User.Name, Ta
TestParameter, Function.User.Unit, deg
TestParameter, Function.User.Definition, Temp
TestParameter, Output.Graph.Enabled, true
TestParameter, Output.Graph.AutoScaling, false
TestParameter, Output.Graph.XAxis.Data, Vdrain
TestParameter, Output.Graph.XAxis.Scale, ScaleStr
TestParameter, Output.Graph.XAxis.Left, VdStart*Polarity
TestParameter, Output.Graph.XAxis.Right, VdStop*Polarity
TestParameter, Output.Graph.XAxis.RunTimeAutoScale, false
TestParameter, Output.Graph.YAxis.Data, Cgs
TestParameter, Output.Graph.YAxis.Scale, Log
TestParameter, Output.Graph.YAxis.Bottom, YAxisCgsMin
TestParameter, Output.Graph.YAxis.Top, YAxisCgsMax
TestParameter, Output.Graph.YAxis.Group, 
TestParameter, Output.Graph.YAxis.RunTimeAutoScale, false
TestParameter, Output.List.Data, Vdrain, Cgs, Ids
TestParameter, Output.Scalar.Data, Ta
TestParameter, AutoAnalysis.Interpolation, true
TestParameter, AutoAnalysis.Line1.Enabled, false
TestParameter, AutoAnalysis.Line1.Type, 1
TestParameter, AutoAnalysis.Line1.Fix, True
TestParameter, AutoAnalysis.Line1.YAxis, 0
TestParameter, AutoAnalysis.Line1.Point1.Type, 0
TestParameter, AutoAnalysis.Line1.Point1.XY.X, 
TestParameter, AutoAnalysis.Line1.Point1.XY.Y, 
TestParameter, AutoAnalysis.Line1.Point1.Data.Var, 
TestParameter, AutoAnalysis.Line1.Point1.Data.Condition, 
TestParameter, AutoAnalysis.Line1.Point1.Data.Start, false
TestParameter, AutoAnalysis.Line1.Point1.Data.StartVar, 
TestParameter, AutoAnalysis.Line1.Point1.Data.StartCondition, 
TestParameter, AutoAnalysis.Line1.Point2.Type, 0
TestParameter, AutoAnalysis.Line1.Point2.XY.X, 
TestParameter, AutoAnalysis.Line1.Point2.XY.Y, 
TestParameter, AutoAnalysis.Line1.Point2.Data.Var, 
TestParameter, AutoAnalysis.Line1.Point2.Data.Condition, 
TestParameter, AutoAnalysis.Line1.Point2.Data.Start, false
TestParameter, AutoAnalysis.Line1.Point2.Data.StartVar, 
TestParameter, AutoAnalysis.Line1.Point2.Data.StartCondition, 
TestParameter, AutoAnalysis.Line1.GradientExpr, 0
TestParameter, AutoAnalysis.Line2.Enabled, false
TestParameter, AutoAnalysis.Line2.Type, 1
TestParameter, AutoAnalysis.Line2.Fix, True
TestParameter, AutoAnalysis.Line2.YAxis, 0
TestParameter, AutoAnalysis.Line2.Point1.Type, 0
TestParameter, AutoAnalysis.Line2.Point1.XY.X, 
TestParameter, AutoAnalysis.Line2.Point1.XY.Y, 
TestParameter, AutoAnalysis.Line2.Point1.Data.Var, 
TestParameter, AutoAnalysis.Line2.Point1.Data.Condition, 
TestParameter, AutoAnalysis.Line2.Point1.Data.Start, false
TestParameter, AutoAnalysis.Line2.Point1.Data.StartVar, 
TestParameter, AutoAnalysis.Line2.Point1.Data.StartCondition, 
TestParameter, AutoAnalysis.Line2.Point2.Type, 0
TestParameter, AutoAnalysis.Line2.Point2.XY.X, 
TestParameter, AutoAnalysis.Line2.Point2.XY.Y, 
TestParameter, AutoAnalysis.Line2.Point2.Data.Var, 
TestParameter, AutoAnalysis.Line2.Point2.Data.Condition, 
TestParameter, AutoAnalysis.Line2.Point2.Data.Start, false
TestParameter, AutoAnalysis.Line2.Point2.Data.StartVar, 
TestParameter, AutoAnalysis.Line2.Point2.Data.StartCondition, 
TestParameter, AutoAnalysis.Line2.GradientExpr, 0
TestParameter, AutoAnalysis.Marker.Enabled, false
TestParameter, AutoAnalysis.Marker.Data.Var, 
TestParameter, AutoAnalysis.Marker.Data.Condition, 
TestParameter, AutoAnalysis.Marker.Data.Start, false
TestParameter, AutoAnalysis.Marker.Data.StartVar, 
TestParameter, AutoAnalysis.Marker.Data.StartCondition, 
MetaData, TestRecord.EntryPoint, false
MetaData, TestRecord.RecordTime, 12/28/2020 10:37:52
MetaData, TestRecord.TestTarget, 
MetaData, TestRecord.IterationIndex, 16
MetaData, TestRecord.Preservation, true
MetaData, TestRecord.Flag, 
MetaData, TestRecord.Remarks, 
MetaData, TestRecord.LinkKey, 25c06af5-5b35-4538-b33f-d616d7fe8056
Dimension1, 51, 51, 51, 51, 51
Dimension2, 1, 1, 1, 1, 1
DataName, Ids, Vdrain, Cgs, G, Ta
DataValue, -3.2300000000000002E-09, 0.0008, 1.33841E-09, -0.00120022, 25
DataValue, -5.400000000000001E-10, 1.0048000000000001, 1.33827E-09, -0.00119963, 25
DataValue, -8.0000000000000008E-11, 1.9976, 1.33817E-09, -0.00119884, 25
DataValue, -3.2700000000000005E-09, 2.9986, 1.33807E-09, -0.0011998900000000001, 25
DataValue, -1.0170000000000001E-08, 4.0028000000000006, 1.33827E-09, -0.00119848, 25
DataValue, -8.9000000000000013E-10, 4.9992, 1.33817E-09, -0.00119891, 25
DataValue, -1.101E-08, 6.0070000000000006, 1.33803E-09, -0.00119981, 25
DataValue, -3.2700000000000005E-09, 7.0026, 1.33811E-09, -0.00119914, 25
DataValue, -3.0000000000000004E-09, 7.995, 1.33797E-09, -0.0011995600000000001, 25
DataValue, -9.16E-09, 9.0032, 1.33797E-09, -0.00119941, 25
DataValue, -5.7200000000000009E-09, 9.9958000000000009, 1.33801E-09, -0.00120022, 25
DataValue, -5.3800000000000009E-09, 11.0016, 1.33801E-09, -0.00119959, 25
DataValue, -1.9400000000000003E-09, 11.994200000000001, 1.33807E-09, -0.00119951, 25
DataValue, -1.0170000000000001E-08, 13.0028, 1.33805E-09, -0.0011990500000000001, 25
DataValue, 4.8E-10, 13.9936, 1.33805E-09, -0.00119964, 25
DataValue, -6.5E-10, 14.996400000000001, 1.3379E-09, -0.00119988, 25
DataValue, -2.77E-09, 15.996400000000001, 1.33793E-09, -0.0012009, 25
DataValue, -4.45E-09, 17.0016, 1.33781E-09, -0.00119904, 25
DataValue, -7.4000000000000009E-09, 18.0034, 1.33774E-09, -0.00119924, 25
DataValue, -3.1600000000000003E-09, 19.0044, 1.33773E-09, -0.00119993, 25
DataValue, -2.6900000000000004E-09, 19.998, 1.33784E-09, -0.00119901, 25
DataValue, -7.6000000000000006E-10, 20.9988, 1.3379E-09, -0.00119937, 25
DataValue, -5.2500000000000007E-09, 21.999000000000002, 1.33787E-09, -0.0011997800000000001, 25
DataValue, -1.8000000000000003E-10, 23, 1.33779E-09, -0.0011999, 25
DataValue, -5.61E-09, 24.0012, 1.3377E-09, -0.0011993, 25
DataValue, -6.1000000000000009E-09, 25.000600000000002, 1.33779E-09, -0.0012001800000000001, 25
DataValue, -9.0000000000000012E-11, 25.996000000000002, 1.33761E-09, -0.00119873, 25
DataValue, -3.8800000000000007E-09, 26.997600000000002, 1.3378E-09, -0.0011992700000000001, 25
DataValue, -5.4300000000000005E-09, 28.002200000000002, 1.33758E-09, -0.00120012, 25
DataValue, -3.3500000000000002E-09, 29.0046, 1.33773E-09, -0.00119936, 25
DataValue, -3.2200000000000005E-09, 30.001, 1.33773E-09, -0.00120022, 25
DataValue, -1.0240000000000001E-08, 31.0062, 1.33769E-09, -0.00119992, 25
DataValue, -8.27E-09, 32.0068, 1.33767E-09, -0.00119846, 25
DataValue, -1.3300000000000002E-09, 32.9964, 1.33783E-09, -0.00120026, 25
DataValue, -8.0000000000000008E-11, 33.9958, 1.33748E-09, -0.00119972, 25
DataValue, -2.5E-10, 34.9976, 1.33759E-09, -0.00119984, 25
DataValue, -3.4E-10, 35.9976, 1.3375E-09, -0.00119963, 25
DataValue, -7.32E-09, 37.0024, 1.33772E-09, -0.00119984, 25
DataValue, -1.1680000000000001E-08, 38.003800000000005, 1.33745E-09, -0.00120025, 25
DataValue, -3.3400000000000005E-09, 38.9988, 1.33751E-09, -0.00119904, 25
DataValue, 3.2100000000000003E-09, 39.9968, 1.3376E-09, -0.00120027, 25
DataValue, -2.5600000000000003E-09, 40.9974, 1.3375E-09, -0.00119938, 25
DataValue, -2.3900000000000002E-09, 41.998000000000005, 1.33754E-09, -0.00119957, 25
DataValue, -4.6700000000000006E-09, 42.9988, 1.33745E-09, -0.00119909, 25
DataValue, -2.55E-09, 43.9972, 1.33738E-09, -0.00119881, 25
DataValue, -2.4000000000000004E-09, 45.005, 1.33765E-09, -0.00119988, 25
DataValue, -4.1200000000000007E-09, 45.9992, 1.33739E-09, -0.0011991600000000001, 25
DataValue, -7.190000000000001E-09, 47.0046, 1.33755E-09, -0.00119975, 25
DataValue, -6.6E-09, 48.002, 1.3373E-09, -0.00119977, 25
DataValue, 1.8200000000000001E-09, 48.994800000000005, 1.33737E-09, -0.00120042, 25
DataValue, -8.390000000000001E-09, 50.0026, 1.33745E-09, -0.0011996, 25