
SetupTitle, Cgs
ApplicationTest, Cgs, Public
TestParameter, Name, Memo, IntegTime, Frequency, OscLevel, Scale, Gate, VdBias, VdStart, VdStop, VdLinearStep, IdLimit, HoldTime, DelayTime, IdMinRange
TestParameter, Value, , SHORT, 1000000, 0.025, LINEAR, CMU1:MF	MFCMU, SMU6:HV	HVSMU, 0, 50, 1, 0.004, 1, 1, 10uA
DutParameter, Name, Polarity, Temp, YAxisCgsMin, YAxisCgsMax
DutParameter, Value, 1, 25, 1E-12, 5E-09
MetaData, TestRecord.EntryPoint, true
MetaData, TestRecord.RecordTime, 12/28/2020 09:33:08
MetaData, TestRecord.TestTarget, 
MetaData, TestRecord.IterationIndex, 10
MetaData, TestRecord.Preservation, true
MetaData, TestRecord.Flag, 
MetaData, TestRecord.Remarks, 
MetaData, TestRecord.LinkKey, 52044e1f-5c0d-4953-b98f-ccf94ebec715
Dimension1, 51, 51, 51, 51, 51
Dimension2, 1, 1, 1, 1, 1
DataName, Ids, Vdrain, Cgs, G, Ta
DataValue, -1.07E-09, -0.0032, 1.31632E-09, -0.00113239, 25
DataValue, -2.0300000000000002E-09, 0.99840000000000007, 1.31615E-09, -0.00112782, 25
DataValue, -4.0600000000000005E-09, 1.999, 1.3162E-09, -0.0011282, 25
DataValue, -5.5900000000000008E-09, 3.0012000000000003, 1.31613E-09, -0.00113131, 25
DataValue, -9.5E-10, 3.9976000000000003, 1.31616E-09, -0.0011318300000000001, 25
DataValue, -7.3100000000000006E-09, 5.0054, 1.31623E-09, -0.00112787, 25
DataValue, -7.7600000000000013E-09, 6.001, 1.3169E-09, -0.00111254, 25
DataValue, -1.95E-09, 7.003, 1.31639E-09, -0.00112724, 25
DataValue, -9.9E-10, 7.9946, 1.31606E-09, -0.00113125, 25
DataValue, -7.81E-09, 9.0044, 1.31626E-09, -0.00113227, 25
DataValue, -1.0830000000000002E-08, 10.006, 1.31611E-09, -0.0011315000000000001, 25
DataValue, -3.8800000000000007E-09, 10.9982, 1.31613E-09, -0.00113233, 25
DataValue, -1.11E-09, 11.9976, 1.3161E-09, -0.00113233, 25
DataValue, -2.29E-09, 13.003200000000001, 1.31628E-09, -0.0011317200000000001, 25
DataValue, -6.4200000000000006E-09, 14.0016, 1.31618E-09, -0.00113217, 25
DataValue, -1.8600000000000002E-09, 14.998600000000002, 1.31625E-09, -0.00113271, 25
DataValue, -6.91E-09, 16, 1.31636E-09, -0.00113258, 25
DataValue, -4.7000000000000007E-09, 17.0002, 1.31614E-09, -0.00113259, 25
DataValue, -6.16E-09, 18.002000000000002, 1.31623E-09, -0.0011322, 25
DataValue, 0, 19.001, 1.31624E-09, -0.0011312, 25
DataValue, -4.3600000000000007E-09, 20.0046, 1.31624E-09, -0.00113109, 25
DataValue, 9.8000000000000013E-10, 20.995800000000003, 1.31612E-09, -0.0011318, 25
DataValue, 2.22E-09, 21.9982, 1.3162E-09, -0.0011309900000000001, 25
DataValue, -8.6400000000000016E-09, 23.0062, 1.3161E-09, -0.0011323400000000001, 25
DataValue, -1.047E-08, 24.0026, 1.31625E-09, -0.00112926, 25
DataValue, -8.8000000000000006E-10, 24.9936, 1.31624E-09, -0.00112843, 25
DataValue, -4.7300000000000008E-09, 26.005200000000002, 1.31622E-09, -0.00112901, 25
DataValue, -3.5300000000000004E-09, 26.9986, 1.31611E-09, -0.00112923, 25
DataValue, 1.6800000000000002E-09, 27.9964, 1.31625E-09, -0.0011322300000000001, 25
DataValue, -2.4700000000000004E-09, 28.9968, 1.31619E-09, -0.00113093, 25
DataValue, -5.17E-09, 30.0028, 1.31633E-09, -0.00113242, 25
DataValue, -3.2000000000000005E-09, 31.0046, 1.3163E-09, -0.00113204, 25
DataValue, 1.4E-10, 31.9952, 1.31626E-09, -0.00113152, 25
DataValue, -5.0500000000000006E-09, 33.0002, 1.31627E-09, -0.00113119, 25
DataValue, -9.43E-09, 34.001400000000004, 1.31632E-09, -0.00113181, 25
DataValue, -4.58E-09, 35.0024, 1.31626E-09, -0.00113124, 25
DataValue, 4.4000000000000003E-10, 36.0026, 1.31643E-09, -0.00113063, 25
DataValue, -4.69E-09, 37.001000000000005, 1.31631E-09, -0.00113248, 25
DataValue, 1.6100000000000002E-09, 37.9988, 1.31627E-09, -0.0011314300000000001, 25
DataValue, -1.4400000000000002E-09, 39.001000000000005, 1.31628E-09, -0.0011321, 25
DataValue, 2.84E-09, 39.9986, 1.31619E-09, -0.00113168, 25
DataValue, -3.8900000000000004E-09, 40.998200000000004, 1.31641E-09, -0.00113128, 25
DataValue, -2.48E-09, 41.9972, 1.31619E-09, -0.00113169, 25
DataValue, -5.9300000000000008E-09, 42.9964, 1.31618E-09, -0.0011321, 25
DataValue, -4.92E-09, 44.0018, 1.31623E-09, -0.00113176, 25
DataValue, 4.5000000000000005E-10, 44.9934, 1.31627E-09, -0.00113217, 25
DataValue, -4.9100000000000006E-09, 46.0024, 1.31635E-09, -0.00113214, 25
DataValue, -5.2500000000000007E-09, 47.0026, 1.31627E-09, -0.00113114, 25
DataValue, -1.1500000000000002E-09, 48.000600000000006, 1.31633E-09, -0.0011321200000000001, 25
DataValue, -5.57E-09, 48.9998, 1.31635E-09, -0.00113162, 25
DataValue, -4.18E-09, 50.0016, 1.31622E-09, -0.00113298, 25
SetupTitle, Cgs
PrimitiveTest, C-V Sweep
TestParameter, Channel.UnitTyp, CMU, SMU
TestParameter, Channel.Unit, Gate, VdBias
TestParameter, Channel.IName, , Ids
TestParameter, Channel.VName, VBias, Vdrain
TestParameter, Channel.Mode, , V
TestParameter, Channel.Func, CONST, VAR1
TestParameter, Channel.Index, 
TestParameter, Channel.Time, 
TestParameter, Measurement.Primary.Locus, Single
TestParameter, Measurement.Primary.Scale, Scale
TestParameter, Measurement.Primary.Start, VdStart*Polarity
TestParameter, Measurement.Primary.Stop, VdStop*Polarity
TestParameter, Measurement.Primary.Compliance, IdLimit
TestParameter, Measurement.Primary.Step, VdLinearStep*Polarity
TestParameter, Measurement.Aborting.Condition, CONTINUE AT ANY
TestParameter, Measurement.PostOutput.Value, START
TestParameter, Measurement.PostOutput.Retention, OFF
TestParameter, Measurement.Secondary.ACLevel, OscLevel
TestParameter, Measurement.Secondary.FName, Freq
TestParameter, Measurement.Secondary.Frequency, Frequency
TestParameter, Measurement.Bias.Source, 0, 0
TestParameter, Measurement.ImpedanceMode.Model, Cp-G
TestParameter, Measurement.ImpedanceMode.CName, Cgs
TestParameter, Measurement.ImpedanceMode.LName, L
TestParameter, Measurement.ImpedanceMode.GName, G
TestParameter, Measurement.ImpedanceMode.RName, R
TestParameter, Measurement.ImpedanceMode.QName, Q
TestParameter, Measurement.ImpedanceMode.DName, D
TestParameter, Measurement.ImpedanceMode.YName, Y
TestParameter, Measurement.ImpedanceMode.ZName, Z
TestParameter, Measurement.ImpedanceMode.ThName, Theta
TestParameter, Measurement.ImpedanceMode.BName, B
TestParameter, Measurement.ImpedanceMode.XName, X
TestParameter, Measurement.Monitor.Unit, CMU:=Gate, SMU:=VdBias
TestParameter, Measurement.Monitor.RangingMode, AUTO, LIMITED
TestParameter, Measurement.Monitor.RangeBoundary, 50, IdMinRange
TestParameter, Measurement.Monitor.AcMonitorSymbol, 
TestParameter, Measurement.Monitor.DcMonitorSymbol, 
TestParameter, Measurement.Timing.Hold, HoldTime
TestParameter, Measurement.Timing.Delay, DelayTime
TestParameter, Measurement.Adc.UnitType, Cmu, Smu
TestParameter, Measurement.Adc.HighResolution.Mode, IntegMode, IntegMode
TestParameter, Measurement.Adc.HighResolution.Coeff, AdcFactor, AdcFactor
TestParameter, Measurement.WaitTime.Source.Coeff, 1
TestParameter, Measurement.WaitTime.Source.Offset, 0
TestParameter, Measurement.WaitTime.Monitor.Coeff, 1
TestParameter, Measurement.WaitTime.Monitor.Offset, 0
TestParameter, Function.User.Name, Ta
TestParameter, Function.User.Unit, deg
TestParameter, Function.User.Definition, Temp
TestParameter, Output.Graph.Enabled, true
TestParameter, Output.Graph.AutoScaling, false
TestParameter, Output.Graph.XAxis.Data, Vdrain
TestParameter, Output.Graph.XAxis.Scale, ScaleStr
TestParameter, Output.Graph.XAxis.Left, VdStart*Polarity
TestParameter, Output.Graph.XAxis.Right, VdStop*Polarity
TestParameter, Output.Graph.XAxis.RunTimeAutoScale, false
TestParameter, Output.Graph.YAxis.Data, Cgs
TestParameter, Output.Graph.YAxis.Scale, Log
TestParameter, Output.Graph.YAxis.Bottom, YAxisCgsMin
TestParameter, Output.Graph.YAxis.Top, YAxisCgsMax
TestParameter, Output.Graph.YAxis.Group, 
TestParameter, Output.Graph.YAxis.RunTimeAutoScale, false
TestParameter, Output.List.Data, Vdrain, Cgs, Ids
TestParameter, Output.Scalar.Data, Ta
TestParameter, AutoAnalysis.Interpolation, true
TestParameter, AutoAnalysis.Line1.Enabled, false
TestParameter, AutoAnalysis.Line1.Type, 1
TestParameter, AutoAnalysis.Line1.Fix, True
TestParameter, AutoAnalysis.Line1.YAxis, 0
TestParameter, AutoAnalysis.Line1.Point1.Type, 0
TestParameter, AutoAnalysis.Line1.Point1.XY.X, 
TestParameter, AutoAnalysis.Line1.Point1.XY.Y, 
TestParameter, AutoAnalysis.Line1.Point1.Data.Var, 
TestParameter, AutoAnalysis.Line1.Point1.Data.Condition, 
TestParameter, AutoAnalysis.Line1.Point1.Data.Start, false
TestParameter, AutoAnalysis.Line1.Point1.Data.StartVar, 
TestParameter, AutoAnalysis.Line1.Point1.Data.StartCondition, 
TestParameter, AutoAnalysis.Line1.Point2.Type, 0
TestParameter, AutoAnalysis.Line1.Point2.XY.X, 
TestParameter, AutoAnalysis.Line1.Point2.XY.Y, 
TestParameter, AutoAnalysis.Line1.Point2.Data.Var, 
TestParameter, AutoAnalysis.Line1.Point2.Data.Condition, 
TestParameter, AutoAnalysis.Line1.Point2.Data.Start, false
TestParameter, AutoAnalysis.Line1.Point2.Data.StartVar, 
TestParameter, AutoAnalysis.Line1.Point2.Data.StartCondition, 
TestParameter, AutoAnalysis.Line1.GradientExpr, 0
TestParameter, AutoAnalysis.Line2.Enabled, false
TestParameter, AutoAnalysis.Line2.Type, 1
TestParameter, AutoAnalysis.Line2.Fix, True
TestParameter, AutoAnalysis.Line2.YAxis, 0
TestParameter, AutoAnalysis.Line2.Point1.Type, 0
TestParameter, AutoAnalysis.Line2.Point1.XY.X, 
TestParameter, AutoAnalysis.Line2.Point1.XY.Y, 
TestParameter, AutoAnalysis.Line2.Point1.Data.Var, 
TestParameter, AutoAnalysis.Line2.Point1.Data.Condition, 
TestParameter, AutoAnalysis.Line2.Point1.Data.Start, false
TestParameter, AutoAnalysis.Line2.Point1.Data.StartVar, 
TestParameter, AutoAnalysis.Line2.Point1.Data.StartCondition, 
TestParameter, AutoAnalysis.Line2.Point2.Type, 0
TestParameter, AutoAnalysis.Line2.Point2.XY.X, 
TestParameter, AutoAnalysis.Line2.Point2.XY.Y, 
TestParameter, AutoAnalysis.Line2.Point2.Data.Var, 
TestParameter, AutoAnalysis.Line2.Point2.Data.Condition, 
TestParameter, AutoAnalysis.Line2.Point2.Data.Start, false
TestParameter, AutoAnalysis.Line2.Point2.Data.StartVar, 
TestParameter, AutoAnalysis.Line2.Point2.Data.StartCondition, 
TestParameter, AutoAnalysis.Line2.GradientExpr, 0
TestParameter, AutoAnalysis.Marker.Enabled, false
TestParameter, AutoAnalysis.Marker.Data.Var, 
TestParameter, AutoAnalysis.Marker.Data.Condition, 
TestParameter, AutoAnalysis.Marker.Data.Start, false
TestParameter, AutoAnalysis.Marker.Data.StartVar, 
TestParameter, AutoAnalysis.Marker.Data.StartCondition, 
MetaData, TestRecord.EntryPoint, false
MetaData, TestRecord.RecordTime, 12/28/2020 09:33:08
MetaData, TestRecord.TestTarget, 
MetaData, TestRecord.IterationIndex, 10
MetaData, TestRecord.Preservation, true
MetaData, TestRecord.Flag, 
MetaData, TestRecord.Remarks, 
MetaData, TestRecord.LinkKey, 52044e1f-5c0d-4953-b98f-ccf94ebec715
Dimension1, 51, 51, 51, 51, 51
Dimension2, 1, 1, 1, 1, 1
DataName, Ids, Vdrain, Cgs, G, Ta
DataValue, -1.07E-09, -0.0032, 1.31632E-09, -0.00113239, 25
DataValue, -2.0300000000000002E-09, 0.99840000000000007, 1.31615E-09, -0.00112782, 25
DataValue, -4.0600000000000005E-09, 1.999, 1.3162E-09, -0.0011282, 25
DataValue, -5.5900000000000008E-09, 3.0012000000000003, 1.31613E-09, -0.00113131, 25
DataValue, -9.5E-10, 3.9976000000000003, 1.31616E-09, -0.0011318300000000001, 25
DataValue, -7.3100000000000006E-09, 5.0054, 1.31623E-09, -0.00112787, 25
DataValue, -7.7600000000000013E-09, 6.001, 1.3169E-09, -0.00111254, 25
DataValue, -1.95E-09, 7.003, 1.31639E-09, -0.00112724, 25
DataValue, -9.9E-10, 7.9946, 1.31606E-09, -0.00113125, 25
DataValue, -7.81E-09, 9.0044, 1.31626E-09, -0.00113227, 25
DataValue, -1.0830000000000002E-08, 10.006, 1.31611E-09, -0.0011315000000000001, 25
DataValue, -3.8800000000000007E-09, 10.9982, 1.31613E-09, -0.00113233, 25
DataValue, -1.11E-09, 11.9976, 1.3161E-09, -0.00113233, 25
DataValue, -2.29E-09, 13.003200000000001, 1.31628E-09, -0.0011317200000000001, 25
DataValue, -6.4200000000000006E-09, 14.0016, 1.31618E-09, -0.00113217, 25
DataValue, -1.8600000000000002E-09, 14.998600000000002, 1.31625E-09, -0.00113271, 25
DataValue, -6.91E-09, 16, 1.31636E-09, -0.00113258, 25
DataValue, -4.7000000000000007E-09, 17.0002, 1.31614E-09, -0.00113259, 25
DataValue, -6.16E-09, 18.002000000000002, 1.31623E-09, -0.0011322, 25
DataValue, 0, 19.001, 1.31624E-09, -0.0011312, 25
DataValue, -4.3600000000000007E-09, 20.0046, 1.31624E-09, -0.00113109, 25
DataValue, 9.8000000000000013E-10, 20.995800000000003, 1.31612E-09, -0.0011318, 25
DataValue, 2.22E-09, 21.9982, 1.3162E-09, -0.0011309900000000001, 25
DataValue, -8.6400000000000016E-09, 23.0062, 1.3161E-09, -0.0011323400000000001, 25
DataValue, -1.047E-08, 24.0026, 1.31625E-09, -0.00112926, 25
DataValue, -8.8000000000000006E-10, 24.9936, 1.31624E-09, -0.00112843, 25
DataValue, -4.7300000000000008E-09, 26.005200000000002, 1.31622E-09, -0.00112901, 25
DataValue, -3.5300000000000004E-09, 26.9986, 1.31611E-09, -0.00112923, 25
DataValue, 1.6800000000000002E-09, 27.9964, 1.31625E-09, -0.0011322300000000001, 25
DataValue, -2.4700000000000004E-09, 28.9968, 1.31619E-09, -0.00113093, 25
DataValue, -5.17E-09, 30.0028, 1.31633E-09, -0.00113242, 25
DataValue, -3.2000000000000005E-09, 31.0046, 1.3163E-09, -0.00113204, 25
DataValue, 1.4E-10, 31.9952, 1.31626E-09, -0.00113152, 25
DataValue, -5.0500000000000006E-09, 33.0002, 1.31627E-09, -0.00113119, 25
DataValue, -9.43E-09, 34.001400000000004, 1.31632E-09, -0.00113181, 25
DataValue, -4.58E-09, 35.0024, 1.31626E-09, -0.00113124, 25
DataValue, 4.4000000000000003E-10, 36.0026, 1.31643E-09, -0.00113063, 25
DataValue, -4.69E-09, 37.001000000000005, 1.31631E-09, -0.00113248, 25
DataValue, 1.6100000000000002E-09, 37.9988, 1.31627E-09, -0.0011314300000000001, 25
DataValue, -1.4400000000000002E-09, 39.001000000000005, 1.31628E-09, -0.0011321, 25
DataValue, 2.84E-09, 39.9986, 1.31619E-09, -0.00113168, 25
DataValue, -3.8900000000000004E-09, 40.998200000000004, 1.31641E-09, -0.00113128, 25
DataValue, -2.48E-09, 41.9972, 1.31619E-09, -0.00113169, 25
DataValue, -5.9300000000000008E-09, 42.9964, 1.31618E-09, -0.0011321, 25
DataValue, -4.92E-09, 44.0018, 1.31623E-09, -0.00113176, 25
DataValue, 4.5000000000000005E-10, 44.9934, 1.31627E-09, -0.00113217, 25
DataValue, -4.9100000000000006E-09, 46.0024, 1.31635E-09, -0.00113214, 25
DataValue, -5.2500000000000007E-09, 47.0026, 1.31627E-09, -0.00113114, 25
DataValue, -1.1500000000000002E-09, 48.000600000000006, 1.31633E-09, -0.0011321200000000001, 25
DataValue, -5.57E-09, 48.9998, 1.31635E-09, -0.00113162, 25
DataValue, -4.18E-09, 50.0016, 1.31622E-09, -0.00113298, 25