
SetupTitle, Cgs
ApplicationTest, Cgs, Public
TestParameter, Name, Memo, IntegTime, Frequency, OscLevel, Scale, Gate, VdBias, VdStart, VdStop, VdLinearStep, IdLimit, HoldTime, DelayTime, IdMinRange
TestParameter, Value, , SHORT, 1000000, 0.025, LINEAR, CMU1:MF	MFCMU, SMU6:HV	HVSMU, 0, 600, 10, 0.004, 1, 1, 10uA
DutParameter, Name, Polarity, Temp, YAxisCgsMin, YAxisCgsMax
DutParameter, Value, 1, 25, 1E-12, 5E-09
MetaData, TestRecord.EntryPoint, true
MetaData, TestRecord.RecordTime, 04/24/2021 12:11:44
MetaData, TestRecord.TestTarget, 
MetaData, TestRecord.IterationIndex, 45
MetaData, TestRecord.Preservation, true
MetaData, TestRecord.Flag, 
MetaData, TestRecord.Remarks, 
MetaData, TestRecord.LinkKey, ad4d6c24-a331-4524-a168-e348c4b89873
Dimension1, 61, 61, 61, 61, 61
Dimension2, 1, 1, 1, 1, 1
DataName, Ids, Vdrain, Cgs, G, Ta
DataValue, -6.300000000000001E-09, 0.003, 4.66776E-09, -0.00550757, 25
DataValue, -2.43E-09, 10.0005, 4.66809E-09, -0.00550827, 25
DataValue, -3.42E-09, 19.998, 4.66809E-09, -0.00550587, 25
DataValue, -3.0400000000000003E-09, 30.0015, 4.66675E-09, -0.00550256, 25
DataValue, 3.4300000000000004E-09, 39.9975, 4.66838E-09, -0.00550572, 25
DataValue, -1.355E-08, 50.004, 4.66776E-09, -0.00550124, 25
DataValue, -3.0400000000000003E-09, 59.9955, 4.66767E-09, -0.00550372, 25
DataValue, -8.33E-09, 70.002, 4.66824E-09, -0.0055041000000000005, 25
DataValue, -2.9100000000000005E-09, 80.001, 4.66753E-09, -0.00549975, 25
DataValue, -2.0400000000000004E-09, 89.997, 4.66755E-09, -0.00550518, 25
DataValue, -1.83E-09, 99.999, 4.66766E-09, -0.00549887, 25
DataValue, -2.09E-09, 109.998, 4.66696E-09, -0.00550347, 25
DataValue, -1.7400000000000002E-09, 119.9985, 4.66685E-09, -0.00549978, 25
DataValue, 2.7300000000000003E-09, 130.00050000000002, 4.66658E-09, -0.0055025000000000004, 25
DataValue, -1.8900000000000003E-09, 139.9995, 4.66745E-09, -0.0055093, 25
DataValue, -1.1640000000000002E-08, 150.0015, 4.66722E-09, -0.00549798, 25
DataValue, -7.25E-09, 160.002, 4.66727E-09, -0.00550588, 25
DataValue, -8.3700000000000015E-09, 170.001, 4.66737E-09, -0.0055017700000000004, 25
DataValue, -4.04E-09, 180.0015, 4.66858E-09, -0.00550632, 25
DataValue, 2.05E-09, 189.9975, 4.66735E-09, -0.0054992, 25
DataValue, -7.7E-10, 199.9995, 4.66741E-09, -0.00550325, 25
DataValue, -7.1400000000000006E-09, 210.006, 4.6674199999999996E-09, -0.00550085, 25
DataValue, 4.2000000000000005E-10, 219.999, 4.66782E-09, -0.00550493, 25
DataValue, -1.116E-08, 230.001, 4.6677E-09, -0.00550436, 25
DataValue, -7.6900000000000014E-09, 240, 4.66729E-09, -0.00550316, 25
DataValue, -5.5900000000000008E-09, 250.0035, 4.66702E-09, -0.00550428, 25
DataValue, -1.5200000000000001E-09, 260.00100000000003, 4.66771E-09, -0.00550084, 25
DataValue, -7.54E-09, 270.003, 4.66726E-09, -0.005507, 25
DataValue, -4.8300000000000009E-09, 280.002, 4.66666E-09, -0.00550637, 25
DataValue, -1.9900000000000004E-09, 289.9995, 4.66714E-09, -0.00550376, 25
DataValue, -8.5200000000000012E-09, 299.997, 4.6672E-09, -0.0055058500000000005, 25
DataValue, -5.7000000000000006E-09, 309.9975, 4.66703E-09, -0.0055004, 25
DataValue, -8.4400000000000015E-09, 320.0055, 4.66674E-09, -0.00550276, 25
DataValue, 7E-11, 329.9985, 4.66789E-09, -0.0055043, 25
DataValue, -4.62E-09, 339.999, 4.66645E-09, -0.00550547, 25
DataValue, -2.55E-09, 349.998, 4.66735E-09, -0.00550734, 25
DataValue, -9.85E-09, 360.0015, 4.66719E-09, -0.0054987000000000005, 25
DataValue, -1.8500000000000002E-09, 369.999, 4.66732E-09, -0.00550411, 25
DataValue, -5.8300000000000008E-09, 379.9995, 4.66628E-09, -0.00550588, 25
DataValue, -1.15E-08, 390.0075, 4.66778E-09, -0.00550379, 25
DataValue, -3.5800000000000005E-09, 400.0005, 4.66712E-09, -0.00550165, 25
DataValue, -1.4600000000000001E-09, 409.9995, 4.66737E-09, -0.00550384, 25
DataValue, -1.19E-09, 419.997, 4.66671E-09, -0.00549766, 25
DataValue, -5.9000000000000007E-09, 430.002, 4.66648E-09, -0.00550647, 25
DataValue, -4.52E-09, 439.9965, 4.66658E-09, -0.0054995800000000004, 25
DataValue, -7.1800000000000004E-09, 450.0015, 4.66664E-09, -0.00550282, 25
DataValue, -2.7600000000000004E-09, 460.005, 4.66726E-09, -0.00550108, 25
DataValue, -9.1200000000000016E-09, 469.998, 4.66669E-09, -0.00550783, 25
DataValue, -5.8600000000000009E-09, 480, 4.66707E-09, -0.00549608, 25
DataValue, 2.22E-09, 489.9975, 4.66796E-09, -0.00550601, 25
DataValue, -9.38E-09, 500.004, 4.66666E-09, -0.00550038, 25
DataValue, 4.93E-09, 510, 4.66677E-09, -0.00550018, 25
DataValue, -1.033E-08, 520.0035, 4.66621E-09, -0.00550379, 25
DataValue, -2.0400000000000004E-09, 529.998, 4.66669E-09, -0.00550432, 25
DataValue, -7.2000000000000008E-09, 540, 4.66627E-09, -0.00550416, 25
DataValue, -7.51E-09, 550.00200000000007, 4.66717E-09, -0.0055036, 25
DataValue, -9.43E-09, 559.998, 4.66672E-09, -0.00550815, 25
DataValue, 3.9900000000000005E-09, 569.9955, 4.66778E-09, -0.00549215, 25
DataValue, -4.72E-09, 580.00200000000007, 4.66675E-09, -0.00550429, 25
DataValue, 5.4900000000000007E-09, 589.998, 4.66657E-09, -0.0054988400000000005, 25
DataValue, -7.020000000000001E-09, 599.9985, 4.66657E-09, -0.00550281, 25
SetupTitle, Cgs
PrimitiveTest, C-V Sweep
TestParameter, Channel.UnitTyp, CMU, SMU
TestParameter, Channel.Unit, Gate, VdBias
TestParameter, Channel.IName, , Ids
TestParameter, Channel.VName, VBias, Vdrain
TestParameter, Channel.Mode, , V
TestParameter, Channel.Func, CONST, VAR1
TestParameter, Channel.Index, 
TestParameter, Channel.Time, 
TestParameter, Measurement.Primary.Locus, Single
TestParameter, Measurement.Primary.Scale, Scale
TestParameter, Measurement.Primary.Start, VdStart*Polarity
TestParameter, Measurement.Primary.Stop, VdStop*Polarity
TestParameter, Measurement.Primary.Compliance, IdLimit
TestParameter, Measurement.Primary.Step, VdLinearStep*Polarity
TestParameter, Measurement.Aborting.Condition, CONTINUE AT ANY
TestParameter, Measurement.PostOutput.Value, START
TestParameter, Measurement.PostOutput.Retention, OFF
TestParameter, Measurement.Secondary.ACLevel, OscLevel
TestParameter, Measurement.Secondary.FName, Freq
TestParameter, Measurement.Secondary.Frequency, Frequency
TestParameter, Measurement.Bias.Source, 0, 0
TestParameter, Measurement.ImpedanceMode.Model, Cp-G
TestParameter, Measurement.ImpedanceMode.CName, Cgs
TestParameter, Measurement.ImpedanceMode.LName, L
TestParameter, Measurement.ImpedanceMode.GName, G
TestParameter, Measurement.ImpedanceMode.RName, R
TestParameter, Measurement.ImpedanceMode.QName, Q
TestParameter, Measurement.ImpedanceMode.DName, D
TestParameter, Measurement.ImpedanceMode.YName, Y
TestParameter, Measurement.ImpedanceMode.ZName, Z
TestParameter, Measurement.ImpedanceMode.ThName, Theta
TestParameter, Measurement.ImpedanceMode.BName, B
TestParameter, Measurement.ImpedanceMode.XName, X
TestParameter, Measurement.Monitor.Unit, CMU:=Gate, SMU:=VdBias
TestParameter, Measurement.Monitor.RangingMode, AUTO, LIMITED
TestParameter, Measurement.Monitor.RangeBoundary, 50, IdMinRange
TestParameter, Measurement.Monitor.AcMonitorSymbol, 
TestParameter, Measurement.Monitor.DcMonitorSymbol, 
TestParameter, Measurement.Timing.Hold, HoldTime
TestParameter, Measurement.Timing.Delay, DelayTime
TestParameter, Measurement.Adc.UnitType, Cmu, Smu
TestParameter, Measurement.Adc.HighResolution.Mode, IntegMode, IntegMode
TestParameter, Measurement.Adc.HighResolution.Coeff, AdcFactor, AdcFactor
TestParameter, Measurement.WaitTime.Source.Coeff, 1
TestParameter, Measurement.WaitTime.Source.Offset, 0
TestParameter, Measurement.WaitTime.Monitor.Coeff, 1
TestParameter, Measurement.WaitTime.Monitor.Offset, 0
TestParameter, Function.User.Name, Ta
TestParameter, Function.User.Unit, deg
TestParameter, Function.User.Definition, Temp
TestParameter, Output.Graph.Enabled, true
TestParameter, Output.Graph.AutoScaling, false
TestParameter, Output.Graph.XAxis.Data, Vdrain
TestParameter, Output.Graph.XAxis.Scale, ScaleStr
TestParameter, Output.Graph.XAxis.Left, VdStart*Polarity
TestParameter, Output.Graph.XAxis.Right, VdStop*Polarity
TestParameter, Output.Graph.XAxis.RunTimeAutoScale, false
TestParameter, Output.Graph.YAxis.Data, Cgs
TestParameter, Output.Graph.YAxis.Scale, Log
TestParameter, Output.Graph.YAxis.Bottom, YAxisCgsMin
TestParameter, Output.Graph.YAxis.Top, YAxisCgsMax
TestParameter, Output.Graph.YAxis.Group, 
TestParameter, Output.Graph.YAxis.RunTimeAutoScale, false
TestParameter, Output.List.Data, Vdrain, Cgs, Ids
TestParameter, Output.Scalar.Data, Ta
TestParameter, AutoAnalysis.Interpolation, true
TestParameter, AutoAnalysis.Line1.Enabled, false
TestParameter, AutoAnalysis.Line1.Type, 1
TestParameter, AutoAnalysis.Line1.Fix, True
TestParameter, AutoAnalysis.Line1.YAxis, 0
TestParameter, AutoAnalysis.Line1.Point1.Type, 0
TestParameter, AutoAnalysis.Line1.Point1.XY.X, 
TestParameter, AutoAnalysis.Line1.Point1.XY.Y, 
TestParameter, AutoAnalysis.Line1.Point1.Data.Var, 
TestParameter, AutoAnalysis.Line1.Point1.Data.Condition, 
TestParameter, AutoAnalysis.Line1.Point1.Data.Start, false
TestParameter, AutoAnalysis.Line1.Point1.Data.StartVar, 
TestParameter, AutoAnalysis.Line1.Point1.Data.StartCondition, 
TestParameter, AutoAnalysis.Line1.Point2.Type, 0
TestParameter, AutoAnalysis.Line1.Point2.XY.X, 
TestParameter, AutoAnalysis.Line1.Point2.XY.Y, 
TestParameter, AutoAnalysis.Line1.Point2.Data.Var, 
TestParameter, AutoAnalysis.Line1.Point2.Data.Condition, 
TestParameter, AutoAnalysis.Line1.Point2.Data.Start, false
TestParameter, AutoAnalysis.Line1.Point2.Data.StartVar, 
TestParameter, AutoAnalysis.Line1.Point2.Data.StartCondition, 
TestParameter, AutoAnalysis.Line1.GradientExpr, 0
TestParameter, AutoAnalysis.Line2.Enabled, false
TestParameter, AutoAnalysis.Line2.Type, 1
TestParameter, AutoAnalysis.Line2.Fix, True
TestParameter, AutoAnalysis.Line2.YAxis, 0
TestParameter, AutoAnalysis.Line2.Point1.Type, 0
TestParameter, AutoAnalysis.Line2.Point1.XY.X, 
TestParameter, AutoAnalysis.Line2.Point1.XY.Y, 
TestParameter, AutoAnalysis.Line2.Point1.Data.Var, 
TestParameter, AutoAnalysis.Line2.Point1.Data.Condition, 
TestParameter, AutoAnalysis.Line2.Point1.Data.Start, false
TestParameter, AutoAnalysis.Line2.Point1.Data.StartVar, 
TestParameter, AutoAnalysis.Line2.Point1.Data.StartCondition, 
TestParameter, AutoAnalysis.Line2.Point2.Type, 0
TestParameter, AutoAnalysis.Line2.Point2.XY.X, 
TestParameter, AutoAnalysis.Line2.Point2.XY.Y, 
TestParameter, AutoAnalysis.Line2.Point2.Data.Var, 
TestParameter, AutoAnalysis.Line2.Point2.Data.Condition, 
TestParameter, AutoAnalysis.Line2.Point2.Data.Start, false
TestParameter, AutoAnalysis.Line2.Point2.Data.StartVar, 
TestParameter, AutoAnalysis.Line2.Point2.Data.StartCondition, 
TestParameter, AutoAnalysis.Line2.GradientExpr, 0
TestParameter, AutoAnalysis.Marker.Enabled, false
TestParameter, AutoAnalysis.Marker.Data.Var, 
TestParameter, AutoAnalysis.Marker.Data.Condition, 
TestParameter, AutoAnalysis.Marker.Data.Start, false
TestParameter, AutoAnalysis.Marker.Data.StartVar, 
TestParameter, AutoAnalysis.Marker.Data.StartCondition, 
MetaData, TestRecord.EntryPoint, false
MetaData, TestRecord.RecordTime, 04/24/2021 12:11:44
MetaData, TestRecord.TestTarget, 
MetaData, TestRecord.IterationIndex, 45
MetaData, TestRecord.Preservation, true
MetaData, TestRecord.Flag, 
MetaData, TestRecord.Remarks, 
MetaData, TestRecord.LinkKey, ad4d6c24-a331-4524-a168-e348c4b89873
Dimension1, 61, 61, 61, 61, 61
Dimension2, 1, 1, 1, 1, 1
DataName, Ids, Vdrain, Cgs, G, Ta
DataValue, -6.300000000000001E-09, 0.003, 4.66776E-09, -0.00550757, 25
DataValue, -2.43E-09, 10.0005, 4.66809E-09, -0.00550827, 25
DataValue, -3.42E-09, 19.998, 4.66809E-09, -0.00550587, 25
DataValue, -3.0400000000000003E-09, 30.0015, 4.66675E-09, -0.00550256, 25
DataValue, 3.4300000000000004E-09, 39.9975, 4.66838E-09, -0.00550572, 25
DataValue, -1.355E-08, 50.004, 4.66776E-09, -0.00550124, 25
DataValue, -3.0400000000000003E-09, 59.9955, 4.66767E-09, -0.00550372, 25
DataValue, -8.33E-09, 70.002, 4.66824E-09, -0.0055041000000000005, 25
DataValue, -2.9100000000000005E-09, 80.001, 4.66753E-09, -0.00549975, 25
DataValue, -2.0400000000000004E-09, 89.997, 4.66755E-09, -0.00550518, 25
DataValue, -1.83E-09, 99.999, 4.66766E-09, -0.00549887, 25
DataValue, -2.09E-09, 109.998, 4.66696E-09, -0.00550347, 25
DataValue, -1.7400000000000002E-09, 119.9985, 4.66685E-09, -0.00549978, 25
DataValue, 2.7300000000000003E-09, 130.00050000000002, 4.66658E-09, -0.0055025000000000004, 25
DataValue, -1.8900000000000003E-09, 139.9995, 4.66745E-09, -0.0055093, 25
DataValue, -1.1640000000000002E-08, 150.0015, 4.66722E-09, -0.00549798, 25
DataValue, -7.25E-09, 160.002, 4.66727E-09, -0.00550588, 25
DataValue, -8.3700000000000015E-09, 170.001, 4.66737E-09, -0.0055017700000000004, 25
DataValue, -4.04E-09, 180.0015, 4.66858E-09, -0.00550632, 25
DataValue, 2.05E-09, 189.9975, 4.66735E-09, -0.0054992, 25
DataValue, -7.7E-10, 199.9995, 4.66741E-09, -0.00550325, 25
DataValue, -7.1400000000000006E-09, 210.006, 4.6674199999999996E-09, -0.00550085, 25
DataValue, 4.2000000000000005E-10, 219.999, 4.66782E-09, -0.00550493, 25
DataValue, -1.116E-08, 230.001, 4.6677E-09, -0.00550436, 25
DataValue, -7.6900000000000014E-09, 240, 4.66729E-09, -0.00550316, 25
DataValue, -5.5900000000000008E-09, 250.0035, 4.66702E-09, -0.00550428, 25
DataValue, -1.5200000000000001E-09, 260.00100000000003, 4.66771E-09, -0.00550084, 25
DataValue, -7.54E-09, 270.003, 4.66726E-09, -0.005507, 25
DataValue, -4.8300000000000009E-09, 280.002, 4.66666E-09, -0.00550637, 25
DataValue, -1.9900000000000004E-09, 289.9995, 4.66714E-09, -0.00550376, 25
DataValue, -8.5200000000000012E-09, 299.997, 4.6672E-09, -0.0055058500000000005, 25
DataValue, -5.7000000000000006E-09, 309.9975, 4.66703E-09, -0.0055004, 25
DataValue, -8.4400000000000015E-09, 320.0055, 4.66674E-09, -0.00550276, 25
DataValue, 7E-11, 329.9985, 4.66789E-09, -0.0055043, 25
DataValue, -4.62E-09, 339.999, 4.66645E-09, -0.00550547, 25
DataValue, -2.55E-09, 349.998, 4.66735E-09, -0.00550734, 25
DataValue, -9.85E-09, 360.0015, 4.66719E-09, -0.0054987000000000005, 25
DataValue, -1.8500000000000002E-09, 369.999, 4.66732E-09, -0.00550411, 25
DataValue, -5.8300000000000008E-09, 379.9995, 4.66628E-09, -0.00550588, 25
DataValue, -1.15E-08, 390.0075, 4.66778E-09, -0.00550379, 25
DataValue, -3.5800000000000005E-09, 400.0005, 4.66712E-09, -0.00550165, 25
DataValue, -1.4600000000000001E-09, 409.9995, 4.66737E-09, -0.00550384, 25
DataValue, -1.19E-09, 419.997, 4.66671E-09, -0.00549766, 25
DataValue, -5.9000000000000007E-09, 430.002, 4.66648E-09, -0.00550647, 25
DataValue, -4.52E-09, 439.9965, 4.66658E-09, -0.0054995800000000004, 25
DataValue, -7.1800000000000004E-09, 450.0015, 4.66664E-09, -0.00550282, 25
DataValue, -2.7600000000000004E-09, 460.005, 4.66726E-09, -0.00550108, 25
DataValue, -9.1200000000000016E-09, 469.998, 4.66669E-09, -0.00550783, 25
DataValue, -5.8600000000000009E-09, 480, 4.66707E-09, -0.00549608, 25
DataValue, 2.22E-09, 489.9975, 4.66796E-09, -0.00550601, 25
DataValue, -9.38E-09, 500.004, 4.66666E-09, -0.00550038, 25
DataValue, 4.93E-09, 510, 4.66677E-09, -0.00550018, 25
DataValue, -1.033E-08, 520.0035, 4.66621E-09, -0.00550379, 25
DataValue, -2.0400000000000004E-09, 529.998, 4.66669E-09, -0.00550432, 25
DataValue, -7.2000000000000008E-09, 540, 4.66627E-09, -0.00550416, 25
DataValue, -7.51E-09, 550.00200000000007, 4.66717E-09, -0.0055036, 25
DataValue, -9.43E-09, 559.998, 4.66672E-09, -0.00550815, 25
DataValue, 3.9900000000000005E-09, 569.9955, 4.66778E-09, -0.00549215, 25
DataValue, -4.72E-09, 580.00200000000007, 4.66675E-09, -0.00550429, 25
DataValue, 5.4900000000000007E-09, 589.998, 4.66657E-09, -0.0054988400000000005, 25
DataValue, -7.020000000000001E-09, 599.9985, 4.66657E-09, -0.00550281, 25