
SetupTitle, Cgs
ApplicationTest, Cgs, Public
TestParameter, Name, Memo, IntegTime, Frequency, OscLevel, Scale, Gate, VdBias, VdStart, VdStop, VdLinearStep, IdLimit, HoldTime, DelayTime, IdMinRange
TestParameter, Value, , SHORT, 1000000, 0.025, LINEAR, CMU1:MF	MFCMU, SMU6:HV	HVSMU, 0, 600, 10, 0.004, 1, 1, 10uA
DutParameter, Name, Polarity, Temp, YAxisCgsMin, YAxisCgsMax
DutParameter, Value, 1, 25, 1E-12, 5E-09
MetaData, TestRecord.EntryPoint, true
MetaData, TestRecord.RecordTime, 04/24/2021 12:07:53
MetaData, TestRecord.TestTarget, 
MetaData, TestRecord.IterationIndex, 43
MetaData, TestRecord.Preservation, true
MetaData, TestRecord.Flag, 
MetaData, TestRecord.Remarks, 
MetaData, TestRecord.LinkKey, b6553486-2aed-4779-91c1-ac0c41708ab3
Dimension1, 61, 61, 61, 61, 61
Dimension2, 1, 1, 1, 1, 1
DataName, Ids, Vdrain, Cgs, G, Ta
DataValue, -6.77E-09, -0.003, 1.20838E-10, -0.000195502, 25
DataValue, -1.6200000000000002E-09, 9.9975, 1.20899E-10, -0.00019589700000000003, 25
DataValue, -2.9300000000000004E-09, 19.9995, 1.20883E-10, -0.00019548900000000003, 25
DataValue, -4.11E-09, 30, 1.20935E-10, -0.000195644, 25
DataValue, -6.1800000000000006E-09, 40.0005, 1.20953E-10, -0.000195355, 25
DataValue, -3.3400000000000005E-09, 49.995000000000005, 1.2085500000000002E-10, -0.000195111, 25
DataValue, -4.3300000000000006E-09, 60.0045, 1.2088800000000002E-10, -0.00019541800000000002, 25
DataValue, -1.3840000000000002E-08, 70.002, 1.2087600000000002E-10, -0.00019543000000000002, 25
DataValue, -1.1000000000000001E-09, 80.001, 1.2088200000000002E-10, -0.00019598600000000002, 25
DataValue, -9.300000000000001E-10, 89.997, 1.20824E-10, -0.00019547800000000002, 25
DataValue, -8.0300000000000014E-09, 100.0005, 1.2082E-10, -0.000195546, 25
DataValue, 8.9100000000000017E-09, 109.995, 1.2082800000000002E-10, -0.00019564000000000002, 25
DataValue, -2.48E-09, 119.9985, 1.2072800000000002E-10, -0.00019546600000000002, 25
DataValue, -5.3100000000000009E-09, 129.999, 1.20814E-10, -0.00019565700000000001, 25
DataValue, -4.07E-09, 139.9965, 1.20691E-10, -0.000195269, 25
DataValue, -5.44E-09, 149.997, 1.2074900000000001E-10, -0.00019524, 25
DataValue, -5.5500000000000009E-09, 160.002, 1.20778E-10, -0.000195605, 25
DataValue, -9.3200000000000017E-09, 170.001, 1.2078000000000002E-10, -0.00019563300000000002, 25
DataValue, -3.0000000000000004E-09, 180.0015, 1.20775E-10, -0.000195214, 25
DataValue, -3.2900000000000004E-09, 189.999, 1.20697E-10, -0.00019539900000000002, 25
DataValue, -2.8100000000000004E-09, 199.998, 1.20793E-10, -0.000195512, 25
DataValue, -6.1800000000000006E-09, 209.9985, 1.20823E-10, -0.000195333, 25
DataValue, -1.5700000000000002E-09, 220.002, 1.20806E-10, -0.000194679, 25
DataValue, -4.11E-09, 229.9995, 1.20805E-10, -0.000194956, 25
DataValue, -2.26E-09, 240.0015, 1.2077700000000002E-10, -0.000195546, 25
DataValue, 5.2000000000000007E-10, 249.9975, 1.20748E-10, -0.00019494100000000002, 25
DataValue, -5.3500000000000008E-09, 260.00100000000003, 1.20729E-10, -0.00019494, 25
DataValue, -2.7800000000000003E-09, 269.9985, 1.2076200000000002E-10, -0.000195488, 25
DataValue, -1.184E-08, 280.005, 1.20757E-10, -0.00019517700000000002, 25
DataValue, -4.18E-09, 289.9995, 1.2078300000000002E-10, -0.00019498600000000002, 25
DataValue, 2.7300000000000003E-09, 299.994, 1.20717E-10, -0.00019534200000000002, 25
DataValue, -1.0000000000000002E-10, 309.999, 1.2068000000000002E-10, -0.000195154, 25
DataValue, 2.3300000000000004E-09, 319.992, 1.2072800000000002E-10, -0.000195001, 25
DataValue, -1.7900000000000002E-09, 330, 1.2073100000000002E-10, -0.000195347, 25
DataValue, -6.9300000000000007E-09, 340.00350000000003, 1.20781E-10, -0.00019527000000000002, 25
DataValue, -4.5300000000000007E-09, 350.0025, 1.20663E-10, -0.000195352, 25
DataValue, -4.7700000000000007E-09, 359.99850000000004, 1.2063800000000002E-10, -0.000195107, 25
DataValue, -3.3100000000000004E-09, 369.999, 1.2069E-10, -0.00019576100000000003, 25
DataValue, -2.65E-09, 379.9965, 1.20652E-10, -0.000195094, 25
DataValue, -4.62E-09, 389.99850000000004, 1.2066E-10, -0.000195364, 25
DataValue, -5.8000000000000007E-10, 400.005, 1.20736E-10, -0.00019493600000000002, 25
DataValue, 1E-09, 410.004, 1.2075200000000001E-10, -0.00019549200000000002, 25
DataValue, -1.1000000000000001E-10, 419.9955, 1.2073100000000002E-10, -0.00019549000000000001, 25
DataValue, -1.47E-09, 430.0005, 1.20705E-10, -0.00019533200000000002, 25
DataValue, 7.1E-10, 439.992, 1.20772E-10, -0.000194892, 25
DataValue, 1.8600000000000002E-09, 449.994, 1.20778E-10, -0.000195102, 25
DataValue, -5.6000000000000005E-09, 460.008, 1.20735E-10, -0.00019548000000000002, 25
DataValue, 1.2700000000000002E-09, 470.00100000000003, 1.20684E-10, -0.000195832, 25
DataValue, 4.1500000000000008E-09, 480.0015, 1.2063500000000002E-10, -0.00019544200000000002, 25
DataValue, 2.1000000000000002E-10, 489.9945, 1.20732E-10, -0.00019515500000000003, 25
DataValue, -7.980000000000001E-09, 500.00100000000003, 1.20595E-10, -0.00019542000000000002, 25
DataValue, -7.4500000000000005E-09, 510.0015, 1.2067700000000002E-10, -0.00019554000000000002, 25
DataValue, -2.8300000000000004E-09, 519.996, 1.2066200000000002E-10, -0.00019523200000000002, 25
DataValue, -1.1790000000000002E-08, 529.9995, 1.20699E-10, -0.00019508200000000001, 25
DataValue, -1.2000000000000002E-08, 540.0045, 1.2076700000000001E-10, -0.000195446, 25
DataValue, -5.99E-09, 549.99750000000006, 1.207E-10, -0.00019509300000000002, 25
DataValue, -7.8300000000000013E-09, 559.998, 1.2067100000000002E-10, -0.00019561100000000002, 25
DataValue, -2.77E-09, 570.0015, 1.20585E-10, -0.000195471, 25
DataValue, -4.7100000000000005E-09, 580.0035, 1.2072800000000002E-10, -0.00019482100000000002, 25
DataValue, -1.3E-08, 590.004, 1.20702E-10, -0.00019527200000000002, 25
DataValue, -7.7E-10, 600.0015, 1.2069E-10, -0.000194779, 25
SetupTitle, Cgs
PrimitiveTest, C-V Sweep
TestParameter, Channel.UnitTyp, CMU, SMU
TestParameter, Channel.Unit, Gate, VdBias
TestParameter, Channel.IName, , Ids
TestParameter, Channel.VName, VBias, Vdrain
TestParameter, Channel.Mode, , V
TestParameter, Channel.Func, CONST, VAR1
TestParameter, Channel.Index, 
TestParameter, Channel.Time, 
TestParameter, Measurement.Primary.Locus, Single
TestParameter, Measurement.Primary.Scale, Scale
TestParameter, Measurement.Primary.Start, VdStart*Polarity
TestParameter, Measurement.Primary.Stop, VdStop*Polarity
TestParameter, Measurement.Primary.Compliance, IdLimit
TestParameter, Measurement.Primary.Step, VdLinearStep*Polarity
TestParameter, Measurement.Aborting.Condition, CONTINUE AT ANY
TestParameter, Measurement.PostOutput.Value, START
TestParameter, Measurement.PostOutput.Retention, OFF
TestParameter, Measurement.Secondary.ACLevel, OscLevel
TestParameter, Measurement.Secondary.FName, Freq
TestParameter, Measurement.Secondary.Frequency, Frequency
TestParameter, Measurement.Bias.Source, 0, 0
TestParameter, Measurement.ImpedanceMode.Model, Cp-G
TestParameter, Measurement.ImpedanceMode.CName, Cgs
TestParameter, Measurement.ImpedanceMode.LName, L
TestParameter, Measurement.ImpedanceMode.GName, G
TestParameter, Measurement.ImpedanceMode.RName, R
TestParameter, Measurement.ImpedanceMode.QName, Q
TestParameter, Measurement.ImpedanceMode.DName, D
TestParameter, Measurement.ImpedanceMode.YName, Y
TestParameter, Measurement.ImpedanceMode.ZName, Z
TestParameter, Measurement.ImpedanceMode.ThName, Theta
TestParameter, Measurement.ImpedanceMode.BName, B
TestParameter, Measurement.ImpedanceMode.XName, X
TestParameter, Measurement.Monitor.Unit, CMU:=Gate, SMU:=VdBias
TestParameter, Measurement.Monitor.RangingMode, AUTO, LIMITED
TestParameter, Measurement.Monitor.RangeBoundary, 50, IdMinRange
TestParameter, Measurement.Monitor.AcMonitorSymbol, 
TestParameter, Measurement.Monitor.DcMonitorSymbol, 
TestParameter, Measurement.Timing.Hold, HoldTime
TestParameter, Measurement.Timing.Delay, DelayTime
TestParameter, Measurement.Adc.UnitType, Cmu, Smu
TestParameter, Measurement.Adc.HighResolution.Mode, IntegMode, IntegMode
TestParameter, Measurement.Adc.HighResolution.Coeff, AdcFactor, AdcFactor
TestParameter, Measurement.WaitTime.Source.Coeff, 1
TestParameter, Measurement.WaitTime.Source.Offset, 0
TestParameter, Measurement.WaitTime.Monitor.Coeff, 1
TestParameter, Measurement.WaitTime.Monitor.Offset, 0
TestParameter, Function.User.Name, Ta
TestParameter, Function.User.Unit, deg
TestParameter, Function.User.Definition, Temp
TestParameter, Output.Graph.Enabled, true
TestParameter, Output.Graph.AutoScaling, false
TestParameter, Output.Graph.XAxis.Data, Vdrain
TestParameter, Output.Graph.XAxis.Scale, ScaleStr
TestParameter, Output.Graph.XAxis.Left, VdStart*Polarity
TestParameter, Output.Graph.XAxis.Right, VdStop*Polarity
TestParameter, Output.Graph.XAxis.RunTimeAutoScale, false
TestParameter, Output.Graph.YAxis.Data, Cgs
TestParameter, Output.Graph.YAxis.Scale, Log
TestParameter, Output.Graph.YAxis.Bottom, YAxisCgsMin
TestParameter, Output.Graph.YAxis.Top, YAxisCgsMax
TestParameter, Output.Graph.YAxis.Group, 
TestParameter, Output.Graph.YAxis.RunTimeAutoScale, false
TestParameter, Output.List.Data, Vdrain, Cgs, Ids
TestParameter, Output.Scalar.Data, Ta
TestParameter, AutoAnalysis.Interpolation, true
TestParameter, AutoAnalysis.Line1.Enabled, false
TestParameter, AutoAnalysis.Line1.Type, 1
TestParameter, AutoAnalysis.Line1.Fix, True
TestParameter, AutoAnalysis.Line1.YAxis, 0
TestParameter, AutoAnalysis.Line1.Point1.Type, 0
TestParameter, AutoAnalysis.Line1.Point1.XY.X, 
TestParameter, AutoAnalysis.Line1.Point1.XY.Y, 
TestParameter, AutoAnalysis.Line1.Point1.Data.Var, 
TestParameter, AutoAnalysis.Line1.Point1.Data.Condition, 
TestParameter, AutoAnalysis.Line1.Point1.Data.Start, false
TestParameter, AutoAnalysis.Line1.Point1.Data.StartVar, 
TestParameter, AutoAnalysis.Line1.Point1.Data.StartCondition, 
TestParameter, AutoAnalysis.Line1.Point2.Type, 0
TestParameter, AutoAnalysis.Line1.Point2.XY.X, 
TestParameter, AutoAnalysis.Line1.Point2.XY.Y, 
TestParameter, AutoAnalysis.Line1.Point2.Data.Var, 
TestParameter, AutoAnalysis.Line1.Point2.Data.Condition, 
TestParameter, AutoAnalysis.Line1.Point2.Data.Start, false
TestParameter, AutoAnalysis.Line1.Point2.Data.StartVar, 
TestParameter, AutoAnalysis.Line1.Point2.Data.StartCondition, 
TestParameter, AutoAnalysis.Line1.GradientExpr, 0
TestParameter, AutoAnalysis.Line2.Enabled, false
TestParameter, AutoAnalysis.Line2.Type, 1
TestParameter, AutoAnalysis.Line2.Fix, True
TestParameter, AutoAnalysis.Line2.YAxis, 0
TestParameter, AutoAnalysis.Line2.Point1.Type, 0
TestParameter, AutoAnalysis.Line2.Point1.XY.X, 
TestParameter, AutoAnalysis.Line2.Point1.XY.Y, 
TestParameter, AutoAnalysis.Line2.Point1.Data.Var, 
TestParameter, AutoAnalysis.Line2.Point1.Data.Condition, 
TestParameter, AutoAnalysis.Line2.Point1.Data.Start, false
TestParameter, AutoAnalysis.Line2.Point1.Data.StartVar, 
TestParameter, AutoAnalysis.Line2.Point1.Data.StartCondition, 
TestParameter, AutoAnalysis.Line2.Point2.Type, 0
TestParameter, AutoAnalysis.Line2.Point2.XY.X, 
TestParameter, AutoAnalysis.Line2.Point2.XY.Y, 
TestParameter, AutoAnalysis.Line2.Point2.Data.Var, 
TestParameter, AutoAnalysis.Line2.Point2.Data.Condition, 
TestParameter, AutoAnalysis.Line2.Point2.Data.Start, false
TestParameter, AutoAnalysis.Line2.Point2.Data.StartVar, 
TestParameter, AutoAnalysis.Line2.Point2.Data.StartCondition, 
TestParameter, AutoAnalysis.Line2.GradientExpr, 0
TestParameter, AutoAnalysis.Marker.Enabled, false
TestParameter, AutoAnalysis.Marker.Data.Var, 
TestParameter, AutoAnalysis.Marker.Data.Condition, 
TestParameter, AutoAnalysis.Marker.Data.Start, false
TestParameter, AutoAnalysis.Marker.Data.StartVar, 
TestParameter, AutoAnalysis.Marker.Data.StartCondition, 
MetaData, TestRecord.EntryPoint, false
MetaData, TestRecord.RecordTime, 04/24/2021 12:07:53
MetaData, TestRecord.TestTarget, 
MetaData, TestRecord.IterationIndex, 43
MetaData, TestRecord.Preservation, true
MetaData, TestRecord.Flag, 
MetaData, TestRecord.Remarks, 
MetaData, TestRecord.LinkKey, b6553486-2aed-4779-91c1-ac0c41708ab3
Dimension1, 61, 61, 61, 61, 61
Dimension2, 1, 1, 1, 1, 1
DataName, Ids, Vdrain, Cgs, G, Ta
DataValue, -6.77E-09, -0.003, 1.20838E-10, -0.000195502, 25
DataValue, -1.6200000000000002E-09, 9.9975, 1.20899E-10, -0.00019589700000000003, 25
DataValue, -2.9300000000000004E-09, 19.9995, 1.20883E-10, -0.00019548900000000003, 25
DataValue, -4.11E-09, 30, 1.20935E-10, -0.000195644, 25
DataValue, -6.1800000000000006E-09, 40.0005, 1.20953E-10, -0.000195355, 25
DataValue, -3.3400000000000005E-09, 49.995000000000005, 1.2085500000000002E-10, -0.000195111, 25
DataValue, -4.3300000000000006E-09, 60.0045, 1.2088800000000002E-10, -0.00019541800000000002, 25
DataValue, -1.3840000000000002E-08, 70.002, 1.2087600000000002E-10, -0.00019543000000000002, 25
DataValue, -1.1000000000000001E-09, 80.001, 1.2088200000000002E-10, -0.00019598600000000002, 25
DataValue, -9.300000000000001E-10, 89.997, 1.20824E-10, -0.00019547800000000002, 25
DataValue, -8.0300000000000014E-09, 100.0005, 1.2082E-10, -0.000195546, 25
DataValue, 8.9100000000000017E-09, 109.995, 1.2082800000000002E-10, -0.00019564000000000002, 25
DataValue, -2.48E-09, 119.9985, 1.2072800000000002E-10, -0.00019546600000000002, 25
DataValue, -5.3100000000000009E-09, 129.999, 1.20814E-10, -0.00019565700000000001, 25
DataValue, -4.07E-09, 139.9965, 1.20691E-10, -0.000195269, 25
DataValue, -5.44E-09, 149.997, 1.2074900000000001E-10, -0.00019524, 25
DataValue, -5.5500000000000009E-09, 160.002, 1.20778E-10, -0.000195605, 25
DataValue, -9.3200000000000017E-09, 170.001, 1.2078000000000002E-10, -0.00019563300000000002, 25
DataValue, -3.0000000000000004E-09, 180.0015, 1.20775E-10, -0.000195214, 25
DataValue, -3.2900000000000004E-09, 189.999, 1.20697E-10, -0.00019539900000000002, 25
DataValue, -2.8100000000000004E-09, 199.998, 1.20793E-10, -0.000195512, 25
DataValue, -6.1800000000000006E-09, 209.9985, 1.20823E-10, -0.000195333, 25
DataValue, -1.5700000000000002E-09, 220.002, 1.20806E-10, -0.000194679, 25
DataValue, -4.11E-09, 229.9995, 1.20805E-10, -0.000194956, 25
DataValue, -2.26E-09, 240.0015, 1.2077700000000002E-10, -0.000195546, 25
DataValue, 5.2000000000000007E-10, 249.9975, 1.20748E-10, -0.00019494100000000002, 25
DataValue, -5.3500000000000008E-09, 260.00100000000003, 1.20729E-10, -0.00019494, 25
DataValue, -2.7800000000000003E-09, 269.9985, 1.2076200000000002E-10, -0.000195488, 25
DataValue, -1.184E-08, 280.005, 1.20757E-10, -0.00019517700000000002, 25
DataValue, -4.18E-09, 289.9995, 1.2078300000000002E-10, -0.00019498600000000002, 25
DataValue, 2.7300000000000003E-09, 299.994, 1.20717E-10, -0.00019534200000000002, 25
DataValue, -1.0000000000000002E-10, 309.999, 1.2068000000000002E-10, -0.000195154, 25
DataValue, 2.3300000000000004E-09, 319.992, 1.2072800000000002E-10, -0.000195001, 25
DataValue, -1.7900000000000002E-09, 330, 1.2073100000000002E-10, -0.000195347, 25
DataValue, -6.9300000000000007E-09, 340.00350000000003, 1.20781E-10, -0.00019527000000000002, 25
DataValue, -4.5300000000000007E-09, 350.0025, 1.20663E-10, -0.000195352, 25
DataValue, -4.7700000000000007E-09, 359.99850000000004, 1.2063800000000002E-10, -0.000195107, 25
DataValue, -3.3100000000000004E-09, 369.999, 1.2069E-10, -0.00019576100000000003, 25
DataValue, -2.65E-09, 379.9965, 1.20652E-10, -0.000195094, 25
DataValue, -4.62E-09, 389.99850000000004, 1.2066E-10, -0.000195364, 25
DataValue, -5.8000000000000007E-10, 400.005, 1.20736E-10, -0.00019493600000000002, 25
DataValue, 1E-09, 410.004, 1.2075200000000001E-10, -0.00019549200000000002, 25
DataValue, -1.1000000000000001E-10, 419.9955, 1.2073100000000002E-10, -0.00019549000000000001, 25
DataValue, -1.47E-09, 430.0005, 1.20705E-10, -0.00019533200000000002, 25
DataValue, 7.1E-10, 439.992, 1.20772E-10, -0.000194892, 25
DataValue, 1.8600000000000002E-09, 449.994, 1.20778E-10, -0.000195102, 25
DataValue, -5.6000000000000005E-09, 460.008, 1.20735E-10, -0.00019548000000000002, 25
DataValue, 1.2700000000000002E-09, 470.00100000000003, 1.20684E-10, -0.000195832, 25
DataValue, 4.1500000000000008E-09, 480.0015, 1.2063500000000002E-10, -0.00019544200000000002, 25
DataValue, 2.1000000000000002E-10, 489.9945, 1.20732E-10, -0.00019515500000000003, 25
DataValue, -7.980000000000001E-09, 500.00100000000003, 1.20595E-10, -0.00019542000000000002, 25
DataValue, -7.4500000000000005E-09, 510.0015, 1.2067700000000002E-10, -0.00019554000000000002, 25
DataValue, -2.8300000000000004E-09, 519.996, 1.2066200000000002E-10, -0.00019523200000000002, 25
DataValue, -1.1790000000000002E-08, 529.9995, 1.20699E-10, -0.00019508200000000001, 25
DataValue, -1.2000000000000002E-08, 540.0045, 1.2076700000000001E-10, -0.000195446, 25
DataValue, -5.99E-09, 549.99750000000006, 1.207E-10, -0.00019509300000000002, 25
DataValue, -7.8300000000000013E-09, 559.998, 1.2067100000000002E-10, -0.00019561100000000002, 25
DataValue, -2.77E-09, 570.0015, 1.20585E-10, -0.000195471, 25
DataValue, -4.7100000000000005E-09, 580.0035, 1.2072800000000002E-10, -0.00019482100000000002, 25
DataValue, -1.3E-08, 590.004, 1.20702E-10, -0.00019527200000000002, 25
DataValue, -7.7E-10, 600.0015, 1.2069E-10, -0.000194779, 25