
SetupTitle, Cgs
ApplicationTest, Cgs, Public
TestParameter, Name, Memo, IntegTime, Frequency, OscLevel, Scale, Gate, VdBias, VdStart, VdStop, VdLinearStep, IdLimit, HoldTime, DelayTime, IdMinRange
TestParameter, Value, , SHORT, 1000000, 0.025, LINEAR, CMU1:MF	MFCMU, SMU6:HV	HVSMU, 0, 50, 1, 0.004, 1, 1, 10uA
DutParameter, Name, Polarity, Temp, YAxisCgsMin, YAxisCgsMax
DutParameter, Value, 1, 25, 1E-12, 5E-09
MetaData, TestRecord.EntryPoint, true
MetaData, TestRecord.RecordTime, 12/28/2020 10:09:37
MetaData, TestRecord.TestTarget, 
MetaData, TestRecord.IterationIndex, 14
MetaData, TestRecord.Preservation, true
MetaData, TestRecord.Flag, 
MetaData, TestRecord.Remarks, 
MetaData, TestRecord.LinkKey, eeb41b2f-7274-4e00-9511-c55734686c55
Dimension1, 51, 51, 51, 51, 51
Dimension2, 1, 1, 1, 1, 1
DataName, Ids, Vdrain, Cgs, G, Ta
DataValue, 2.05E-09, -0.002, 2.71274E-10, -0.00037590400000000004, 25
DataValue, 2.4700000000000004E-09, 0.99540000000000006, 2.71115E-10, -0.0003777, 25
DataValue, -4.7800000000000005E-09, 2.0016000000000003, 2.7125100000000003E-10, -0.00037639300000000004, 25
DataValue, -2.6800000000000003E-09, 2.996, 2.71338E-10, -0.00037617600000000004, 25
DataValue, -7.020000000000001E-09, 3.998, 2.71193E-10, -0.000375995, 25
DataValue, 9.5E-10, 4.9984, 2.71172E-10, -0.00037689200000000004, 25
DataValue, -7.5500000000000014E-09, 6.0012, 2.7123500000000005E-10, -0.000376856, 25
DataValue, -1.3400000000000001E-09, 7.0006, 2.7141400000000003E-10, -0.00037622800000000004, 25
DataValue, -2.14E-09, 7.9984, 2.7126400000000004E-10, -0.000377297, 25
DataValue, -6.370000000000001E-09, 8.9994, 2.71326E-10, -0.000376354, 25
DataValue, -6.2000000000000009E-09, 10.0016, 2.7131100000000003E-10, -0.000376932, 25
DataValue, -4.2900000000000007E-09, 11.000200000000001, 2.7117900000000003E-10, -0.000377389, 25
DataValue, -6.2500000000000005E-09, 11.999, 2.71219E-10, -0.00037755700000000004, 25
DataValue, -3.1400000000000003E-09, 13.002, 2.7122800000000004E-10, -0.000377135, 25
DataValue, -3.5700000000000003E-09, 14.0044, 2.71214E-10, -0.000377789, 25
DataValue, -3.1700000000000004E-09, 14.998600000000002, 2.71193E-10, -0.00037728800000000004, 25
DataValue, -4.3700000000000004E-09, 15.999400000000001, 2.7113100000000003E-10, -0.000377907, 25
DataValue, -8.68E-09, 17.003800000000002, 2.7117900000000003E-10, -0.000377142, 25
DataValue, -9.2000000000000013E-10, 18.0002, 2.71303E-10, -0.000377053, 25
DataValue, 3.6000000000000005E-10, 19.0012, 2.71303E-10, -0.000377039, 25
DataValue, -1.8200000000000001E-09, 19.9978, 2.7128E-10, -0.00037730200000000004, 25
DataValue, 6.8E-10, 20.9956, 2.7123300000000003E-10, -0.00037777000000000004, 25
DataValue, -3.9100000000000008E-09, 21.998800000000003, 2.7116800000000004E-10, -0.000377737, 25
DataValue, -2.7500000000000002E-09, 23.003600000000002, 2.7126E-10, -0.00037746700000000004, 25
DataValue, 4.4000000000000003E-10, 23.997, 2.71291E-10, -0.00037702300000000004, 25
DataValue, -4.34E-09, 25.003400000000003, 2.71243E-10, -0.000376838, 25
DataValue, -8.6600000000000011E-09, 26.0014, 2.7126E-10, -0.000377255, 25
DataValue, -7.3100000000000006E-09, 27.0028, 2.71242E-10, -0.000377194, 25
DataValue, -2.0800000000000003E-09, 27.995800000000003, 2.7120400000000004E-10, -0.00037724300000000003, 25
DataValue, -3E-11, 28.994600000000002, 2.7124700000000005E-10, -0.00037710200000000004, 25
DataValue, -6.1000000000000009E-09, 29.9984, 2.7122200000000004E-10, -0.000377528, 25
DataValue, -6.6200000000000007E-09, 31.0008, 2.7128700000000003E-10, -0.00037783, 25
DataValue, -4.93E-09, 32.002, 2.7130100000000004E-10, -0.00037709600000000005, 25
DataValue, -2.43E-09, 33.0016, 2.71248E-10, -0.00037786300000000004, 25
DataValue, -6.16E-09, 34.0022, 2.71347E-10, -0.000377655, 25
DataValue, -4.68E-09, 35.001200000000004, 2.7130700000000004E-10, -0.00037694400000000004, 25
DataValue, -4.5400000000000005E-09, 35.999, 2.7132500000000004E-10, -0.000377369, 25
DataValue, -7.61E-09, 37.000800000000005, 2.71262E-10, -0.00037713700000000005, 25
DataValue, -7.1300000000000008E-09, 38, 2.71335E-10, -0.000377272, 25
DataValue, -7.0500000000000011E-09, 39.001200000000004, 2.7133700000000004E-10, -0.000377442, 25
DataValue, -4.4000000000000005E-09, 39.9974, 2.71213E-10, -0.00037719800000000003, 25
DataValue, -5.3600000000000005E-09, 40.9994, 2.71273E-10, -0.000377318, 25
DataValue, 8.6000000000000013E-10, 41.999, 2.7126400000000004E-10, -0.000377214, 25
DataValue, -2.0600000000000003E-09, 43.001200000000004, 2.71315E-10, -0.00037677900000000005, 25
DataValue, -6.2400000000000008E-09, 43.995400000000004, 2.71375E-10, -0.000377363, 25
DataValue, -3.5900000000000002E-09, 44.998200000000004, 2.7128900000000004E-10, -0.000376948, 25
DataValue, -6.8E-10, 45.9962, 2.71404E-10, -0.00037828700000000005, 25
DataValue, -8.13E-09, 47.0064, 2.71292E-10, -0.00037724400000000005, 25
DataValue, -4.9700000000000008E-09, 47.998400000000004, 2.7134200000000003E-10, -0.000377738, 25
DataValue, -5.5900000000000008E-09, 49.0002, 2.7132500000000004E-10, -0.000377597, 25
DataValue, -4.3200000000000008E-09, 49.999, 2.71332E-10, -0.000377417, 25
SetupTitle, Cgs
PrimitiveTest, C-V Sweep
TestParameter, Channel.UnitTyp, CMU, SMU
TestParameter, Channel.Unit, Gate, VdBias
TestParameter, Channel.IName, , Ids
TestParameter, Channel.VName, VBias, Vdrain
TestParameter, Channel.Mode, , V
TestParameter, Channel.Func, CONST, VAR1
TestParameter, Channel.Index, 
TestParameter, Channel.Time, 
TestParameter, Measurement.Primary.Locus, Single
TestParameter, Measurement.Primary.Scale, Scale
TestParameter, Measurement.Primary.Start, VdStart*Polarity
TestParameter, Measurement.Primary.Stop, VdStop*Polarity
TestParameter, Measurement.Primary.Compliance, IdLimit
TestParameter, Measurement.Primary.Step, VdLinearStep*Polarity
TestParameter, Measurement.Aborting.Condition, CONTINUE AT ANY
TestParameter, Measurement.PostOutput.Value, START
TestParameter, Measurement.PostOutput.Retention, OFF
TestParameter, Measurement.Secondary.ACLevel, OscLevel
TestParameter, Measurement.Secondary.FName, Freq
TestParameter, Measurement.Secondary.Frequency, Frequency
TestParameter, Measurement.Bias.Source, 0, 0
TestParameter, Measurement.ImpedanceMode.Model, Cp-G
TestParameter, Measurement.ImpedanceMode.CName, Cgs
TestParameter, Measurement.ImpedanceMode.LName, L
TestParameter, Measurement.ImpedanceMode.GName, G
TestParameter, Measurement.ImpedanceMode.RName, R
TestParameter, Measurement.ImpedanceMode.QName, Q
TestParameter, Measurement.ImpedanceMode.DName, D
TestParameter, Measurement.ImpedanceMode.YName, Y
TestParameter, Measurement.ImpedanceMode.ZName, Z
TestParameter, Measurement.ImpedanceMode.ThName, Theta
TestParameter, Measurement.ImpedanceMode.BName, B
TestParameter, Measurement.ImpedanceMode.XName, X
TestParameter, Measurement.Monitor.Unit, CMU:=Gate, SMU:=VdBias
TestParameter, Measurement.Monitor.RangingMode, AUTO, LIMITED
TestParameter, Measurement.Monitor.RangeBoundary, 50, IdMinRange
TestParameter, Measurement.Monitor.AcMonitorSymbol, 
TestParameter, Measurement.Monitor.DcMonitorSymbol, 
TestParameter, Measurement.Timing.Hold, HoldTime
TestParameter, Measurement.Timing.Delay, DelayTime
TestParameter, Measurement.Adc.UnitType, Cmu, Smu
TestParameter, Measurement.Adc.HighResolution.Mode, IntegMode, IntegMode
TestParameter, Measurement.Adc.HighResolution.Coeff, AdcFactor, AdcFactor
TestParameter, Measurement.WaitTime.Source.Coeff, 1
TestParameter, Measurement.WaitTime.Source.Offset, 0
TestParameter, Measurement.WaitTime.Monitor.Coeff, 1
TestParameter, Measurement.WaitTime.Monitor.Offset, 0
TestParameter, Function.User.Name, Ta
TestParameter, Function.User.Unit, deg
TestParameter, Function.User.Definition, Temp
TestParameter, Output.Graph.Enabled, true
TestParameter, Output.Graph.AutoScaling, false
TestParameter, Output.Graph.XAxis.Data, Vdrain
TestParameter, Output.Graph.XAxis.Scale, ScaleStr
TestParameter, Output.Graph.XAxis.Left, VdStart*Polarity
TestParameter, Output.Graph.XAxis.Right, VdStop*Polarity
TestParameter, Output.Graph.XAxis.RunTimeAutoScale, false
TestParameter, Output.Graph.YAxis.Data, Cgs
TestParameter, Output.Graph.YAxis.Scale, Log
TestParameter, Output.Graph.YAxis.Bottom, YAxisCgsMin
TestParameter, Output.Graph.YAxis.Top, YAxisCgsMax
TestParameter, Output.Graph.YAxis.Group, 
TestParameter, Output.Graph.YAxis.RunTimeAutoScale, false
TestParameter, Output.List.Data, Vdrain, Cgs, Ids
TestParameter, Output.Scalar.Data, Ta
TestParameter, AutoAnalysis.Interpolation, true
TestParameter, AutoAnalysis.Line1.Enabled, false
TestParameter, AutoAnalysis.Line1.Type, 1
TestParameter, AutoAnalysis.Line1.Fix, True
TestParameter, AutoAnalysis.Line1.YAxis, 0
TestParameter, AutoAnalysis.Line1.Point1.Type, 0
TestParameter, AutoAnalysis.Line1.Point1.XY.X, 
TestParameter, AutoAnalysis.Line1.Point1.XY.Y, 
TestParameter, AutoAnalysis.Line1.Point1.Data.Var, 
TestParameter, AutoAnalysis.Line1.Point1.Data.Condition, 
TestParameter, AutoAnalysis.Line1.Point1.Data.Start, false
TestParameter, AutoAnalysis.Line1.Point1.Data.StartVar, 
TestParameter, AutoAnalysis.Line1.Point1.Data.StartCondition, 
TestParameter, AutoAnalysis.Line1.Point2.Type, 0
TestParameter, AutoAnalysis.Line1.Point2.XY.X, 
TestParameter, AutoAnalysis.Line1.Point2.XY.Y, 
TestParameter, AutoAnalysis.Line1.Point2.Data.Var, 
TestParameter, AutoAnalysis.Line1.Point2.Data.Condition, 
TestParameter, AutoAnalysis.Line1.Point2.Data.Start, false
TestParameter, AutoAnalysis.Line1.Point2.Data.StartVar, 
TestParameter, AutoAnalysis.Line1.Point2.Data.StartCondition, 
TestParameter, AutoAnalysis.Line1.GradientExpr, 0
TestParameter, AutoAnalysis.Line2.Enabled, false
TestParameter, AutoAnalysis.Line2.Type, 1
TestParameter, AutoAnalysis.Line2.Fix, True
TestParameter, AutoAnalysis.Line2.YAxis, 0
TestParameter, AutoAnalysis.Line2.Point1.Type, 0
TestParameter, AutoAnalysis.Line2.Point1.XY.X, 
TestParameter, AutoAnalysis.Line2.Point1.XY.Y, 
TestParameter, AutoAnalysis.Line2.Point1.Data.Var, 
TestParameter, AutoAnalysis.Line2.Point1.Data.Condition, 
TestParameter, AutoAnalysis.Line2.Point1.Data.Start, false
TestParameter, AutoAnalysis.Line2.Point1.Data.StartVar, 
TestParameter, AutoAnalysis.Line2.Point1.Data.StartCondition, 
TestParameter, AutoAnalysis.Line2.Point2.Type, 0
TestParameter, AutoAnalysis.Line2.Point2.XY.X, 
TestParameter, AutoAnalysis.Line2.Point2.XY.Y, 
TestParameter, AutoAnalysis.Line2.Point2.Data.Var, 
TestParameter, AutoAnalysis.Line2.Point2.Data.Condition, 
TestParameter, AutoAnalysis.Line2.Point2.Data.Start, false
TestParameter, AutoAnalysis.Line2.Point2.Data.StartVar, 
TestParameter, AutoAnalysis.Line2.Point2.Data.StartCondition, 
TestParameter, AutoAnalysis.Line2.GradientExpr, 0
TestParameter, AutoAnalysis.Marker.Enabled, false
TestParameter, AutoAnalysis.Marker.Data.Var, 
TestParameter, AutoAnalysis.Marker.Data.Condition, 
TestParameter, AutoAnalysis.Marker.Data.Start, false
TestParameter, AutoAnalysis.Marker.Data.StartVar, 
TestParameter, AutoAnalysis.Marker.Data.StartCondition, 
MetaData, TestRecord.EntryPoint, false
MetaData, TestRecord.RecordTime, 12/28/2020 10:09:37
MetaData, TestRecord.TestTarget, 
MetaData, TestRecord.IterationIndex, 14
MetaData, TestRecord.Preservation, true
MetaData, TestRecord.Flag, 
MetaData, TestRecord.Remarks, 
MetaData, TestRecord.LinkKey, eeb41b2f-7274-4e00-9511-c55734686c55
Dimension1, 51, 51, 51, 51, 51
Dimension2, 1, 1, 1, 1, 1
DataName, Ids, Vdrain, Cgs, G, Ta
DataValue, 2.05E-09, -0.002, 2.71274E-10, -0.00037590400000000004, 25
DataValue, 2.4700000000000004E-09, 0.99540000000000006, 2.71115E-10, -0.0003777, 25
DataValue, -4.7800000000000005E-09, 2.0016000000000003, 2.7125100000000003E-10, -0.00037639300000000004, 25
DataValue, -2.6800000000000003E-09, 2.996, 2.71338E-10, -0.00037617600000000004, 25
DataValue, -7.020000000000001E-09, 3.998, 2.71193E-10, -0.000375995, 25
DataValue, 9.5E-10, 4.9984, 2.71172E-10, -0.00037689200000000004, 25
DataValue, -7.5500000000000014E-09, 6.0012, 2.7123500000000005E-10, -0.000376856, 25
DataValue, -1.3400000000000001E-09, 7.0006, 2.7141400000000003E-10, -0.00037622800000000004, 25
DataValue, -2.14E-09, 7.9984, 2.7126400000000004E-10, -0.000377297, 25
DataValue, -6.370000000000001E-09, 8.9994, 2.71326E-10, -0.000376354, 25
DataValue, -6.2000000000000009E-09, 10.0016, 2.7131100000000003E-10, -0.000376932, 25
DataValue, -4.2900000000000007E-09, 11.000200000000001, 2.7117900000000003E-10, -0.000377389, 25
DataValue, -6.2500000000000005E-09, 11.999, 2.71219E-10, -0.00037755700000000004, 25
DataValue, -3.1400000000000003E-09, 13.002, 2.7122800000000004E-10, -0.000377135, 25
DataValue, -3.5700000000000003E-09, 14.0044, 2.71214E-10, -0.000377789, 25
DataValue, -3.1700000000000004E-09, 14.998600000000002, 2.71193E-10, -0.00037728800000000004, 25
DataValue, -4.3700000000000004E-09, 15.999400000000001, 2.7113100000000003E-10, -0.000377907, 25
DataValue, -8.68E-09, 17.003800000000002, 2.7117900000000003E-10, -0.000377142, 25
DataValue, -9.2000000000000013E-10, 18.0002, 2.71303E-10, -0.000377053, 25
DataValue, 3.6000000000000005E-10, 19.0012, 2.71303E-10, -0.000377039, 25
DataValue, -1.8200000000000001E-09, 19.9978, 2.7128E-10, -0.00037730200000000004, 25
DataValue, 6.8E-10, 20.9956, 2.7123300000000003E-10, -0.00037777000000000004, 25
DataValue, -3.9100000000000008E-09, 21.998800000000003, 2.7116800000000004E-10, -0.000377737, 25
DataValue, -2.7500000000000002E-09, 23.003600000000002, 2.7126E-10, -0.00037746700000000004, 25
DataValue, 4.4000000000000003E-10, 23.997, 2.71291E-10, -0.00037702300000000004, 25
DataValue, -4.34E-09, 25.003400000000003, 2.71243E-10, -0.000376838, 25
DataValue, -8.6600000000000011E-09, 26.0014, 2.7126E-10, -0.000377255, 25
DataValue, -7.3100000000000006E-09, 27.0028, 2.71242E-10, -0.000377194, 25
DataValue, -2.0800000000000003E-09, 27.995800000000003, 2.7120400000000004E-10, -0.00037724300000000003, 25
DataValue, -3E-11, 28.994600000000002, 2.7124700000000005E-10, -0.00037710200000000004, 25
DataValue, -6.1000000000000009E-09, 29.9984, 2.7122200000000004E-10, -0.000377528, 25
DataValue, -6.6200000000000007E-09, 31.0008, 2.7128700000000003E-10, -0.00037783, 25
DataValue, -4.93E-09, 32.002, 2.7130100000000004E-10, -0.00037709600000000005, 25
DataValue, -2.43E-09, 33.0016, 2.71248E-10, -0.00037786300000000004, 25
DataValue, -6.16E-09, 34.0022, 2.71347E-10, -0.000377655, 25
DataValue, -4.68E-09, 35.001200000000004, 2.7130700000000004E-10, -0.00037694400000000004, 25
DataValue, -4.5400000000000005E-09, 35.999, 2.7132500000000004E-10, -0.000377369, 25
DataValue, -7.61E-09, 37.000800000000005, 2.71262E-10, -0.00037713700000000005, 25
DataValue, -7.1300000000000008E-09, 38, 2.71335E-10, -0.000377272, 25
DataValue, -7.0500000000000011E-09, 39.001200000000004, 2.7133700000000004E-10, -0.000377442, 25
DataValue, -4.4000000000000005E-09, 39.9974, 2.71213E-10, -0.00037719800000000003, 25
DataValue, -5.3600000000000005E-09, 40.9994, 2.71273E-10, -0.000377318, 25
DataValue, 8.6000000000000013E-10, 41.999, 2.7126400000000004E-10, -0.000377214, 25
DataValue, -2.0600000000000003E-09, 43.001200000000004, 2.71315E-10, -0.00037677900000000005, 25
DataValue, -6.2400000000000008E-09, 43.995400000000004, 2.71375E-10, -0.000377363, 25
DataValue, -3.5900000000000002E-09, 44.998200000000004, 2.7128900000000004E-10, -0.000376948, 25
DataValue, -6.8E-10, 45.9962, 2.71404E-10, -0.00037828700000000005, 25
DataValue, -8.13E-09, 47.0064, 2.71292E-10, -0.00037724400000000005, 25
DataValue, -4.9700000000000008E-09, 47.998400000000004, 2.7134200000000003E-10, -0.000377738, 25
DataValue, -5.5900000000000008E-09, 49.0002, 2.7132500000000004E-10, -0.000377597, 25
DataValue, -4.3200000000000008E-09, 49.999, 2.71332E-10, -0.000377417, 25