
SetupTitle, Cgs
ApplicationTest, Cgs, Public
TestParameter, Name, Memo, IntegTime, Frequency, OscLevel, Scale, Gate, VdBias, VdStart, VdStop, VdLinearStep, IdLimit, HoldTime, DelayTime, IdMinRange
TestParameter, Value, , SHORT, 1000000, 0.025, LINEAR, CMU1:MF	MFCMU, SMU6:HV	HVSMU, 0, 50, 1, 0.004, 1, 1, 10uA
DutParameter, Name, Polarity, Temp, YAxisCgsMin, YAxisCgsMax
DutParameter, Value, 1, 25, 1E-12, 5E-09
MetaData, TestRecord.EntryPoint, true
MetaData, TestRecord.RecordTime, 12/28/2020 10:07:21
MetaData, TestRecord.TestTarget, 
MetaData, TestRecord.IterationIndex, 13
MetaData, TestRecord.Preservation, true
MetaData, TestRecord.Flag, 
MetaData, TestRecord.Remarks, 
MetaData, TestRecord.LinkKey, 6f6aa4ac-9217-43f4-ba13-446fad582cb3
Dimension1, 51, 51, 51, 51, 51
Dimension2, 1, 1, 1, 1, 1
DataName, Ids, Vdrain, Cgs, G, Ta
DataValue, -1.42E-09, 0.0018000000000000002, 1.32962E-09, -0.00117416, 25
DataValue, -8.29E-09, 1.0048000000000001, 1.3297E-09, -0.00117493, 25
DataValue, -1.36E-09, 1.997, 1.3296E-09, -0.00117483, 25
DataValue, -6.2E-10, 2.9976000000000003, 1.32967E-09, -0.00117361, 25
DataValue, 1.2800000000000001E-09, 3.9962, 1.32966E-09, -0.0011748, 25
DataValue, -5.6300000000000006E-09, 5.0044, 1.32964E-09, -0.0011741100000000001, 25
DataValue, -5.3500000000000008E-09, 6.0024000000000006, 1.32949E-09, -0.00117474, 25
DataValue, -5.5600000000000007E-09, 6.9990000000000006, 1.32961E-09, -0.00117468, 25
DataValue, -6.8900000000000008E-09, 8.003400000000001, 1.32948E-09, -0.0011739300000000001, 25
DataValue, -9.37E-09, 9.007200000000001, 1.32964E-09, -0.00117356, 25
DataValue, -5.4800000000000009E-09, 10.0058, 1.32968E-09, -0.00117351, 25
DataValue, -2.6600000000000003E-09, 10.9946, 1.32943E-09, -0.00117395, 25
DataValue, -2.1500000000000002E-09, 11.998800000000001, 1.32956E-09, -0.00117451, 25
DataValue, -7.85E-09, 13.0092, 1.32946E-09, -0.00117318, 25
DataValue, -5.400000000000001E-10, 14.003, 1.32971E-09, -0.00117396, 25
DataValue, -2.4900000000000003E-09, 14.997, 1.32945E-09, -0.00117375, 25
DataValue, -1.0220000000000002E-08, 16.0026, 1.32956E-09, -0.00117353, 25
DataValue, 3.76E-09, 16.9942, 1.32931E-09, -0.00117424, 25
DataValue, -2.3700000000000003E-09, 18, 1.32919E-09, -0.00117314, 25
DataValue, -3.4300000000000004E-09, 18.9964, 1.32947E-09, -0.00117373, 25
DataValue, -6.470000000000001E-09, 20.005200000000002, 1.32942E-09, -0.00117425, 25
DataValue, -4.6600000000000009E-09, 21.000400000000003, 1.32952E-09, -0.0011748, 25
DataValue, -1.2E-10, 21.994600000000002, 1.32957E-09, -0.00117439, 25
DataValue, -7.500000000000001E-09, 22.998800000000003, 1.32943E-09, -0.00117399, 25
DataValue, -9.18E-09, 24.0054, 1.32939E-09, -0.0011730900000000001, 25
DataValue, 2.3000000000000003E-10, 24.9936, 1.3294E-09, -0.00117442, 25
DataValue, -4.3700000000000004E-09, 26.0002, 1.32966E-09, -0.00117442, 25
DataValue, -4.3600000000000007E-09, 27.0072, 1.3295E-09, -0.0011741100000000001, 25
DataValue, -2.94E-09, 28.0014, 1.3295E-09, -0.0011738, 25
DataValue, -8.870000000000001E-09, 29.004800000000003, 1.32949E-09, -0.0011734900000000001, 25
DataValue, -6E-11, 29.9964, 1.32937E-09, -0.0011734900000000001, 25
DataValue, -4.2200000000000007E-09, 31.000600000000002, 1.32958E-09, -0.00117269, 25
DataValue, -1.8900000000000003E-09, 32.0004, 1.3295E-09, -0.00117457, 25
DataValue, -5.13E-09, 33.008, 1.3295E-09, -0.00117385, 25
DataValue, 2.9500000000000004E-09, 33.9958, 1.32917E-09, -0.0011732700000000001, 25
DataValue, -4.5600000000000008E-09, 35.0032, 1.32964E-09, -0.00117321, 25
DataValue, 2.2000000000000003E-09, 35.9976, 1.32924E-09, -0.00117391, 25
DataValue, -2.3300000000000004E-09, 36.993, 1.32952E-09, -0.00117345, 25
DataValue, -3.7400000000000007E-09, 37.996, 1.32927E-09, -0.00117375, 25
DataValue, 1.4500000000000002E-09, 38.9968, 1.32935E-09, -0.00117388, 25
DataValue, -3.8000000000000003E-10, 40.001000000000005, 1.32937E-09, -0.00117362, 25
DataValue, -2.7E-09, 41.0018, 1.32948E-09, -0.00117261, 25
DataValue, -5.7600000000000008E-09, 41.9992, 1.32954E-09, -0.0011732000000000001, 25
DataValue, -5.9700000000000007E-09, 43.003, 1.32948E-09, -0.00117426, 25
DataValue, 2.22E-09, 44.0004, 1.32914E-09, -0.00117275, 25
DataValue, -1.3E-09, 44.998000000000005, 1.32937E-09, -0.00117434, 25
DataValue, -4.9800000000000006E-09, 45.9996, 1.32945E-09, -0.00117439, 25
DataValue, -3.2300000000000002E-09, 46.9998, 1.32955E-09, -0.00117208, 25
DataValue, -1.0100000000000001E-08, 48.0088, 1.32944E-09, -0.00117402, 25
DataValue, -6.6500000000000008E-09, 49.001000000000005, 1.32927E-09, -0.00117363, 25
DataValue, -2.0400000000000004E-09, 49.995200000000004, 1.32927E-09, -0.00117333, 25
SetupTitle, Cgs
PrimitiveTest, C-V Sweep
TestParameter, Channel.UnitTyp, CMU, SMU
TestParameter, Channel.Unit, Gate, VdBias
TestParameter, Channel.IName, , Ids
TestParameter, Channel.VName, VBias, Vdrain
TestParameter, Channel.Mode, , V
TestParameter, Channel.Func, CONST, VAR1
TestParameter, Channel.Index, 
TestParameter, Channel.Time, 
TestParameter, Measurement.Primary.Locus, Single
TestParameter, Measurement.Primary.Scale, Scale
TestParameter, Measurement.Primary.Start, VdStart*Polarity
TestParameter, Measurement.Primary.Stop, VdStop*Polarity
TestParameter, Measurement.Primary.Compliance, IdLimit
TestParameter, Measurement.Primary.Step, VdLinearStep*Polarity
TestParameter, Measurement.Aborting.Condition, CONTINUE AT ANY
TestParameter, Measurement.PostOutput.Value, START
TestParameter, Measurement.PostOutput.Retention, OFF
TestParameter, Measurement.Secondary.ACLevel, OscLevel
TestParameter, Measurement.Secondary.FName, Freq
TestParameter, Measurement.Secondary.Frequency, Frequency
TestParameter, Measurement.Bias.Source, 0, 0
TestParameter, Measurement.ImpedanceMode.Model, Cp-G
TestParameter, Measurement.ImpedanceMode.CName, Cgs
TestParameter, Measurement.ImpedanceMode.LName, L
TestParameter, Measurement.ImpedanceMode.GName, G
TestParameter, Measurement.ImpedanceMode.RName, R
TestParameter, Measurement.ImpedanceMode.QName, Q
TestParameter, Measurement.ImpedanceMode.DName, D
TestParameter, Measurement.ImpedanceMode.YName, Y
TestParameter, Measurement.ImpedanceMode.ZName, Z
TestParameter, Measurement.ImpedanceMode.ThName, Theta
TestParameter, Measurement.ImpedanceMode.BName, B
TestParameter, Measurement.ImpedanceMode.XName, X
TestParameter, Measurement.Monitor.Unit, CMU:=Gate, SMU:=VdBias
TestParameter, Measurement.Monitor.RangingMode, AUTO, LIMITED
TestParameter, Measurement.Monitor.RangeBoundary, 50, IdMinRange
TestParameter, Measurement.Monitor.AcMonitorSymbol, 
TestParameter, Measurement.Monitor.DcMonitorSymbol, 
TestParameter, Measurement.Timing.Hold, HoldTime
TestParameter, Measurement.Timing.Delay, DelayTime
TestParameter, Measurement.Adc.UnitType, Cmu, Smu
TestParameter, Measurement.Adc.HighResolution.Mode, IntegMode, IntegMode
TestParameter, Measurement.Adc.HighResolution.Coeff, AdcFactor, AdcFactor
TestParameter, Measurement.WaitTime.Source.Coeff, 1
TestParameter, Measurement.WaitTime.Source.Offset, 0
TestParameter, Measurement.WaitTime.Monitor.Coeff, 1
TestParameter, Measurement.WaitTime.Monitor.Offset, 0
TestParameter, Function.User.Name, Ta
TestParameter, Function.User.Unit, deg
TestParameter, Function.User.Definition, Temp
TestParameter, Output.Graph.Enabled, true
TestParameter, Output.Graph.AutoScaling, false
TestParameter, Output.Graph.XAxis.Data, Vdrain
TestParameter, Output.Graph.XAxis.Scale, ScaleStr
TestParameter, Output.Graph.XAxis.Left, VdStart*Polarity
TestParameter, Output.Graph.XAxis.Right, VdStop*Polarity
TestParameter, Output.Graph.XAxis.RunTimeAutoScale, false
TestParameter, Output.Graph.YAxis.Data, Cgs
TestParameter, Output.Graph.YAxis.Scale, Log
TestParameter, Output.Graph.YAxis.Bottom, YAxisCgsMin
TestParameter, Output.Graph.YAxis.Top, YAxisCgsMax
TestParameter, Output.Graph.YAxis.Group, 
TestParameter, Output.Graph.YAxis.RunTimeAutoScale, false
TestParameter, Output.List.Data, Vdrain, Cgs, Ids
TestParameter, Output.Scalar.Data, Ta
TestParameter, AutoAnalysis.Interpolation, true
TestParameter, AutoAnalysis.Line1.Enabled, false
TestParameter, AutoAnalysis.Line1.Type, 1
TestParameter, AutoAnalysis.Line1.Fix, True
TestParameter, AutoAnalysis.Line1.YAxis, 0
TestParameter, AutoAnalysis.Line1.Point1.Type, 0
TestParameter, AutoAnalysis.Line1.Point1.XY.X, 
TestParameter, AutoAnalysis.Line1.Point1.XY.Y, 
TestParameter, AutoAnalysis.Line1.Point1.Data.Var, 
TestParameter, AutoAnalysis.Line1.Point1.Data.Condition, 
TestParameter, AutoAnalysis.Line1.Point1.Data.Start, false
TestParameter, AutoAnalysis.Line1.Point1.Data.StartVar, 
TestParameter, AutoAnalysis.Line1.Point1.Data.StartCondition, 
TestParameter, AutoAnalysis.Line1.Point2.Type, 0
TestParameter, AutoAnalysis.Line1.Point2.XY.X, 
TestParameter, AutoAnalysis.Line1.Point2.XY.Y, 
TestParameter, AutoAnalysis.Line1.Point2.Data.Var, 
TestParameter, AutoAnalysis.Line1.Point2.Data.Condition, 
TestParameter, AutoAnalysis.Line1.Point2.Data.Start, false
TestParameter, AutoAnalysis.Line1.Point2.Data.StartVar, 
TestParameter, AutoAnalysis.Line1.Point2.Data.StartCondition, 
TestParameter, AutoAnalysis.Line1.GradientExpr, 0
TestParameter, AutoAnalysis.Line2.Enabled, false
TestParameter, AutoAnalysis.Line2.Type, 1
TestParameter, AutoAnalysis.Line2.Fix, True
TestParameter, AutoAnalysis.Line2.YAxis, 0
TestParameter, AutoAnalysis.Line2.Point1.Type, 0
TestParameter, AutoAnalysis.Line2.Point1.XY.X, 
TestParameter, AutoAnalysis.Line2.Point1.XY.Y, 
TestParameter, AutoAnalysis.Line2.Point1.Data.Var, 
TestParameter, AutoAnalysis.Line2.Point1.Data.Condition, 
TestParameter, AutoAnalysis.Line2.Point1.Data.Start, false
TestParameter, AutoAnalysis.Line2.Point1.Data.StartVar, 
TestParameter, AutoAnalysis.Line2.Point1.Data.StartCondition, 
TestParameter, AutoAnalysis.Line2.Point2.Type, 0
TestParameter, AutoAnalysis.Line2.Point2.XY.X, 
TestParameter, AutoAnalysis.Line2.Point2.XY.Y, 
TestParameter, AutoAnalysis.Line2.Point2.Data.Var, 
TestParameter, AutoAnalysis.Line2.Point2.Data.Condition, 
TestParameter, AutoAnalysis.Line2.Point2.Data.Start, false
TestParameter, AutoAnalysis.Line2.Point2.Data.StartVar, 
TestParameter, AutoAnalysis.Line2.Point2.Data.StartCondition, 
TestParameter, AutoAnalysis.Line2.GradientExpr, 0
TestParameter, AutoAnalysis.Marker.Enabled, false
TestParameter, AutoAnalysis.Marker.Data.Var, 
TestParameter, AutoAnalysis.Marker.Data.Condition, 
TestParameter, AutoAnalysis.Marker.Data.Start, false
TestParameter, AutoAnalysis.Marker.Data.StartVar, 
TestParameter, AutoAnalysis.Marker.Data.StartCondition, 
MetaData, TestRecord.EntryPoint, false
MetaData, TestRecord.RecordTime, 12/28/2020 10:07:21
MetaData, TestRecord.TestTarget, 
MetaData, TestRecord.IterationIndex, 13
MetaData, TestRecord.Preservation, true
MetaData, TestRecord.Flag, 
MetaData, TestRecord.Remarks, 
MetaData, TestRecord.LinkKey, 6f6aa4ac-9217-43f4-ba13-446fad582cb3
Dimension1, 51, 51, 51, 51, 51
Dimension2, 1, 1, 1, 1, 1
DataName, Ids, Vdrain, Cgs, G, Ta
DataValue, -1.42E-09, 0.0018000000000000002, 1.32962E-09, -0.00117416, 25
DataValue, -8.29E-09, 1.0048000000000001, 1.3297E-09, -0.00117493, 25
DataValue, -1.36E-09, 1.997, 1.3296E-09, -0.00117483, 25
DataValue, -6.2E-10, 2.9976000000000003, 1.32967E-09, -0.00117361, 25
DataValue, 1.2800000000000001E-09, 3.9962, 1.32966E-09, -0.0011748, 25
DataValue, -5.6300000000000006E-09, 5.0044, 1.32964E-09, -0.0011741100000000001, 25
DataValue, -5.3500000000000008E-09, 6.0024000000000006, 1.32949E-09, -0.00117474, 25
DataValue, -5.5600000000000007E-09, 6.9990000000000006, 1.32961E-09, -0.00117468, 25
DataValue, -6.8900000000000008E-09, 8.003400000000001, 1.32948E-09, -0.0011739300000000001, 25
DataValue, -9.37E-09, 9.007200000000001, 1.32964E-09, -0.00117356, 25
DataValue, -5.4800000000000009E-09, 10.0058, 1.32968E-09, -0.00117351, 25
DataValue, -2.6600000000000003E-09, 10.9946, 1.32943E-09, -0.00117395, 25
DataValue, -2.1500000000000002E-09, 11.998800000000001, 1.32956E-09, -0.00117451, 25
DataValue, -7.85E-09, 13.0092, 1.32946E-09, -0.00117318, 25
DataValue, -5.400000000000001E-10, 14.003, 1.32971E-09, -0.00117396, 25
DataValue, -2.4900000000000003E-09, 14.997, 1.32945E-09, -0.00117375, 25
DataValue, -1.0220000000000002E-08, 16.0026, 1.32956E-09, -0.00117353, 25
DataValue, 3.76E-09, 16.9942, 1.32931E-09, -0.00117424, 25
DataValue, -2.3700000000000003E-09, 18, 1.32919E-09, -0.00117314, 25
DataValue, -3.4300000000000004E-09, 18.9964, 1.32947E-09, -0.00117373, 25
DataValue, -6.470000000000001E-09, 20.005200000000002, 1.32942E-09, -0.00117425, 25
DataValue, -4.6600000000000009E-09, 21.000400000000003, 1.32952E-09, -0.0011748, 25
DataValue, -1.2E-10, 21.994600000000002, 1.32957E-09, -0.00117439, 25
DataValue, -7.500000000000001E-09, 22.998800000000003, 1.32943E-09, -0.00117399, 25
DataValue, -9.18E-09, 24.0054, 1.32939E-09, -0.0011730900000000001, 25
DataValue, 2.3000000000000003E-10, 24.9936, 1.3294E-09, -0.00117442, 25
DataValue, -4.3700000000000004E-09, 26.0002, 1.32966E-09, -0.00117442, 25
DataValue, -4.3600000000000007E-09, 27.0072, 1.3295E-09, -0.0011741100000000001, 25
DataValue, -2.94E-09, 28.0014, 1.3295E-09, -0.0011738, 25
DataValue, -8.870000000000001E-09, 29.004800000000003, 1.32949E-09, -0.0011734900000000001, 25
DataValue, -6E-11, 29.9964, 1.32937E-09, -0.0011734900000000001, 25
DataValue, -4.2200000000000007E-09, 31.000600000000002, 1.32958E-09, -0.00117269, 25
DataValue, -1.8900000000000003E-09, 32.0004, 1.3295E-09, -0.00117457, 25
DataValue, -5.13E-09, 33.008, 1.3295E-09, -0.00117385, 25
DataValue, 2.9500000000000004E-09, 33.9958, 1.32917E-09, -0.0011732700000000001, 25
DataValue, -4.5600000000000008E-09, 35.0032, 1.32964E-09, -0.00117321, 25
DataValue, 2.2000000000000003E-09, 35.9976, 1.32924E-09, -0.00117391, 25
DataValue, -2.3300000000000004E-09, 36.993, 1.32952E-09, -0.00117345, 25
DataValue, -3.7400000000000007E-09, 37.996, 1.32927E-09, -0.00117375, 25
DataValue, 1.4500000000000002E-09, 38.9968, 1.32935E-09, -0.00117388, 25
DataValue, -3.8000000000000003E-10, 40.001000000000005, 1.32937E-09, -0.00117362, 25
DataValue, -2.7E-09, 41.0018, 1.32948E-09, -0.00117261, 25
DataValue, -5.7600000000000008E-09, 41.9992, 1.32954E-09, -0.0011732000000000001, 25
DataValue, -5.9700000000000007E-09, 43.003, 1.32948E-09, -0.00117426, 25
DataValue, 2.22E-09, 44.0004, 1.32914E-09, -0.00117275, 25
DataValue, -1.3E-09, 44.998000000000005, 1.32937E-09, -0.00117434, 25
DataValue, -4.9800000000000006E-09, 45.9996, 1.32945E-09, -0.00117439, 25
DataValue, -3.2300000000000002E-09, 46.9998, 1.32955E-09, -0.00117208, 25
DataValue, -1.0100000000000001E-08, 48.0088, 1.32944E-09, -0.00117402, 25
DataValue, -6.6500000000000008E-09, 49.001000000000005, 1.32927E-09, -0.00117363, 25
DataValue, -2.0400000000000004E-09, 49.995200000000004, 1.32927E-09, -0.00117333, 25