
SetupTitle, Cgs
ApplicationTest, Cgs, Public
TestParameter, Name, Memo, IntegTime, Frequency, OscLevel, Scale, Gate, VdBias, VdStart, VdStop, VdLinearStep, IdLimit, HoldTime, DelayTime, IdMinRange
TestParameter, Value, , SHORT, 1000000, 0.025, LINEAR, CMU1:MF	MFCMU, SMU6:HV	HVSMU, 0, 50, 1, 0.004, 1, 1, 10uA
DutParameter, Name, Polarity, Temp, YAxisCgsMin, YAxisCgsMax
DutParameter, Value, 1, 25, 1E-12, 5E-09
MetaData, TestRecord.EntryPoint, true
MetaData, TestRecord.RecordTime, 12/28/2020 12:49:20
MetaData, TestRecord.TestTarget, 
MetaData, TestRecord.IterationIndex, 28
MetaData, TestRecord.Preservation, true
MetaData, TestRecord.Flag, 
MetaData, TestRecord.Remarks, 
MetaData, TestRecord.LinkKey, a9aca7a5-a24a-4749-9035-ea2daaae6e40
Dimension1, 51, 51, 51, 51, 51
Dimension2, 1, 1, 1, 1, 1
DataName, Ids, Vdrain, Cgs, G, Ta
DataValue, -5.3800000000000009E-09, -0.0014, 1.35107E-09, -0.00118186, 25
DataValue, -9.2600000000000015E-09, 1.0064, 1.35092E-09, -0.0011818900000000001, 25
DataValue, -1.95E-09, 1.999, 1.35093E-09, -0.00118347, 25
DataValue, -3.3100000000000004E-09, 2.9978000000000002, 1.35111E-09, -0.00118372, 25
DataValue, -7.0700000000000006E-09, 4.0040000000000004, 1.35107E-09, -0.00118357, 25
DataValue, 3.79E-09, 4.9938, 1.351E-09, -0.00118417, 25
DataValue, -2.94E-09, 5.9996, 1.35107E-09, -0.00118412, 25
DataValue, -8.940000000000001E-09, 7.0026, 1.35099E-09, -0.00118414, 25
DataValue, 1.8100000000000002E-09, 7.996, 1.35107E-09, -0.00118436, 25
DataValue, 2.67E-09, 8.9956, 1.35119E-09, -0.00118474, 25
DataValue, -6.67E-09, 9.9962, 1.351E-09, -0.00118387, 25
DataValue, -9.3300000000000015E-09, 11.009400000000001, 1.3511E-09, -0.0011842600000000001, 25
DataValue, -8.0900000000000016E-09, 12.0008, 1.3511E-09, -0.00118473, 25
DataValue, -4.8400000000000007E-09, 12.9992, 1.35109E-09, -0.00118433, 25
DataValue, -4.6000000000000007E-09, 14.004800000000001, 1.35113E-09, -0.00118409, 25
DataValue, -2.9700000000000003E-09, 15.0022, 1.35108E-09, -0.00118599, 25
DataValue, -5.68E-09, 16.0048, 1.3511E-09, -0.00118443, 25
DataValue, -4.3000000000000007E-10, 16.9982, 1.35119E-09, -0.00118428, 25
DataValue, -5.8300000000000008E-09, 18.0008, 1.35126E-09, -0.00118376, 25
DataValue, -1.0900000000000002E-09, 19.0016, 1.35127E-09, -0.00118557, 25
DataValue, -5.9300000000000008E-09, 20.0024, 1.35138E-09, -0.00118511, 25
DataValue, -9.58E-09, 21.0026, 1.35137E-09, -0.00118424, 25
DataValue, -5.1500000000000006E-09, 21.9982, 1.35131E-09, -0.00118536, 25
DataValue, -5.5300000000000005E-09, 23.0032, 1.35124E-09, -0.00118474, 25
DataValue, -6.230000000000001E-09, 24, 1.35145E-09, -0.0011850300000000001, 25
DataValue, -3.87E-09, 24.9982, 1.35135E-09, -0.00118529, 25
DataValue, -6.1000000000000009E-09, 26.001, 1.35147E-09, -0.00118478, 25
DataValue, -5.41E-09, 27.0056, 1.35145E-09, -0.00118537, 25
DataValue, -3.1400000000000003E-09, 27.998800000000003, 1.3514E-09, -0.00118595, 25
DataValue, -5.6000000000000005E-09, 28.9984, 1.3514E-09, -0.0011849900000000001, 25
DataValue, -1.2010000000000001E-08, 30.0054, 1.35136E-09, -0.00118472, 25
DataValue, -5.7700000000000005E-09, 31.0026, 1.35148E-09, -0.0011847000000000001, 25
DataValue, -8.3000000000000015E-09, 32.006, 1.35158E-09, -0.00118477, 25
DataValue, -6.1000000000000006E-10, 32.9964, 1.35138E-09, -0.0011855, 25
DataValue, -4.89E-09, 33.9994, 1.35154E-09, -0.0011854, 25
DataValue, -7.0300000000000007E-09, 35.001200000000004, 1.35138E-09, -0.0011860500000000001, 25
DataValue, -2.6200000000000005E-09, 35.9972, 1.35148E-09, -0.00118546, 25
DataValue, -3.37E-09, 37.0026, 1.35135E-09, -0.00118575, 25
DataValue, -3.06E-09, 37.9992, 1.35141E-09, -0.00118545, 25
DataValue, -9.300000000000001E-10, 38.9966, 1.3515E-09, -0.00118534, 25
DataValue, -3.97E-09, 40.003800000000005, 1.35149E-09, -0.00118545, 25
DataValue, -7.3800000000000006E-09, 41.0024, 1.35132E-09, -0.00118527, 25
DataValue, -5.17E-09, 42.004000000000005, 1.35141E-09, -0.00118445, 25
DataValue, -3.3600000000000004E-09, 42.994800000000005, 1.35147E-09, -0.0011864, 25
DataValue, -7.0700000000000006E-09, 44.0034, 1.35143E-09, -0.00118429, 25
DataValue, -1.8100000000000002E-09, 44.9964, 1.35152E-09, -0.00118591, 25
DataValue, -3.7200000000000004E-09, 45.9986, 1.35167E-09, -0.00118593, 25
DataValue, -1.92E-09, 46.9966, 1.35155E-09, -0.00118566, 25
DataValue, -5.78E-09, 48, 1.35149E-09, -0.0011857600000000001, 25
DataValue, -1.9600000000000003E-09, 48.9968, 1.35162E-09, -0.00118539, 25
DataValue, -2.46E-09, 49.9956, 1.35156E-09, -0.00118537, 25
SetupTitle, Cgs
PrimitiveTest, C-V Sweep
TestParameter, Channel.UnitTyp, CMU, SMU
TestParameter, Channel.Unit, Gate, VdBias
TestParameter, Channel.IName, , Ids
TestParameter, Channel.VName, VBias, Vdrain
TestParameter, Channel.Mode, , V
TestParameter, Channel.Func, CONST, VAR1
TestParameter, Channel.Index, 
TestParameter, Channel.Time, 
TestParameter, Measurement.Primary.Locus, Single
TestParameter, Measurement.Primary.Scale, Scale
TestParameter, Measurement.Primary.Start, VdStart*Polarity
TestParameter, Measurement.Primary.Stop, VdStop*Polarity
TestParameter, Measurement.Primary.Compliance, IdLimit
TestParameter, Measurement.Primary.Step, VdLinearStep*Polarity
TestParameter, Measurement.Aborting.Condition, CONTINUE AT ANY
TestParameter, Measurement.PostOutput.Value, START
TestParameter, Measurement.PostOutput.Retention, OFF
TestParameter, Measurement.Secondary.ACLevel, OscLevel
TestParameter, Measurement.Secondary.FName, Freq
TestParameter, Measurement.Secondary.Frequency, Frequency
TestParameter, Measurement.Bias.Source, 0, 0
TestParameter, Measurement.ImpedanceMode.Model, Cp-G
TestParameter, Measurement.ImpedanceMode.CName, Cgs
TestParameter, Measurement.ImpedanceMode.LName, L
TestParameter, Measurement.ImpedanceMode.GName, G
TestParameter, Measurement.ImpedanceMode.RName, R
TestParameter, Measurement.ImpedanceMode.QName, Q
TestParameter, Measurement.ImpedanceMode.DName, D
TestParameter, Measurement.ImpedanceMode.YName, Y
TestParameter, Measurement.ImpedanceMode.ZName, Z
TestParameter, Measurement.ImpedanceMode.ThName, Theta
TestParameter, Measurement.ImpedanceMode.BName, B
TestParameter, Measurement.ImpedanceMode.XName, X
TestParameter, Measurement.Monitor.Unit, CMU:=Gate, SMU:=VdBias
TestParameter, Measurement.Monitor.RangingMode, AUTO, LIMITED
TestParameter, Measurement.Monitor.RangeBoundary, 50, IdMinRange
TestParameter, Measurement.Monitor.AcMonitorSymbol, 
TestParameter, Measurement.Monitor.DcMonitorSymbol, 
TestParameter, Measurement.Timing.Hold, HoldTime
TestParameter, Measurement.Timing.Delay, DelayTime
TestParameter, Measurement.Adc.UnitType, Cmu, Smu
TestParameter, Measurement.Adc.HighResolution.Mode, IntegMode, IntegMode
TestParameter, Measurement.Adc.HighResolution.Coeff, AdcFactor, AdcFactor
TestParameter, Measurement.WaitTime.Source.Coeff, 1
TestParameter, Measurement.WaitTime.Source.Offset, 0
TestParameter, Measurement.WaitTime.Monitor.Coeff, 1
TestParameter, Measurement.WaitTime.Monitor.Offset, 0
TestParameter, Function.User.Name, Ta
TestParameter, Function.User.Unit, deg
TestParameter, Function.User.Definition, Temp
TestParameter, Output.Graph.Enabled, true
TestParameter, Output.Graph.AutoScaling, false
TestParameter, Output.Graph.XAxis.Data, Vdrain
TestParameter, Output.Graph.XAxis.Scale, ScaleStr
TestParameter, Output.Graph.XAxis.Left, VdStart*Polarity
TestParameter, Output.Graph.XAxis.Right, VdStop*Polarity
TestParameter, Output.Graph.XAxis.RunTimeAutoScale, false
TestParameter, Output.Graph.YAxis.Data, Cgs
TestParameter, Output.Graph.YAxis.Scale, Log
TestParameter, Output.Graph.YAxis.Bottom, YAxisCgsMin
TestParameter, Output.Graph.YAxis.Top, YAxisCgsMax
TestParameter, Output.Graph.YAxis.Group, 
TestParameter, Output.Graph.YAxis.RunTimeAutoScale, false
TestParameter, Output.List.Data, Vdrain, Cgs, Ids
TestParameter, Output.Scalar.Data, Ta
TestParameter, AutoAnalysis.Interpolation, true
TestParameter, AutoAnalysis.Line1.Enabled, false
TestParameter, AutoAnalysis.Line1.Type, 1
TestParameter, AutoAnalysis.Line1.Fix, True
TestParameter, AutoAnalysis.Line1.YAxis, 0
TestParameter, AutoAnalysis.Line1.Point1.Type, 0
TestParameter, AutoAnalysis.Line1.Point1.XY.X, 
TestParameter, AutoAnalysis.Line1.Point1.XY.Y, 
TestParameter, AutoAnalysis.Line1.Point1.Data.Var, 
TestParameter, AutoAnalysis.Line1.Point1.Data.Condition, 
TestParameter, AutoAnalysis.Line1.Point1.Data.Start, false
TestParameter, AutoAnalysis.Line1.Point1.Data.StartVar, 
TestParameter, AutoAnalysis.Line1.Point1.Data.StartCondition, 
TestParameter, AutoAnalysis.Line1.Point2.Type, 0
TestParameter, AutoAnalysis.Line1.Point2.XY.X, 
TestParameter, AutoAnalysis.Line1.Point2.XY.Y, 
TestParameter, AutoAnalysis.Line1.Point2.Data.Var, 
TestParameter, AutoAnalysis.Line1.Point2.Data.Condition, 
TestParameter, AutoAnalysis.Line1.Point2.Data.Start, false
TestParameter, AutoAnalysis.Line1.Point2.Data.StartVar, 
TestParameter, AutoAnalysis.Line1.Point2.Data.StartCondition, 
TestParameter, AutoAnalysis.Line1.GradientExpr, 0
TestParameter, AutoAnalysis.Line2.Enabled, false
TestParameter, AutoAnalysis.Line2.Type, 1
TestParameter, AutoAnalysis.Line2.Fix, True
TestParameter, AutoAnalysis.Line2.YAxis, 0
TestParameter, AutoAnalysis.Line2.Point1.Type, 0
TestParameter, AutoAnalysis.Line2.Point1.XY.X, 
TestParameter, AutoAnalysis.Line2.Point1.XY.Y, 
TestParameter, AutoAnalysis.Line2.Point1.Data.Var, 
TestParameter, AutoAnalysis.Line2.Point1.Data.Condition, 
TestParameter, AutoAnalysis.Line2.Point1.Data.Start, false
TestParameter, AutoAnalysis.Line2.Point1.Data.StartVar, 
TestParameter, AutoAnalysis.Line2.Point1.Data.StartCondition, 
TestParameter, AutoAnalysis.Line2.Point2.Type, 0
TestParameter, AutoAnalysis.Line2.Point2.XY.X, 
TestParameter, AutoAnalysis.Line2.Point2.XY.Y, 
TestParameter, AutoAnalysis.Line2.Point2.Data.Var, 
TestParameter, AutoAnalysis.Line2.Point2.Data.Condition, 
TestParameter, AutoAnalysis.Line2.Point2.Data.Start, false
TestParameter, AutoAnalysis.Line2.Point2.Data.StartVar, 
TestParameter, AutoAnalysis.Line2.Point2.Data.StartCondition, 
TestParameter, AutoAnalysis.Line2.GradientExpr, 0
TestParameter, AutoAnalysis.Marker.Enabled, false
TestParameter, AutoAnalysis.Marker.Data.Var, 
TestParameter, AutoAnalysis.Marker.Data.Condition, 
TestParameter, AutoAnalysis.Marker.Data.Start, false
TestParameter, AutoAnalysis.Marker.Data.StartVar, 
TestParameter, AutoAnalysis.Marker.Data.StartCondition, 
MetaData, TestRecord.EntryPoint, false
MetaData, TestRecord.RecordTime, 12/28/2020 12:49:20
MetaData, TestRecord.TestTarget, 
MetaData, TestRecord.IterationIndex, 28
MetaData, TestRecord.Preservation, true
MetaData, TestRecord.Flag, 
MetaData, TestRecord.Remarks, 
MetaData, TestRecord.LinkKey, a9aca7a5-a24a-4749-9035-ea2daaae6e40
Dimension1, 51, 51, 51, 51, 51
Dimension2, 1, 1, 1, 1, 1
DataName, Ids, Vdrain, Cgs, G, Ta
DataValue, -5.3800000000000009E-09, -0.0014, 1.35107E-09, -0.00118186, 25
DataValue, -9.2600000000000015E-09, 1.0064, 1.35092E-09, -0.0011818900000000001, 25
DataValue, -1.95E-09, 1.999, 1.35093E-09, -0.00118347, 25
DataValue, -3.3100000000000004E-09, 2.9978000000000002, 1.35111E-09, -0.00118372, 25
DataValue, -7.0700000000000006E-09, 4.0040000000000004, 1.35107E-09, -0.00118357, 25
DataValue, 3.79E-09, 4.9938, 1.351E-09, -0.00118417, 25
DataValue, -2.94E-09, 5.9996, 1.35107E-09, -0.00118412, 25
DataValue, -8.940000000000001E-09, 7.0026, 1.35099E-09, -0.00118414, 25
DataValue, 1.8100000000000002E-09, 7.996, 1.35107E-09, -0.00118436, 25
DataValue, 2.67E-09, 8.9956, 1.35119E-09, -0.00118474, 25
DataValue, -6.67E-09, 9.9962, 1.351E-09, -0.00118387, 25
DataValue, -9.3300000000000015E-09, 11.009400000000001, 1.3511E-09, -0.0011842600000000001, 25
DataValue, -8.0900000000000016E-09, 12.0008, 1.3511E-09, -0.00118473, 25
DataValue, -4.8400000000000007E-09, 12.9992, 1.35109E-09, -0.00118433, 25
DataValue, -4.6000000000000007E-09, 14.004800000000001, 1.35113E-09, -0.00118409, 25
DataValue, -2.9700000000000003E-09, 15.0022, 1.35108E-09, -0.00118599, 25
DataValue, -5.68E-09, 16.0048, 1.3511E-09, -0.00118443, 25
DataValue, -4.3000000000000007E-10, 16.9982, 1.35119E-09, -0.00118428, 25
DataValue, -5.8300000000000008E-09, 18.0008, 1.35126E-09, -0.00118376, 25
DataValue, -1.0900000000000002E-09, 19.0016, 1.35127E-09, -0.00118557, 25
DataValue, -5.9300000000000008E-09, 20.0024, 1.35138E-09, -0.00118511, 25
DataValue, -9.58E-09, 21.0026, 1.35137E-09, -0.00118424, 25
DataValue, -5.1500000000000006E-09, 21.9982, 1.35131E-09, -0.00118536, 25
DataValue, -5.5300000000000005E-09, 23.0032, 1.35124E-09, -0.00118474, 25
DataValue, -6.230000000000001E-09, 24, 1.35145E-09, -0.0011850300000000001, 25
DataValue, -3.87E-09, 24.9982, 1.35135E-09, -0.00118529, 25
DataValue, -6.1000000000000009E-09, 26.001, 1.35147E-09, -0.00118478, 25
DataValue, -5.41E-09, 27.0056, 1.35145E-09, -0.00118537, 25
DataValue, -3.1400000000000003E-09, 27.998800000000003, 1.3514E-09, -0.00118595, 25
DataValue, -5.6000000000000005E-09, 28.9984, 1.3514E-09, -0.0011849900000000001, 25
DataValue, -1.2010000000000001E-08, 30.0054, 1.35136E-09, -0.00118472, 25
DataValue, -5.7700000000000005E-09, 31.0026, 1.35148E-09, -0.0011847000000000001, 25
DataValue, -8.3000000000000015E-09, 32.006, 1.35158E-09, -0.00118477, 25
DataValue, -6.1000000000000006E-10, 32.9964, 1.35138E-09, -0.0011855, 25
DataValue, -4.89E-09, 33.9994, 1.35154E-09, -0.0011854, 25
DataValue, -7.0300000000000007E-09, 35.001200000000004, 1.35138E-09, -0.0011860500000000001, 25
DataValue, -2.6200000000000005E-09, 35.9972, 1.35148E-09, -0.00118546, 25
DataValue, -3.37E-09, 37.0026, 1.35135E-09, -0.00118575, 25
DataValue, -3.06E-09, 37.9992, 1.35141E-09, -0.00118545, 25
DataValue, -9.300000000000001E-10, 38.9966, 1.3515E-09, -0.00118534, 25
DataValue, -3.97E-09, 40.003800000000005, 1.35149E-09, -0.00118545, 25
DataValue, -7.3800000000000006E-09, 41.0024, 1.35132E-09, -0.00118527, 25
DataValue, -5.17E-09, 42.004000000000005, 1.35141E-09, -0.00118445, 25
DataValue, -3.3600000000000004E-09, 42.994800000000005, 1.35147E-09, -0.0011864, 25
DataValue, -7.0700000000000006E-09, 44.0034, 1.35143E-09, -0.00118429, 25
DataValue, -1.8100000000000002E-09, 44.9964, 1.35152E-09, -0.00118591, 25
DataValue, -3.7200000000000004E-09, 45.9986, 1.35167E-09, -0.00118593, 25
DataValue, -1.92E-09, 46.9966, 1.35155E-09, -0.00118566, 25
DataValue, -5.78E-09, 48, 1.35149E-09, -0.0011857600000000001, 25
DataValue, -1.9600000000000003E-09, 48.9968, 1.35162E-09, -0.00118539, 25
DataValue, -2.46E-09, 49.9956, 1.35156E-09, -0.00118537, 25