
SetupTitle, Cgs
ApplicationTest, Cgs, Public
TestParameter, Name, Memo, IntegTime, Frequency, OscLevel, Scale, Gate, VdBias, VdStart, VdStop, VdLinearStep, IdLimit, HoldTime, DelayTime, IdMinRange
TestParameter, Value, , SHORT, 1000000, 0.025, LINEAR, CMU1:MF	MFCMU, SMU6:HV	HVSMU, 0, 600, 10, 0.004, 1, 1, 10uA
DutParameter, Name, Polarity, Temp, YAxisCgsMin, YAxisCgsMax
DutParameter, Value, 1, 25, 1E-12, 5E-09
MetaData, TestRecord.EntryPoint, true
MetaData, TestRecord.RecordTime, 04/23/2021 15:00:18
MetaData, TestRecord.TestTarget, 
MetaData, TestRecord.IterationIndex, 36
MetaData, TestRecord.Preservation, true
MetaData, TestRecord.Flag, 
MetaData, TestRecord.Remarks, 
MetaData, TestRecord.LinkKey, 49e2a22d-5eb3-488f-883a-8f0924090b8d
Dimension1, 61, 61, 61, 61, 61
Dimension2, 1, 1, 1, 1, 1
DataName, Ids, Vdrain, Cgs, G, Ta
DataValue, 1.3400000000000001E-09, -0.003, 4.10844E-09, -0.00555252, 25
DataValue, -7.0000000000000006E-09, 10.0005, 4.10746E-09, -0.0055495200000000005, 25
DataValue, 1.4E-10, 19.995, 4.10825E-09, -0.00555018, 25
DataValue, -1.7E-10, 29.997, 4.10819E-09, -0.00554214, 25
DataValue, -3.3600000000000004E-09, 39.999, 4.10714E-09, -0.00554624, 25
DataValue, -6.9200000000000009E-09, 49.998, 4.10724E-09, -0.00554755, 25
DataValue, -7.4000000000000009E-09, 60.0045, 4.10643E-09, -0.00554448, 25
DataValue, -4.68E-09, 70.0005, 4.10724E-09, -0.00554421, 25
DataValue, -9.23E-09, 80.007, 4.10655E-09, -0.0055496600000000005, 25
DataValue, -5.23E-09, 90.003, 4.1082E-09, -0.00554597, 25
DataValue, -4.9100000000000006E-09, 100.0035, 4.10694E-09, -0.00554625, 25
DataValue, -4.3000000000000007E-10, 110.001, 4.10801E-09, -0.0055454300000000005, 25
DataValue, -8.7E-09, 119.997, 4.10699E-09, -0.0055420800000000004, 25
DataValue, -3.5900000000000002E-09, 130.00050000000002, 4.1071E-09, -0.00554228, 25
DataValue, -8.5000000000000006E-10, 140.001, 4.10699E-09, -0.00554283, 25
DataValue, -4.55E-09, 150, 4.107E-09, -0.00554767, 25
DataValue, -6.4200000000000006E-09, 159.999, 4.10695E-09, -0.00554381, 25
DataValue, -1.8000000000000002E-09, 169.9995, 4.1066E-09, -0.00554666, 25
DataValue, -2.4900000000000003E-09, 179.997, 4.10686E-09, -0.00554545, 25
DataValue, -3.1500000000000005E-09, 189.999, 4.10707E-09, -0.00554854, 25
DataValue, 7.500000000000001E-10, 199.998, 4.10536E-09, -0.00554361, 25
DataValue, -4.6300000000000008E-09, 210, 4.10667E-09, -0.00554751, 25
DataValue, 4.0900000000000006E-09, 219.996, 4.10612E-09, -0.00555058, 25
DataValue, 2.8300000000000004E-09, 229.995, 4.10612E-09, -0.00554731, 25
DataValue, -4.5300000000000007E-09, 240.0015, 4.10632E-09, -0.00554679, 25
DataValue, -4.5700000000000006E-09, 250.00050000000002, 4.10648E-09, -0.00554699, 25
DataValue, -4.2200000000000007E-09, 260.00100000000003, 4.10671E-09, -0.00554845, 25
DataValue, 2.5E-10, 270, 4.10686E-09, -0.0055466000000000005, 25
DataValue, -6.2000000000000009E-09, 279.999, 4.10603E-09, -0.00554888, 25
DataValue, 6.0800000000000005E-09, 289.9935, 4.10585E-09, -0.00554548, 25
DataValue, 4.07E-09, 299.9955, 4.1065E-09, -0.00554449, 25
DataValue, -9.84E-09, 310.005, 4.10599E-09, -0.00554827, 25
DataValue, -4.82E-09, 319.9965, 4.1065E-09, -0.00554687, 25
DataValue, -4.52E-09, 330.0015, 4.10516E-09, -0.0055472, 25
DataValue, -8.5700000000000016E-09, 340.0005, 4.10619E-09, -0.00554409, 25
DataValue, -4.1300000000000004E-09, 350.004, 4.10615E-09, -0.00554463, 25
DataValue, -7.1100000000000005E-09, 359.9955, 4.10675E-09, -0.00554536, 25
DataValue, -5.0100000000000007E-09, 369.9975, 4.10571E-09, -0.0055454400000000004, 25
DataValue, -3.9900000000000005E-09, 380.00100000000003, 4.10601E-09, -0.00554592, 25
DataValue, -3.9E-09, 389.99850000000004, 4.10666E-09, -0.0055432, 25
DataValue, 5.4800000000000009E-09, 399.9975, 4.1053E-09, -0.00554918, 25
DataValue, -3.7500000000000005E-09, 410.00100000000003, 4.10625E-09, -0.00554714, 25
DataValue, -1.8900000000000003E-09, 420.0015, 4.1055E-09, -0.00554636, 25
DataValue, 1.0000000000000001E-11, 430.002, 4.10582E-09, -0.00554698, 25
DataValue, 2.5E-10, 439.9965, 4.10499E-09, -0.0055434, 25
DataValue, 2.8000000000000003E-09, 449.997, 4.10478E-09, -0.00554284, 25
DataValue, -6.600000000000001E-10, 459.999, 4.10582E-09, -0.00554691, 25
DataValue, -2.7300000000000003E-09, 469.998, 4.10683E-09, -0.00554639, 25
DataValue, -7.8900000000000015E-09, 480.003, 4.10551E-09, -0.00554619, 25
DataValue, 2.7300000000000003E-09, 489.999, 4.10491E-09, -0.0055509900000000004, 25
DataValue, -5.3E-09, 499.998, 4.10545E-09, -0.00554661, 25
DataValue, -2.22E-09, 510, 4.10517E-09, -0.00554516, 25
DataValue, -1.068E-08, 520.00200000000007, 4.10499E-09, -0.00554489, 25
DataValue, -3.94E-09, 530.004, 4.1047E-09, -0.00554556, 25
DataValue, -3.2700000000000005E-09, 539.9985, 4.1053E-09, -0.00554315, 25
DataValue, 7.2400000000000006E-09, 549.996, 4.10493E-09, -0.00554385, 25
DataValue, 1.0300000000000002E-09, 559.9965, 4.1046E-09, -0.005544, 25
DataValue, -4.35E-09, 569.9985, 4.10446E-09, -0.0055488, 25
DataValue, -8.6500000000000014E-09, 579.99750000000006, 4.10443E-09, -0.0055460100000000005, 25
DataValue, -4.0500000000000007E-09, 589.995, 4.10506E-09, -0.00554697, 25
DataValue, 1.7900000000000002E-09, 599.997, 4.10458E-09, -0.0055457300000000005, 25
SetupTitle, Cgs
PrimitiveTest, C-V Sweep
TestParameter, Channel.UnitTyp, CMU, SMU
TestParameter, Channel.Unit, Gate, VdBias
TestParameter, Channel.IName, , Ids
TestParameter, Channel.VName, VBias, Vdrain
TestParameter, Channel.Mode, , V
TestParameter, Channel.Func, CONST, VAR1
TestParameter, Channel.Index, 
TestParameter, Channel.Time, 
TestParameter, Measurement.Primary.Locus, Single
TestParameter, Measurement.Primary.Scale, Scale
TestParameter, Measurement.Primary.Start, VdStart*Polarity
TestParameter, Measurement.Primary.Stop, VdStop*Polarity
TestParameter, Measurement.Primary.Compliance, IdLimit
TestParameter, Measurement.Primary.Step, VdLinearStep*Polarity
TestParameter, Measurement.Aborting.Condition, CONTINUE AT ANY
TestParameter, Measurement.PostOutput.Value, START
TestParameter, Measurement.PostOutput.Retention, OFF
TestParameter, Measurement.Secondary.ACLevel, OscLevel
TestParameter, Measurement.Secondary.FName, Freq
TestParameter, Measurement.Secondary.Frequency, Frequency
TestParameter, Measurement.Bias.Source, 0, 0
TestParameter, Measurement.ImpedanceMode.Model, Cp-G
TestParameter, Measurement.ImpedanceMode.CName, Cgs
TestParameter, Measurement.ImpedanceMode.LName, L
TestParameter, Measurement.ImpedanceMode.GName, G
TestParameter, Measurement.ImpedanceMode.RName, R
TestParameter, Measurement.ImpedanceMode.QName, Q
TestParameter, Measurement.ImpedanceMode.DName, D
TestParameter, Measurement.ImpedanceMode.YName, Y
TestParameter, Measurement.ImpedanceMode.ZName, Z
TestParameter, Measurement.ImpedanceMode.ThName, Theta
TestParameter, Measurement.ImpedanceMode.BName, B
TestParameter, Measurement.ImpedanceMode.XName, X
TestParameter, Measurement.Monitor.Unit, CMU:=Gate, SMU:=VdBias
TestParameter, Measurement.Monitor.RangingMode, AUTO, LIMITED
TestParameter, Measurement.Monitor.RangeBoundary, 50, IdMinRange
TestParameter, Measurement.Monitor.AcMonitorSymbol, 
TestParameter, Measurement.Monitor.DcMonitorSymbol, 
TestParameter, Measurement.Timing.Hold, HoldTime
TestParameter, Measurement.Timing.Delay, DelayTime
TestParameter, Measurement.Adc.UnitType, Cmu, Smu
TestParameter, Measurement.Adc.HighResolution.Mode, IntegMode, IntegMode
TestParameter, Measurement.Adc.HighResolution.Coeff, AdcFactor, AdcFactor
TestParameter, Measurement.WaitTime.Source.Coeff, 1
TestParameter, Measurement.WaitTime.Source.Offset, 0
TestParameter, Measurement.WaitTime.Monitor.Coeff, 1
TestParameter, Measurement.WaitTime.Monitor.Offset, 0
TestParameter, Function.User.Name, Ta
TestParameter, Function.User.Unit, deg
TestParameter, Function.User.Definition, Temp
TestParameter, Output.Graph.Enabled, true
TestParameter, Output.Graph.AutoScaling, false
TestParameter, Output.Graph.XAxis.Data, Vdrain
TestParameter, Output.Graph.XAxis.Scale, ScaleStr
TestParameter, Output.Graph.XAxis.Left, VdStart*Polarity
TestParameter, Output.Graph.XAxis.Right, VdStop*Polarity
TestParameter, Output.Graph.XAxis.RunTimeAutoScale, false
TestParameter, Output.Graph.YAxis.Data, Cgs
TestParameter, Output.Graph.YAxis.Scale, Log
TestParameter, Output.Graph.YAxis.Bottom, YAxisCgsMin
TestParameter, Output.Graph.YAxis.Top, YAxisCgsMax
TestParameter, Output.Graph.YAxis.Group, 
TestParameter, Output.Graph.YAxis.RunTimeAutoScale, false
TestParameter, Output.List.Data, Vdrain, Cgs, Ids
TestParameter, Output.Scalar.Data, Ta
TestParameter, AutoAnalysis.Interpolation, true
TestParameter, AutoAnalysis.Line1.Enabled, false
TestParameter, AutoAnalysis.Line1.Type, 1
TestParameter, AutoAnalysis.Line1.Fix, True
TestParameter, AutoAnalysis.Line1.YAxis, 0
TestParameter, AutoAnalysis.Line1.Point1.Type, 0
TestParameter, AutoAnalysis.Line1.Point1.XY.X, 
TestParameter, AutoAnalysis.Line1.Point1.XY.Y, 
TestParameter, AutoAnalysis.Line1.Point1.Data.Var, 
TestParameter, AutoAnalysis.Line1.Point1.Data.Condition, 
TestParameter, AutoAnalysis.Line1.Point1.Data.Start, false
TestParameter, AutoAnalysis.Line1.Point1.Data.StartVar, 
TestParameter, AutoAnalysis.Line1.Point1.Data.StartCondition, 
TestParameter, AutoAnalysis.Line1.Point2.Type, 0
TestParameter, AutoAnalysis.Line1.Point2.XY.X, 
TestParameter, AutoAnalysis.Line1.Point2.XY.Y, 
TestParameter, AutoAnalysis.Line1.Point2.Data.Var, 
TestParameter, AutoAnalysis.Line1.Point2.Data.Condition, 
TestParameter, AutoAnalysis.Line1.Point2.Data.Start, false
TestParameter, AutoAnalysis.Line1.Point2.Data.StartVar, 
TestParameter, AutoAnalysis.Line1.Point2.Data.StartCondition, 
TestParameter, AutoAnalysis.Line1.GradientExpr, 0
TestParameter, AutoAnalysis.Line2.Enabled, false
TestParameter, AutoAnalysis.Line2.Type, 1
TestParameter, AutoAnalysis.Line2.Fix, True
TestParameter, AutoAnalysis.Line2.YAxis, 0
TestParameter, AutoAnalysis.Line2.Point1.Type, 0
TestParameter, AutoAnalysis.Line2.Point1.XY.X, 
TestParameter, AutoAnalysis.Line2.Point1.XY.Y, 
TestParameter, AutoAnalysis.Line2.Point1.Data.Var, 
TestParameter, AutoAnalysis.Line2.Point1.Data.Condition, 
TestParameter, AutoAnalysis.Line2.Point1.Data.Start, false
TestParameter, AutoAnalysis.Line2.Point1.Data.StartVar, 
TestParameter, AutoAnalysis.Line2.Point1.Data.StartCondition, 
TestParameter, AutoAnalysis.Line2.Point2.Type, 0
TestParameter, AutoAnalysis.Line2.Point2.XY.X, 
TestParameter, AutoAnalysis.Line2.Point2.XY.Y, 
TestParameter, AutoAnalysis.Line2.Point2.Data.Var, 
TestParameter, AutoAnalysis.Line2.Point2.Data.Condition, 
TestParameter, AutoAnalysis.Line2.Point2.Data.Start, false
TestParameter, AutoAnalysis.Line2.Point2.Data.StartVar, 
TestParameter, AutoAnalysis.Line2.Point2.Data.StartCondition, 
TestParameter, AutoAnalysis.Line2.GradientExpr, 0
TestParameter, AutoAnalysis.Marker.Enabled, false
TestParameter, AutoAnalysis.Marker.Data.Var, 
TestParameter, AutoAnalysis.Marker.Data.Condition, 
TestParameter, AutoAnalysis.Marker.Data.Start, false
TestParameter, AutoAnalysis.Marker.Data.StartVar, 
TestParameter, AutoAnalysis.Marker.Data.StartCondition, 
MetaData, TestRecord.EntryPoint, false
MetaData, TestRecord.RecordTime, 04/23/2021 15:00:18
MetaData, TestRecord.TestTarget, 
MetaData, TestRecord.IterationIndex, 36
MetaData, TestRecord.Preservation, true
MetaData, TestRecord.Flag, 
MetaData, TestRecord.Remarks, 
MetaData, TestRecord.LinkKey, 49e2a22d-5eb3-488f-883a-8f0924090b8d
Dimension1, 61, 61, 61, 61, 61
Dimension2, 1, 1, 1, 1, 1
DataName, Ids, Vdrain, Cgs, G, Ta
DataValue, 1.3400000000000001E-09, -0.003, 4.10844E-09, -0.00555252, 25
DataValue, -7.0000000000000006E-09, 10.0005, 4.10746E-09, -0.0055495200000000005, 25
DataValue, 1.4E-10, 19.995, 4.10825E-09, -0.00555018, 25
DataValue, -1.7E-10, 29.997, 4.10819E-09, -0.00554214, 25
DataValue, -3.3600000000000004E-09, 39.999, 4.10714E-09, -0.00554624, 25
DataValue, -6.9200000000000009E-09, 49.998, 4.10724E-09, -0.00554755, 25
DataValue, -7.4000000000000009E-09, 60.0045, 4.10643E-09, -0.00554448, 25
DataValue, -4.68E-09, 70.0005, 4.10724E-09, -0.00554421, 25
DataValue, -9.23E-09, 80.007, 4.10655E-09, -0.0055496600000000005, 25
DataValue, -5.23E-09, 90.003, 4.1082E-09, -0.00554597, 25
DataValue, -4.9100000000000006E-09, 100.0035, 4.10694E-09, -0.00554625, 25
DataValue, -4.3000000000000007E-10, 110.001, 4.10801E-09, -0.0055454300000000005, 25
DataValue, -8.7E-09, 119.997, 4.10699E-09, -0.0055420800000000004, 25
DataValue, -3.5900000000000002E-09, 130.00050000000002, 4.1071E-09, -0.00554228, 25
DataValue, -8.5000000000000006E-10, 140.001, 4.10699E-09, -0.00554283, 25
DataValue, -4.55E-09, 150, 4.107E-09, -0.00554767, 25
DataValue, -6.4200000000000006E-09, 159.999, 4.10695E-09, -0.00554381, 25
DataValue, -1.8000000000000002E-09, 169.9995, 4.1066E-09, -0.00554666, 25
DataValue, -2.4900000000000003E-09, 179.997, 4.10686E-09, -0.00554545, 25
DataValue, -3.1500000000000005E-09, 189.999, 4.10707E-09, -0.00554854, 25
DataValue, 7.500000000000001E-10, 199.998, 4.10536E-09, -0.00554361, 25
DataValue, -4.6300000000000008E-09, 210, 4.10667E-09, -0.00554751, 25
DataValue, 4.0900000000000006E-09, 219.996, 4.10612E-09, -0.00555058, 25
DataValue, 2.8300000000000004E-09, 229.995, 4.10612E-09, -0.00554731, 25
DataValue, -4.5300000000000007E-09, 240.0015, 4.10632E-09, -0.00554679, 25
DataValue, -4.5700000000000006E-09, 250.00050000000002, 4.10648E-09, -0.00554699, 25
DataValue, -4.2200000000000007E-09, 260.00100000000003, 4.10671E-09, -0.00554845, 25
DataValue, 2.5E-10, 270, 4.10686E-09, -0.0055466000000000005, 25
DataValue, -6.2000000000000009E-09, 279.999, 4.10603E-09, -0.00554888, 25
DataValue, 6.0800000000000005E-09, 289.9935, 4.10585E-09, -0.00554548, 25
DataValue, 4.07E-09, 299.9955, 4.1065E-09, -0.00554449, 25
DataValue, -9.84E-09, 310.005, 4.10599E-09, -0.00554827, 25
DataValue, -4.82E-09, 319.9965, 4.1065E-09, -0.00554687, 25
DataValue, -4.52E-09, 330.0015, 4.10516E-09, -0.0055472, 25
DataValue, -8.5700000000000016E-09, 340.0005, 4.10619E-09, -0.00554409, 25
DataValue, -4.1300000000000004E-09, 350.004, 4.10615E-09, -0.00554463, 25
DataValue, -7.1100000000000005E-09, 359.9955, 4.10675E-09, -0.00554536, 25
DataValue, -5.0100000000000007E-09, 369.9975, 4.10571E-09, -0.0055454400000000004, 25
DataValue, -3.9900000000000005E-09, 380.00100000000003, 4.10601E-09, -0.00554592, 25
DataValue, -3.9E-09, 389.99850000000004, 4.10666E-09, -0.0055432, 25
DataValue, 5.4800000000000009E-09, 399.9975, 4.1053E-09, -0.00554918, 25
DataValue, -3.7500000000000005E-09, 410.00100000000003, 4.10625E-09, -0.00554714, 25
DataValue, -1.8900000000000003E-09, 420.0015, 4.1055E-09, -0.00554636, 25
DataValue, 1.0000000000000001E-11, 430.002, 4.10582E-09, -0.00554698, 25
DataValue, 2.5E-10, 439.9965, 4.10499E-09, -0.0055434, 25
DataValue, 2.8000000000000003E-09, 449.997, 4.10478E-09, -0.00554284, 25
DataValue, -6.600000000000001E-10, 459.999, 4.10582E-09, -0.00554691, 25
DataValue, -2.7300000000000003E-09, 469.998, 4.10683E-09, -0.00554639, 25
DataValue, -7.8900000000000015E-09, 480.003, 4.10551E-09, -0.00554619, 25
DataValue, 2.7300000000000003E-09, 489.999, 4.10491E-09, -0.0055509900000000004, 25
DataValue, -5.3E-09, 499.998, 4.10545E-09, -0.00554661, 25
DataValue, -2.22E-09, 510, 4.10517E-09, -0.00554516, 25
DataValue, -1.068E-08, 520.00200000000007, 4.10499E-09, -0.00554489, 25
DataValue, -3.94E-09, 530.004, 4.1047E-09, -0.00554556, 25
DataValue, -3.2700000000000005E-09, 539.9985, 4.1053E-09, -0.00554315, 25
DataValue, 7.2400000000000006E-09, 549.996, 4.10493E-09, -0.00554385, 25
DataValue, 1.0300000000000002E-09, 559.9965, 4.1046E-09, -0.005544, 25
DataValue, -4.35E-09, 569.9985, 4.10446E-09, -0.0055488, 25
DataValue, -8.6500000000000014E-09, 579.99750000000006, 4.10443E-09, -0.0055460100000000005, 25
DataValue, -4.0500000000000007E-09, 589.995, 4.10506E-09, -0.00554697, 25
DataValue, 1.7900000000000002E-09, 599.997, 4.10458E-09, -0.0055457300000000005, 25