
SetupTitle, Cgs
ApplicationTest, Cgs, Public
TestParameter, Name, Memo, IntegTime, Frequency, OscLevel, Scale, Gate, VdBias, VdStart, VdStop, VdLinearStep, IdLimit, HoldTime, DelayTime, IdMinRange
TestParameter, Value, , SHORT, 1000000, 0.025, LINEAR, CMU1:MF	MFCMU, SMU6:HV	HVSMU, 0, 50, 1, 0.004, 1, 1, 10uA
DutParameter, Name, Polarity, Temp, YAxisCgsMin, YAxisCgsMax
DutParameter, Value, 1, 25, 1E-12, 5E-09
MetaData, TestRecord.EntryPoint, true
MetaData, TestRecord.RecordTime, 12/28/2020 12:21:00
MetaData, TestRecord.TestTarget, 
MetaData, TestRecord.IterationIndex, 25
MetaData, TestRecord.Preservation, true
MetaData, TestRecord.Flag, 
MetaData, TestRecord.Remarks, 
MetaData, TestRecord.LinkKey, c57b2cfe-eb1d-4617-8e11-76a7c5de2809
Dimension1, 51, 51, 51, 51, 51
Dimension2, 1, 1, 1, 1, 1
DataName, Ids, Vdrain, Cgs, G, Ta
DataValue, -3.6500000000000004E-09, 0.0042000000000000006, 1.35867E-09, -0.00121284, 25
DataValue, -4.0200000000000006E-09, 0.9926, 1.35851E-09, -0.00121151, 25
DataValue, 4.8800000000000005E-09, 2.0008, 1.35842E-09, -0.00121242, 25
DataValue, -9.3E-09, 3.0058000000000002, 1.35848E-09, -0.00121177, 25
DataValue, -1.18E-09, 3.9964000000000004, 1.35837E-09, -0.00121105, 25
DataValue, -5.1800000000000007E-09, 5.001, 1.35859E-09, -0.00121138, 25
DataValue, -4.65E-09, 6.0008, 1.35823E-09, -0.00121153, 25
DataValue, -4.18E-09, 7.0004, 1.35854E-09, -0.00121203, 25
DataValue, -5.78E-09, 7.996, 1.35827E-09, -0.00121098, 25
DataValue, -2.4000000000000004E-09, 8.9956, 1.35838E-09, -0.00121242, 25
DataValue, -8.0000000000000013E-10, 9.999, 1.35841E-09, -0.00121217, 25
DataValue, -4.68E-09, 11.003400000000001, 1.3584E-09, -0.00121312, 25
DataValue, -3.8500000000000006E-09, 12.0014, 1.35828E-09, -0.00121257, 25
DataValue, -6.8800000000000011E-09, 12.998000000000001, 1.35829E-09, -0.00121264, 25
DataValue, -5.03E-09, 14.0022, 1.35826E-09, -0.00121317, 25
DataValue, -2.6000000000000003E-10, 14.996, 1.35829E-09, -0.00121286, 25
DataValue, -9.8000000000000013E-10, 16.000600000000002, 1.35802E-09, -0.00121114, 25
DataValue, -4.82E-09, 17.0018, 1.35815E-09, -0.00121178, 25
DataValue, -1.9400000000000003E-09, 18.0012, 1.35809E-09, -0.00121244, 25
DataValue, 2.7600000000000004E-09, 18.9986, 1.35805E-09, -0.00121238, 25
DataValue, -7.53E-09, 20.0054, 1.35803E-09, -0.00121196, 25
DataValue, -3.2300000000000002E-09, 20.9956, 1.35809E-09, -0.00121232, 25
DataValue, -5.4200000000000007E-09, 22.004, 1.35812E-09, -0.00121449, 25
DataValue, -2.9200000000000003E-09, 23.0002, 1.35801E-09, -0.00121244, 25
DataValue, -3.3500000000000002E-09, 24.001, 1.3579799999999999E-09, -0.00121257, 25
DataValue, -2.36E-09, 25.001, 1.35775E-09, -0.00121289, 25
DataValue, -5.5600000000000007E-09, 26.0028, 1.35783E-09, -0.00121196, 25
DataValue, -5.1500000000000006E-09, 27.0008, 1.35788E-09, -0.0012125600000000001, 25
DataValue, -3.6900000000000003E-09, 27.995800000000003, 1.35779E-09, -0.00121208, 25
DataValue, -7.260000000000001E-09, 29.0008, 1.35783E-09, -0.0012122300000000001, 25
DataValue, -3.0000000000000004E-09, 29.998800000000003, 1.35771E-09, -0.00121214, 25
DataValue, 6.4000000000000006E-10, 30.992800000000003, 1.35772E-09, -0.00121355, 25
DataValue, -2.3300000000000004E-09, 31.995600000000003, 1.35782E-09, -0.00121218, 25
DataValue, -8.9100000000000017E-09, 33.0056, 1.35787E-09, -0.00121204, 25
DataValue, -8.390000000000001E-09, 33.9998, 1.35782E-09, -0.00121206, 25
DataValue, -5.7300000000000007E-09, 34.9998, 1.35793E-09, -0.00121237, 25
DataValue, -1.36E-09, 36.0016, 1.35791E-09, -0.00121303, 25
DataValue, -3.93E-09, 37.0062, 1.35783E-09, -0.00121132, 25
DataValue, -7.6900000000000014E-09, 38.0066, 1.35772E-09, -0.00121328, 25
DataValue, 2.55E-09, 38.993, 1.35788E-09, -0.00121297, 25
DataValue, -1.0930000000000001E-08, 40.0082, 1.35771E-09, -0.00121258, 25
DataValue, 2.38E-09, 40.9898, 1.35766E-09, -0.00121265, 25
DataValue, 3.4E-10, 41.9986, 1.3578E-09, -0.00121286, 25
DataValue, -1.9900000000000004E-09, 42.9988, 1.35735E-09, -0.00121241, 25
DataValue, -2.4500000000000004E-09, 43.997600000000006, 1.35755E-09, -0.00121192, 25
DataValue, -2.5900000000000004E-09, 44.995400000000004, 1.35774E-09, -0.00121235, 25
DataValue, -3.77E-09, 45.996, 1.35766E-09, -0.00121239, 25
DataValue, -2.5100000000000002E-09, 47.0046, 1.3576E-09, -0.0012135, 25
DataValue, -6.5E-09, 48.0046, 1.35768E-09, -0.00121231, 25
DataValue, -6.8600000000000007E-09, 48.9974, 1.35754E-09, -0.00121205, 25
DataValue, -8.6500000000000014E-09, 50.0048, 1.35762E-09, -0.00121315, 25
SetupTitle, Cgs
PrimitiveTest, C-V Sweep
TestParameter, Channel.UnitTyp, CMU, SMU
TestParameter, Channel.Unit, Gate, VdBias
TestParameter, Channel.IName, , Ids
TestParameter, Channel.VName, VBias, Vdrain
TestParameter, Channel.Mode, , V
TestParameter, Channel.Func, CONST, VAR1
TestParameter, Channel.Index, 
TestParameter, Channel.Time, 
TestParameter, Measurement.Primary.Locus, Single
TestParameter, Measurement.Primary.Scale, Scale
TestParameter, Measurement.Primary.Start, VdStart*Polarity
TestParameter, Measurement.Primary.Stop, VdStop*Polarity
TestParameter, Measurement.Primary.Compliance, IdLimit
TestParameter, Measurement.Primary.Step, VdLinearStep*Polarity
TestParameter, Measurement.Aborting.Condition, CONTINUE AT ANY
TestParameter, Measurement.PostOutput.Value, START
TestParameter, Measurement.PostOutput.Retention, OFF
TestParameter, Measurement.Secondary.ACLevel, OscLevel
TestParameter, Measurement.Secondary.FName, Freq
TestParameter, Measurement.Secondary.Frequency, Frequency
TestParameter, Measurement.Bias.Source, 0, 0
TestParameter, Measurement.ImpedanceMode.Model, Cp-G
TestParameter, Measurement.ImpedanceMode.CName, Cgs
TestParameter, Measurement.ImpedanceMode.LName, L
TestParameter, Measurement.ImpedanceMode.GName, G
TestParameter, Measurement.ImpedanceMode.RName, R
TestParameter, Measurement.ImpedanceMode.QName, Q
TestParameter, Measurement.ImpedanceMode.DName, D
TestParameter, Measurement.ImpedanceMode.YName, Y
TestParameter, Measurement.ImpedanceMode.ZName, Z
TestParameter, Measurement.ImpedanceMode.ThName, Theta
TestParameter, Measurement.ImpedanceMode.BName, B
TestParameter, Measurement.ImpedanceMode.XName, X
TestParameter, Measurement.Monitor.Unit, CMU:=Gate, SMU:=VdBias
TestParameter, Measurement.Monitor.RangingMode, AUTO, LIMITED
TestParameter, Measurement.Monitor.RangeBoundary, 50, IdMinRange
TestParameter, Measurement.Monitor.AcMonitorSymbol, 
TestParameter, Measurement.Monitor.DcMonitorSymbol, 
TestParameter, Measurement.Timing.Hold, HoldTime
TestParameter, Measurement.Timing.Delay, DelayTime
TestParameter, Measurement.Adc.UnitType, Cmu, Smu
TestParameter, Measurement.Adc.HighResolution.Mode, IntegMode, IntegMode
TestParameter, Measurement.Adc.HighResolution.Coeff, AdcFactor, AdcFactor
TestParameter, Measurement.WaitTime.Source.Coeff, 1
TestParameter, Measurement.WaitTime.Source.Offset, 0
TestParameter, Measurement.WaitTime.Monitor.Coeff, 1
TestParameter, Measurement.WaitTime.Monitor.Offset, 0
TestParameter, Function.User.Name, Ta
TestParameter, Function.User.Unit, deg
TestParameter, Function.User.Definition, Temp
TestParameter, Output.Graph.Enabled, true
TestParameter, Output.Graph.AutoScaling, false
TestParameter, Output.Graph.XAxis.Data, Vdrain
TestParameter, Output.Graph.XAxis.Scale, ScaleStr
TestParameter, Output.Graph.XAxis.Left, VdStart*Polarity
TestParameter, Output.Graph.XAxis.Right, VdStop*Polarity
TestParameter, Output.Graph.XAxis.RunTimeAutoScale, false
TestParameter, Output.Graph.YAxis.Data, Cgs
TestParameter, Output.Graph.YAxis.Scale, Log
TestParameter, Output.Graph.YAxis.Bottom, YAxisCgsMin
TestParameter, Output.Graph.YAxis.Top, YAxisCgsMax
TestParameter, Output.Graph.YAxis.Group, 
TestParameter, Output.Graph.YAxis.RunTimeAutoScale, false
TestParameter, Output.List.Data, Vdrain, Cgs, Ids
TestParameter, Output.Scalar.Data, Ta
TestParameter, AutoAnalysis.Interpolation, true
TestParameter, AutoAnalysis.Line1.Enabled, false
TestParameter, AutoAnalysis.Line1.Type, 1
TestParameter, AutoAnalysis.Line1.Fix, True
TestParameter, AutoAnalysis.Line1.YAxis, 0
TestParameter, AutoAnalysis.Line1.Point1.Type, 0
TestParameter, AutoAnalysis.Line1.Point1.XY.X, 
TestParameter, AutoAnalysis.Line1.Point1.XY.Y, 
TestParameter, AutoAnalysis.Line1.Point1.Data.Var, 
TestParameter, AutoAnalysis.Line1.Point1.Data.Condition, 
TestParameter, AutoAnalysis.Line1.Point1.Data.Start, false
TestParameter, AutoAnalysis.Line1.Point1.Data.StartVar, 
TestParameter, AutoAnalysis.Line1.Point1.Data.StartCondition, 
TestParameter, AutoAnalysis.Line1.Point2.Type, 0
TestParameter, AutoAnalysis.Line1.Point2.XY.X, 
TestParameter, AutoAnalysis.Line1.Point2.XY.Y, 
TestParameter, AutoAnalysis.Line1.Point2.Data.Var, 
TestParameter, AutoAnalysis.Line1.Point2.Data.Condition, 
TestParameter, AutoAnalysis.Line1.Point2.Data.Start, false
TestParameter, AutoAnalysis.Line1.Point2.Data.StartVar, 
TestParameter, AutoAnalysis.Line1.Point2.Data.StartCondition, 
TestParameter, AutoAnalysis.Line1.GradientExpr, 0
TestParameter, AutoAnalysis.Line2.Enabled, false
TestParameter, AutoAnalysis.Line2.Type, 1
TestParameter, AutoAnalysis.Line2.Fix, True
TestParameter, AutoAnalysis.Line2.YAxis, 0
TestParameter, AutoAnalysis.Line2.Point1.Type, 0
TestParameter, AutoAnalysis.Line2.Point1.XY.X, 
TestParameter, AutoAnalysis.Line2.Point1.XY.Y, 
TestParameter, AutoAnalysis.Line2.Point1.Data.Var, 
TestParameter, AutoAnalysis.Line2.Point1.Data.Condition, 
TestParameter, AutoAnalysis.Line2.Point1.Data.Start, false
TestParameter, AutoAnalysis.Line2.Point1.Data.StartVar, 
TestParameter, AutoAnalysis.Line2.Point1.Data.StartCondition, 
TestParameter, AutoAnalysis.Line2.Point2.Type, 0
TestParameter, AutoAnalysis.Line2.Point2.XY.X, 
TestParameter, AutoAnalysis.Line2.Point2.XY.Y, 
TestParameter, AutoAnalysis.Line2.Point2.Data.Var, 
TestParameter, AutoAnalysis.Line2.Point2.Data.Condition, 
TestParameter, AutoAnalysis.Line2.Point2.Data.Start, false
TestParameter, AutoAnalysis.Line2.Point2.Data.StartVar, 
TestParameter, AutoAnalysis.Line2.Point2.Data.StartCondition, 
TestParameter, AutoAnalysis.Line2.GradientExpr, 0
TestParameter, AutoAnalysis.Marker.Enabled, false
TestParameter, AutoAnalysis.Marker.Data.Var, 
TestParameter, AutoAnalysis.Marker.Data.Condition, 
TestParameter, AutoAnalysis.Marker.Data.Start, false
TestParameter, AutoAnalysis.Marker.Data.StartVar, 
TestParameter, AutoAnalysis.Marker.Data.StartCondition, 
MetaData, TestRecord.EntryPoint, false
MetaData, TestRecord.RecordTime, 12/28/2020 12:21:00
MetaData, TestRecord.TestTarget, 
MetaData, TestRecord.IterationIndex, 25
MetaData, TestRecord.Preservation, true
MetaData, TestRecord.Flag, 
MetaData, TestRecord.Remarks, 
MetaData, TestRecord.LinkKey, c57b2cfe-eb1d-4617-8e11-76a7c5de2809
Dimension1, 51, 51, 51, 51, 51
Dimension2, 1, 1, 1, 1, 1
DataName, Ids, Vdrain, Cgs, G, Ta
DataValue, -3.6500000000000004E-09, 0.0042000000000000006, 1.35867E-09, -0.00121284, 25
DataValue, -4.0200000000000006E-09, 0.9926, 1.35851E-09, -0.00121151, 25
DataValue, 4.8800000000000005E-09, 2.0008, 1.35842E-09, -0.00121242, 25
DataValue, -9.3E-09, 3.0058000000000002, 1.35848E-09, -0.00121177, 25
DataValue, -1.18E-09, 3.9964000000000004, 1.35837E-09, -0.00121105, 25
DataValue, -5.1800000000000007E-09, 5.001, 1.35859E-09, -0.00121138, 25
DataValue, -4.65E-09, 6.0008, 1.35823E-09, -0.00121153, 25
DataValue, -4.18E-09, 7.0004, 1.35854E-09, -0.00121203, 25
DataValue, -5.78E-09, 7.996, 1.35827E-09, -0.00121098, 25
DataValue, -2.4000000000000004E-09, 8.9956, 1.35838E-09, -0.00121242, 25
DataValue, -8.0000000000000013E-10, 9.999, 1.35841E-09, -0.00121217, 25
DataValue, -4.68E-09, 11.003400000000001, 1.3584E-09, -0.00121312, 25
DataValue, -3.8500000000000006E-09, 12.0014, 1.35828E-09, -0.00121257, 25
DataValue, -6.8800000000000011E-09, 12.998000000000001, 1.35829E-09, -0.00121264, 25
DataValue, -5.03E-09, 14.0022, 1.35826E-09, -0.00121317, 25
DataValue, -2.6000000000000003E-10, 14.996, 1.35829E-09, -0.00121286, 25
DataValue, -9.8000000000000013E-10, 16.000600000000002, 1.35802E-09, -0.00121114, 25
DataValue, -4.82E-09, 17.0018, 1.35815E-09, -0.00121178, 25
DataValue, -1.9400000000000003E-09, 18.0012, 1.35809E-09, -0.00121244, 25
DataValue, 2.7600000000000004E-09, 18.9986, 1.35805E-09, -0.00121238, 25
DataValue, -7.53E-09, 20.0054, 1.35803E-09, -0.00121196, 25
DataValue, -3.2300000000000002E-09, 20.9956, 1.35809E-09, -0.00121232, 25
DataValue, -5.4200000000000007E-09, 22.004, 1.35812E-09, -0.00121449, 25
DataValue, -2.9200000000000003E-09, 23.0002, 1.35801E-09, -0.00121244, 25
DataValue, -3.3500000000000002E-09, 24.001, 1.3579799999999999E-09, -0.00121257, 25
DataValue, -2.36E-09, 25.001, 1.35775E-09, -0.00121289, 25
DataValue, -5.5600000000000007E-09, 26.0028, 1.35783E-09, -0.00121196, 25
DataValue, -5.1500000000000006E-09, 27.0008, 1.35788E-09, -0.0012125600000000001, 25
DataValue, -3.6900000000000003E-09, 27.995800000000003, 1.35779E-09, -0.00121208, 25
DataValue, -7.260000000000001E-09, 29.0008, 1.35783E-09, -0.0012122300000000001, 25
DataValue, -3.0000000000000004E-09, 29.998800000000003, 1.35771E-09, -0.00121214, 25
DataValue, 6.4000000000000006E-10, 30.992800000000003, 1.35772E-09, -0.00121355, 25
DataValue, -2.3300000000000004E-09, 31.995600000000003, 1.35782E-09, -0.00121218, 25
DataValue, -8.9100000000000017E-09, 33.0056, 1.35787E-09, -0.00121204, 25
DataValue, -8.390000000000001E-09, 33.9998, 1.35782E-09, -0.00121206, 25
DataValue, -5.7300000000000007E-09, 34.9998, 1.35793E-09, -0.00121237, 25
DataValue, -1.36E-09, 36.0016, 1.35791E-09, -0.00121303, 25
DataValue, -3.93E-09, 37.0062, 1.35783E-09, -0.00121132, 25
DataValue, -7.6900000000000014E-09, 38.0066, 1.35772E-09, -0.00121328, 25
DataValue, 2.55E-09, 38.993, 1.35788E-09, -0.00121297, 25
DataValue, -1.0930000000000001E-08, 40.0082, 1.35771E-09, -0.00121258, 25
DataValue, 2.38E-09, 40.9898, 1.35766E-09, -0.00121265, 25
DataValue, 3.4E-10, 41.9986, 1.3578E-09, -0.00121286, 25
DataValue, -1.9900000000000004E-09, 42.9988, 1.35735E-09, -0.00121241, 25
DataValue, -2.4500000000000004E-09, 43.997600000000006, 1.35755E-09, -0.00121192, 25
DataValue, -2.5900000000000004E-09, 44.995400000000004, 1.35774E-09, -0.00121235, 25
DataValue, -3.77E-09, 45.996, 1.35766E-09, -0.00121239, 25
DataValue, -2.5100000000000002E-09, 47.0046, 1.3576E-09, -0.0012135, 25
DataValue, -6.5E-09, 48.0046, 1.35768E-09, -0.00121231, 25
DataValue, -6.8600000000000007E-09, 48.9974, 1.35754E-09, -0.00121205, 25
DataValue, -8.6500000000000014E-09, 50.0048, 1.35762E-09, -0.00121315, 25