
SetupTitle, Cgs
ApplicationTest, Cgs, Public
TestParameter, Name, Memo, IntegTime, Frequency, OscLevel, Scale, Gate, VdBias, VdStart, VdStop, VdLinearStep, IdLimit, HoldTime, DelayTime, IdMinRange
TestParameter, Value, , SHORT, 1000000, 0.025, LINEAR, CMU1:MF	MFCMU, SMU6:HV	HVSMU, 0, 50, 1, 0.004, 1, 1, 10uA
DutParameter, Name, Polarity, Temp, YAxisCgsMin, YAxisCgsMax
DutParameter, Value, 1, 25, 1E-12, 5E-09
MetaData, TestRecord.EntryPoint, true
MetaData, TestRecord.RecordTime, 12/28/2020 11:09:41
MetaData, TestRecord.TestTarget, 
MetaData, TestRecord.IterationIndex, 18
MetaData, TestRecord.Preservation, true
MetaData, TestRecord.Flag, 
MetaData, TestRecord.Remarks, 
MetaData, TestRecord.LinkKey, d5af674e-e8cd-4339-afec-d959b9d12cf1
Dimension1, 51, 51, 51, 51, 51
Dimension2, 1, 1, 1, 1, 1
DataName, Ids, Vdrain, Cgs, G, Ta
DataValue, -1.3250000000000001E-08, 0.0076, 1.16108E-09, -0.0015215, 25
DataValue, -7.980000000000001E-09, 1.0004, 1.16111E-09, -0.00152141, 25
DataValue, -1.0490000000000002E-08, 2.0076, 1.1611E-09, -0.00152133, 25
DataValue, -1.0590000000000001E-08, 3.0038, 1.16128E-09, -0.00152145, 25
DataValue, -7.1E-10, 3.9992, 1.16116E-09, -0.00152185, 25
DataValue, -1.0450000000000001E-08, 5.0004, 1.16123E-09, -0.00152136, 25
DataValue, -3.49E-09, 5.9958, 1.16115E-09, -0.00152084, 25
DataValue, -2.7E-09, 6.9968, 1.16125E-09, -0.00152092, 25
DataValue, -5.0200000000000004E-09, 7.9948000000000006, 1.16104E-09, -0.0015204700000000001, 25
DataValue, -4.9700000000000008E-09, 9.0036, 1.16135E-09, -0.00152086, 25
DataValue, -5.1100000000000008E-09, 10.002600000000001, 1.16121E-09, -0.0015220400000000001, 25
DataValue, 2.1000000000000002E-10, 11, 1.16123E-09, -0.00152099, 25
DataValue, -3.7000000000000005E-09, 12.0068, 1.16113E-09, -0.00152158, 25
DataValue, -3.3400000000000005E-09, 12.995600000000001, 1.16118E-09, -0.00152064, 25
DataValue, -2.3300000000000004E-09, 13.997, 1.16117E-09, -0.00152133, 25
DataValue, -8.42E-09, 14.9984, 1.1612E-09, -0.0015211, 25
DataValue, 2.4200000000000003E-09, 15.996, 1.16117E-09, -0.00152195, 25
DataValue, -5.71E-09, 16.998, 1.16111E-09, -0.00152184, 25
DataValue, -3.4300000000000004E-09, 18.0008, 1.16122E-09, -0.00152219, 25
DataValue, -1.65E-09, 19.0016, 1.16121E-09, -0.0015202500000000001, 25
DataValue, -1.35E-09, 19.999000000000002, 1.16111E-09, -0.00152069, 25
DataValue, 1.13E-09, 20.9984, 1.16129E-09, -0.00152074, 25
DataValue, -1.3800000000000002E-09, 21.9998, 1.16112E-09, -0.00152123, 25
DataValue, -5.57E-09, 22.9994, 1.16124E-09, -0.00152075, 25
DataValue, -1.4600000000000001E-09, 24.003800000000002, 1.1613E-09, -0.00152039, 25
DataValue, -7.2200000000000011E-09, 25.001800000000003, 1.1612E-09, -0.00152133, 25
DataValue, -7.1100000000000005E-09, 26.0024, 1.16115E-09, -0.0015213, 25
DataValue, -9.1400000000000011E-09, 27.003600000000002, 1.16116E-09, -0.0015206500000000001, 25
DataValue, 1.01E-09, 27.999200000000002, 1.16121E-09, -0.0015202500000000001, 25
DataValue, -2.5200000000000004E-09, 28.9934, 1.16119E-09, -0.00152147, 25
DataValue, -2.8300000000000004E-09, 30.0046, 1.16121E-09, -0.00152082, 25
DataValue, -8.69E-09, 30.9986, 1.16123E-09, -0.00152061, 25
DataValue, -4.5400000000000005E-09, 31.9978, 1.16117E-09, -0.001521, 25
DataValue, -4.79E-09, 33.0018, 1.16118E-09, -0.0015197400000000001, 25
DataValue, -7.54E-09, 34.0026, 1.16121E-09, -0.00152086, 25
DataValue, -3.1200000000000004E-09, 34.9996, 1.1612E-09, -0.00152059, 25
DataValue, -3.7100000000000002E-09, 35.998200000000004, 1.16119E-09, -0.0015208700000000001, 25
DataValue, -7.51E-09, 37.0028, 1.16113E-09, -0.00152113, 25
DataValue, 2.29E-09, 37.9914, 1.16123E-09, -0.00152123, 25
DataValue, 2.8E-10, 38.998200000000004, 1.16112E-09, -0.00152129, 25
DataValue, 3E-11, 40.001200000000004, 1.16126E-09, -0.00152091, 25
DataValue, 5.5000000000000007E-10, 40.994800000000005, 1.16126E-09, -0.00152044, 25
DataValue, -1.05E-09, 41.9966, 1.16119E-09, -0.00152161, 25
DataValue, -7.190000000000001E-09, 43.004400000000004, 1.16109E-09, -0.0015205800000000001, 25
DataValue, -5.34E-09, 44.0002, 1.16125E-09, -0.0015201, 25
DataValue, 7.3000000000000006E-10, 44.9992, 1.16104E-09, -0.00152103, 25
DataValue, -5.37E-09, 45.9988, 1.16121E-09, -0.00152059, 25
DataValue, -2.84E-09, 46.997800000000005, 1.16113E-09, -0.00152019, 25
DataValue, -5.3800000000000009E-09, 47.9962, 1.16116E-09, -0.00152069, 25
DataValue, -5.57E-09, 48.998200000000004, 1.16129E-09, -0.0015207600000000001, 25
DataValue, -4.9700000000000008E-09, 50.0022, 1.16126E-09, -0.0015210500000000001, 25
SetupTitle, Cgs
PrimitiveTest, C-V Sweep
TestParameter, Channel.UnitTyp, CMU, SMU
TestParameter, Channel.Unit, Gate, VdBias
TestParameter, Channel.IName, , Ids
TestParameter, Channel.VName, VBias, Vdrain
TestParameter, Channel.Mode, , V
TestParameter, Channel.Func, CONST, VAR1
TestParameter, Channel.Index, 
TestParameter, Channel.Time, 
TestParameter, Measurement.Primary.Locus, Single
TestParameter, Measurement.Primary.Scale, Scale
TestParameter, Measurement.Primary.Start, VdStart*Polarity
TestParameter, Measurement.Primary.Stop, VdStop*Polarity
TestParameter, Measurement.Primary.Compliance, IdLimit
TestParameter, Measurement.Primary.Step, VdLinearStep*Polarity
TestParameter, Measurement.Aborting.Condition, CONTINUE AT ANY
TestParameter, Measurement.PostOutput.Value, START
TestParameter, Measurement.PostOutput.Retention, OFF
TestParameter, Measurement.Secondary.ACLevel, OscLevel
TestParameter, Measurement.Secondary.FName, Freq
TestParameter, Measurement.Secondary.Frequency, Frequency
TestParameter, Measurement.Bias.Source, 0, 0
TestParameter, Measurement.ImpedanceMode.Model, Cp-G
TestParameter, Measurement.ImpedanceMode.CName, Cgs
TestParameter, Measurement.ImpedanceMode.LName, L
TestParameter, Measurement.ImpedanceMode.GName, G
TestParameter, Measurement.ImpedanceMode.RName, R
TestParameter, Measurement.ImpedanceMode.QName, Q
TestParameter, Measurement.ImpedanceMode.DName, D
TestParameter, Measurement.ImpedanceMode.YName, Y
TestParameter, Measurement.ImpedanceMode.ZName, Z
TestParameter, Measurement.ImpedanceMode.ThName, Theta
TestParameter, Measurement.ImpedanceMode.BName, B
TestParameter, Measurement.ImpedanceMode.XName, X
TestParameter, Measurement.Monitor.Unit, CMU:=Gate, SMU:=VdBias
TestParameter, Measurement.Monitor.RangingMode, AUTO, LIMITED
TestParameter, Measurement.Monitor.RangeBoundary, 50, IdMinRange
TestParameter, Measurement.Monitor.AcMonitorSymbol, 
TestParameter, Measurement.Monitor.DcMonitorSymbol, 
TestParameter, Measurement.Timing.Hold, HoldTime
TestParameter, Measurement.Timing.Delay, DelayTime
TestParameter, Measurement.Adc.UnitType, Cmu, Smu
TestParameter, Measurement.Adc.HighResolution.Mode, IntegMode, IntegMode
TestParameter, Measurement.Adc.HighResolution.Coeff, AdcFactor, AdcFactor
TestParameter, Measurement.WaitTime.Source.Coeff, 1
TestParameter, Measurement.WaitTime.Source.Offset, 0
TestParameter, Measurement.WaitTime.Monitor.Coeff, 1
TestParameter, Measurement.WaitTime.Monitor.Offset, 0
TestParameter, Function.User.Name, Ta
TestParameter, Function.User.Unit, deg
TestParameter, Function.User.Definition, Temp
TestParameter, Output.Graph.Enabled, true
TestParameter, Output.Graph.AutoScaling, false
TestParameter, Output.Graph.XAxis.Data, Vdrain
TestParameter, Output.Graph.XAxis.Scale, ScaleStr
TestParameter, Output.Graph.XAxis.Left, VdStart*Polarity
TestParameter, Output.Graph.XAxis.Right, VdStop*Polarity
TestParameter, Output.Graph.XAxis.RunTimeAutoScale, false
TestParameter, Output.Graph.YAxis.Data, Cgs
TestParameter, Output.Graph.YAxis.Scale, Log
TestParameter, Output.Graph.YAxis.Bottom, YAxisCgsMin
TestParameter, Output.Graph.YAxis.Top, YAxisCgsMax
TestParameter, Output.Graph.YAxis.Group, 
TestParameter, Output.Graph.YAxis.RunTimeAutoScale, false
TestParameter, Output.List.Data, Vdrain, Cgs, Ids
TestParameter, Output.Scalar.Data, Ta
TestParameter, AutoAnalysis.Interpolation, true
TestParameter, AutoAnalysis.Line1.Enabled, false
TestParameter, AutoAnalysis.Line1.Type, 1
TestParameter, AutoAnalysis.Line1.Fix, True
TestParameter, AutoAnalysis.Line1.YAxis, 0
TestParameter, AutoAnalysis.Line1.Point1.Type, 0
TestParameter, AutoAnalysis.Line1.Point1.XY.X, 
TestParameter, AutoAnalysis.Line1.Point1.XY.Y, 
TestParameter, AutoAnalysis.Line1.Point1.Data.Var, 
TestParameter, AutoAnalysis.Line1.Point1.Data.Condition, 
TestParameter, AutoAnalysis.Line1.Point1.Data.Start, false
TestParameter, AutoAnalysis.Line1.Point1.Data.StartVar, 
TestParameter, AutoAnalysis.Line1.Point1.Data.StartCondition, 
TestParameter, AutoAnalysis.Line1.Point2.Type, 0
TestParameter, AutoAnalysis.Line1.Point2.XY.X, 
TestParameter, AutoAnalysis.Line1.Point2.XY.Y, 
TestParameter, AutoAnalysis.Line1.Point2.Data.Var, 
TestParameter, AutoAnalysis.Line1.Point2.Data.Condition, 
TestParameter, AutoAnalysis.Line1.Point2.Data.Start, false
TestParameter, AutoAnalysis.Line1.Point2.Data.StartVar, 
TestParameter, AutoAnalysis.Line1.Point2.Data.StartCondition, 
TestParameter, AutoAnalysis.Line1.GradientExpr, 0
TestParameter, AutoAnalysis.Line2.Enabled, false
TestParameter, AutoAnalysis.Line2.Type, 1
TestParameter, AutoAnalysis.Line2.Fix, True
TestParameter, AutoAnalysis.Line2.YAxis, 0
TestParameter, AutoAnalysis.Line2.Point1.Type, 0
TestParameter, AutoAnalysis.Line2.Point1.XY.X, 
TestParameter, AutoAnalysis.Line2.Point1.XY.Y, 
TestParameter, AutoAnalysis.Line2.Point1.Data.Var, 
TestParameter, AutoAnalysis.Line2.Point1.Data.Condition, 
TestParameter, AutoAnalysis.Line2.Point1.Data.Start, false
TestParameter, AutoAnalysis.Line2.Point1.Data.StartVar, 
TestParameter, AutoAnalysis.Line2.Point1.Data.StartCondition, 
TestParameter, AutoAnalysis.Line2.Point2.Type, 0
TestParameter, AutoAnalysis.Line2.Point2.XY.X, 
TestParameter, AutoAnalysis.Line2.Point2.XY.Y, 
TestParameter, AutoAnalysis.Line2.Point2.Data.Var, 
TestParameter, AutoAnalysis.Line2.Point2.Data.Condition, 
TestParameter, AutoAnalysis.Line2.Point2.Data.Start, false
TestParameter, AutoAnalysis.Line2.Point2.Data.StartVar, 
TestParameter, AutoAnalysis.Line2.Point2.Data.StartCondition, 
TestParameter, AutoAnalysis.Line2.GradientExpr, 0
TestParameter, AutoAnalysis.Marker.Enabled, false
TestParameter, AutoAnalysis.Marker.Data.Var, 
TestParameter, AutoAnalysis.Marker.Data.Condition, 
TestParameter, AutoAnalysis.Marker.Data.Start, false
TestParameter, AutoAnalysis.Marker.Data.StartVar, 
TestParameter, AutoAnalysis.Marker.Data.StartCondition, 
MetaData, TestRecord.EntryPoint, false
MetaData, TestRecord.RecordTime, 12/28/2020 11:09:41
MetaData, TestRecord.TestTarget, 
MetaData, TestRecord.IterationIndex, 18
MetaData, TestRecord.Preservation, true
MetaData, TestRecord.Flag, 
MetaData, TestRecord.Remarks, 
MetaData, TestRecord.LinkKey, d5af674e-e8cd-4339-afec-d959b9d12cf1
Dimension1, 51, 51, 51, 51, 51
Dimension2, 1, 1, 1, 1, 1
DataName, Ids, Vdrain, Cgs, G, Ta
DataValue, -1.3250000000000001E-08, 0.0076, 1.16108E-09, -0.0015215, 25
DataValue, -7.980000000000001E-09, 1.0004, 1.16111E-09, -0.00152141, 25
DataValue, -1.0490000000000002E-08, 2.0076, 1.1611E-09, -0.00152133, 25
DataValue, -1.0590000000000001E-08, 3.0038, 1.16128E-09, -0.00152145, 25
DataValue, -7.1E-10, 3.9992, 1.16116E-09, -0.00152185, 25
DataValue, -1.0450000000000001E-08, 5.0004, 1.16123E-09, -0.00152136, 25
DataValue, -3.49E-09, 5.9958, 1.16115E-09, -0.00152084, 25
DataValue, -2.7E-09, 6.9968, 1.16125E-09, -0.00152092, 25
DataValue, -5.0200000000000004E-09, 7.9948000000000006, 1.16104E-09, -0.0015204700000000001, 25
DataValue, -4.9700000000000008E-09, 9.0036, 1.16135E-09, -0.00152086, 25
DataValue, -5.1100000000000008E-09, 10.002600000000001, 1.16121E-09, -0.0015220400000000001, 25
DataValue, 2.1000000000000002E-10, 11, 1.16123E-09, -0.00152099, 25
DataValue, -3.7000000000000005E-09, 12.0068, 1.16113E-09, -0.00152158, 25
DataValue, -3.3400000000000005E-09, 12.995600000000001, 1.16118E-09, -0.00152064, 25
DataValue, -2.3300000000000004E-09, 13.997, 1.16117E-09, -0.00152133, 25
DataValue, -8.42E-09, 14.9984, 1.1612E-09, -0.0015211, 25
DataValue, 2.4200000000000003E-09, 15.996, 1.16117E-09, -0.00152195, 25
DataValue, -5.71E-09, 16.998, 1.16111E-09, -0.00152184, 25
DataValue, -3.4300000000000004E-09, 18.0008, 1.16122E-09, -0.00152219, 25
DataValue, -1.65E-09, 19.0016, 1.16121E-09, -0.0015202500000000001, 25
DataValue, -1.35E-09, 19.999000000000002, 1.16111E-09, -0.00152069, 25
DataValue, 1.13E-09, 20.9984, 1.16129E-09, -0.00152074, 25
DataValue, -1.3800000000000002E-09, 21.9998, 1.16112E-09, -0.00152123, 25
DataValue, -5.57E-09, 22.9994, 1.16124E-09, -0.00152075, 25
DataValue, -1.4600000000000001E-09, 24.003800000000002, 1.1613E-09, -0.00152039, 25
DataValue, -7.2200000000000011E-09, 25.001800000000003, 1.1612E-09, -0.00152133, 25
DataValue, -7.1100000000000005E-09, 26.0024, 1.16115E-09, -0.0015213, 25
DataValue, -9.1400000000000011E-09, 27.003600000000002, 1.16116E-09, -0.0015206500000000001, 25
DataValue, 1.01E-09, 27.999200000000002, 1.16121E-09, -0.0015202500000000001, 25
DataValue, -2.5200000000000004E-09, 28.9934, 1.16119E-09, -0.00152147, 25
DataValue, -2.8300000000000004E-09, 30.0046, 1.16121E-09, -0.00152082, 25
DataValue, -8.69E-09, 30.9986, 1.16123E-09, -0.00152061, 25
DataValue, -4.5400000000000005E-09, 31.9978, 1.16117E-09, -0.001521, 25
DataValue, -4.79E-09, 33.0018, 1.16118E-09, -0.0015197400000000001, 25
DataValue, -7.54E-09, 34.0026, 1.16121E-09, -0.00152086, 25
DataValue, -3.1200000000000004E-09, 34.9996, 1.1612E-09, -0.00152059, 25
DataValue, -3.7100000000000002E-09, 35.998200000000004, 1.16119E-09, -0.0015208700000000001, 25
DataValue, -7.51E-09, 37.0028, 1.16113E-09, -0.00152113, 25
DataValue, 2.29E-09, 37.9914, 1.16123E-09, -0.00152123, 25
DataValue, 2.8E-10, 38.998200000000004, 1.16112E-09, -0.00152129, 25
DataValue, 3E-11, 40.001200000000004, 1.16126E-09, -0.00152091, 25
DataValue, 5.5000000000000007E-10, 40.994800000000005, 1.16126E-09, -0.00152044, 25
DataValue, -1.05E-09, 41.9966, 1.16119E-09, -0.00152161, 25
DataValue, -7.190000000000001E-09, 43.004400000000004, 1.16109E-09, -0.0015205800000000001, 25
DataValue, -5.34E-09, 44.0002, 1.16125E-09, -0.0015201, 25
DataValue, 7.3000000000000006E-10, 44.9992, 1.16104E-09, -0.00152103, 25
DataValue, -5.37E-09, 45.9988, 1.16121E-09, -0.00152059, 25
DataValue, -2.84E-09, 46.997800000000005, 1.16113E-09, -0.00152019, 25
DataValue, -5.3800000000000009E-09, 47.9962, 1.16116E-09, -0.00152069, 25
DataValue, -5.57E-09, 48.998200000000004, 1.16129E-09, -0.0015207600000000001, 25
DataValue, -4.9700000000000008E-09, 50.0022, 1.16126E-09, -0.0015210500000000001, 25