
SetupTitle, Cgs
ApplicationTest, Cgs, Public
TestParameter, Name, Memo, IntegTime, Frequency, OscLevel, Scale, Gate, VdBias, VdStart, VdStop, VdLinearStep, IdLimit, HoldTime, DelayTime, IdMinRange
TestParameter, Value, , SHORT, 1000000, 0.025, LINEAR, CMU1:MF	MFCMU, SMU6:HV	HVSMU, 0, 50, 1, 0.004, 1, 1, 10uA
DutParameter, Name, Polarity, Temp, YAxisCgsMin, YAxisCgsMax
DutParameter, Value, 1, 25, 1E-12, 5E-09
MetaData, TestRecord.EntryPoint, true
MetaData, TestRecord.RecordTime, 12/28/2020 09:35:40
MetaData, TestRecord.TestTarget, 
MetaData, TestRecord.IterationIndex, 11
MetaData, TestRecord.Preservation, true
MetaData, TestRecord.Flag, 
MetaData, TestRecord.Remarks, 
MetaData, TestRecord.LinkKey, 84ae0a9a-6221-48b4-9606-cba7aa513bb5
Dimension1, 51, 51, 51, 51, 51
Dimension2, 1, 1, 1, 1, 1
DataName, Ids, Vdrain, Cgs, G, Ta
DataValue, -7.7000000000000011E-09, 0.0026000000000000003, 1.13949E-09, -0.00140039, 25
DataValue, -4.92E-09, 0.99640000000000006, 1.13935E-09, -0.00140088, 25
DataValue, -4.99E-09, 2.0036, 1.13958E-09, -0.0013992100000000001, 25
DataValue, -6.2200000000000004E-09, 3.0006, 1.1394E-09, -0.00140082, 25
DataValue, -1.7600000000000001E-09, 3.991, 1.13969E-09, -0.00140031, 25
DataValue, -4.93E-09, 5.0056, 1.13959E-09, -0.0014003800000000001, 25
DataValue, -1.7000000000000001E-09, 5.9978000000000007, 1.13968E-09, -0.00140015, 25
DataValue, -8.2000000000000006E-10, 6.9962, 1.13972E-09, -0.00140083, 25
DataValue, -1.59E-09, 7.9984, 1.13979E-09, -0.00140085, 25
DataValue, -3.0500000000000004E-09, 9.002600000000001, 1.13974E-09, -0.00140007, 25
DataValue, -5.3900000000000006E-09, 10.0032, 1.14E-09, -0.00139977, 25
DataValue, -9.23E-09, 11.0076, 1.13988E-09, -0.0014007, 25
DataValue, -4.51E-09, 12.0024, 1.1399E-09, -0.00140075, 25
DataValue, -3.4000000000000003E-09, 12.999400000000001, 1.13993E-09, -0.0014004900000000001, 25
DataValue, -1.0420000000000002E-08, 14.0042, 1.14003E-09, -0.00140028, 25
DataValue, -2.0000000000000003E-10, 14.998800000000001, 1.13995E-09, -0.0014008, 25
DataValue, -4.96E-09, 16.0018, 1.13987E-09, -0.00140055, 25
DataValue, -3.01E-09, 17.003, 1.14009E-09, -0.00140074, 25
DataValue, -3.2300000000000002E-09, 18.000600000000002, 1.14001E-09, -0.0014004900000000001, 25
DataValue, -2.8000000000000003E-09, 19.0002, 1.1401E-09, -0.00140152, 25
DataValue, -3.5800000000000005E-09, 19.9972, 1.14002E-09, -0.00140086, 25
DataValue, -2.5200000000000004E-09, 20.9978, 1.14012E-09, -0.0014012, 25
DataValue, -6.7600000000000006E-09, 22.0026, 1.14003E-09, -0.0014011, 25
DataValue, -6.6300000000000005E-09, 22.999000000000002, 1.14022E-09, -0.0014004900000000001, 25
DataValue, -5.9300000000000008E-09, 24.0028, 1.14008E-09, -0.00140124, 25
DataValue, -1.0990000000000001E-08, 25.0046, 1.14028E-09, -0.00140114, 25
DataValue, 6.4000000000000006E-10, 25.9924, 1.14021E-09, -0.0014011800000000001, 25
DataValue, -2.3900000000000002E-09, 27.001, 1.1403E-09, -0.00140065, 25
DataValue, -3.8800000000000007E-09, 27.9968, 1.14019E-09, -0.00140199, 25
DataValue, -6.4400000000000009E-09, 29.0012, 1.14048E-09, -0.00140086, 25
DataValue, -6.300000000000001E-09, 30.0044, 1.14019E-09, -0.00140177, 25
DataValue, 6.4000000000000006E-10, 30.998, 1.14046E-09, -0.00140159, 25
DataValue, -2.8500000000000003E-09, 31.995600000000003, 1.14024E-09, -0.00140167, 25
DataValue, -6.2400000000000008E-09, 32.9966, 1.14044E-09, -0.00140074, 25
DataValue, -2.0600000000000003E-09, 33.9968, 1.14029E-09, -0.00140095, 25
DataValue, -3.6500000000000004E-09, 35.002, 1.14044E-09, -0.0014006000000000001, 25
DataValue, -6.950000000000001E-09, 36.0062, 1.14034E-09, -0.00140141, 25
DataValue, -2.9200000000000003E-09, 36.999, 1.14053E-09, -0.00140132, 25
DataValue, -9.9E-10, 37.998200000000004, 1.14051E-09, -0.00140103, 25
DataValue, -3.0400000000000003E-09, 39.0004, 1.14053E-09, -0.00140101, 25
DataValue, -4.3000000000000007E-10, 40.000800000000005, 1.14058E-09, -0.00140047, 25
DataValue, -4.65E-09, 41.002, 1.14061E-09, -0.00140126, 25
DataValue, -8.55E-09, 42.0036, 1.14043E-09, -0.00140138, 25
DataValue, 2.1300000000000003E-09, 42.9992, 1.14062E-09, -0.00140169, 25
DataValue, -1.2600000000000002E-09, 43.9942, 1.14058E-09, -0.00140081, 25
DataValue, -8.4500000000000012E-09, 45.002, 1.14061E-09, -0.00140185, 25
DataValue, -1.034E-08, 46.0036, 1.14056E-09, -0.00140062, 25
DataValue, -4.6300000000000008E-09, 46.9988, 1.14068E-09, -0.00140136, 25
DataValue, 3.2800000000000003E-09, 47.996, 1.14058E-09, -0.0014007800000000001, 25
DataValue, 2.2700000000000002E-09, 48.998400000000004, 1.14061E-09, -0.00140222, 25
DataValue, -8.2400000000000013E-09, 50.0028, 1.14072E-09, -0.0014016, 25
SetupTitle, Cgs
PrimitiveTest, C-V Sweep
TestParameter, Channel.UnitTyp, CMU, SMU
TestParameter, Channel.Unit, Gate, VdBias
TestParameter, Channel.IName, , Ids
TestParameter, Channel.VName, VBias, Vdrain
TestParameter, Channel.Mode, , V
TestParameter, Channel.Func, CONST, VAR1
TestParameter, Channel.Index, 
TestParameter, Channel.Time, 
TestParameter, Measurement.Primary.Locus, Single
TestParameter, Measurement.Primary.Scale, Scale
TestParameter, Measurement.Primary.Start, VdStart*Polarity
TestParameter, Measurement.Primary.Stop, VdStop*Polarity
TestParameter, Measurement.Primary.Compliance, IdLimit
TestParameter, Measurement.Primary.Step, VdLinearStep*Polarity
TestParameter, Measurement.Aborting.Condition, CONTINUE AT ANY
TestParameter, Measurement.PostOutput.Value, START
TestParameter, Measurement.PostOutput.Retention, OFF
TestParameter, Measurement.Secondary.ACLevel, OscLevel
TestParameter, Measurement.Secondary.FName, Freq
TestParameter, Measurement.Secondary.Frequency, Frequency
TestParameter, Measurement.Bias.Source, 0, 0
TestParameter, Measurement.ImpedanceMode.Model, Cp-G
TestParameter, Measurement.ImpedanceMode.CName, Cgs
TestParameter, Measurement.ImpedanceMode.LName, L
TestParameter, Measurement.ImpedanceMode.GName, G
TestParameter, Measurement.ImpedanceMode.RName, R
TestParameter, Measurement.ImpedanceMode.QName, Q
TestParameter, Measurement.ImpedanceMode.DName, D
TestParameter, Measurement.ImpedanceMode.YName, Y
TestParameter, Measurement.ImpedanceMode.ZName, Z
TestParameter, Measurement.ImpedanceMode.ThName, Theta
TestParameter, Measurement.ImpedanceMode.BName, B
TestParameter, Measurement.ImpedanceMode.XName, X
TestParameter, Measurement.Monitor.Unit, CMU:=Gate, SMU:=VdBias
TestParameter, Measurement.Monitor.RangingMode, AUTO, LIMITED
TestParameter, Measurement.Monitor.RangeBoundary, 50, IdMinRange
TestParameter, Measurement.Monitor.AcMonitorSymbol, 
TestParameter, Measurement.Monitor.DcMonitorSymbol, 
TestParameter, Measurement.Timing.Hold, HoldTime
TestParameter, Measurement.Timing.Delay, DelayTime
TestParameter, Measurement.Adc.UnitType, Cmu, Smu
TestParameter, Measurement.Adc.HighResolution.Mode, IntegMode, IntegMode
TestParameter, Measurement.Adc.HighResolution.Coeff, AdcFactor, AdcFactor
TestParameter, Measurement.WaitTime.Source.Coeff, 1
TestParameter, Measurement.WaitTime.Source.Offset, 0
TestParameter, Measurement.WaitTime.Monitor.Coeff, 1
TestParameter, Measurement.WaitTime.Monitor.Offset, 0
TestParameter, Function.User.Name, Ta
TestParameter, Function.User.Unit, deg
TestParameter, Function.User.Definition, Temp
TestParameter, Output.Graph.Enabled, true
TestParameter, Output.Graph.AutoScaling, false
TestParameter, Output.Graph.XAxis.Data, Vdrain
TestParameter, Output.Graph.XAxis.Scale, ScaleStr
TestParameter, Output.Graph.XAxis.Left, VdStart*Polarity
TestParameter, Output.Graph.XAxis.Right, VdStop*Polarity
TestParameter, Output.Graph.XAxis.RunTimeAutoScale, false
TestParameter, Output.Graph.YAxis.Data, Cgs
TestParameter, Output.Graph.YAxis.Scale, Log
TestParameter, Output.Graph.YAxis.Bottom, YAxisCgsMin
TestParameter, Output.Graph.YAxis.Top, YAxisCgsMax
TestParameter, Output.Graph.YAxis.Group, 
TestParameter, Output.Graph.YAxis.RunTimeAutoScale, false
TestParameter, Output.List.Data, Vdrain, Cgs, Ids
TestParameter, Output.Scalar.Data, Ta
TestParameter, AutoAnalysis.Interpolation, true
TestParameter, AutoAnalysis.Line1.Enabled, false
TestParameter, AutoAnalysis.Line1.Type, 1
TestParameter, AutoAnalysis.Line1.Fix, True
TestParameter, AutoAnalysis.Line1.YAxis, 0
TestParameter, AutoAnalysis.Line1.Point1.Type, 0
TestParameter, AutoAnalysis.Line1.Point1.XY.X, 
TestParameter, AutoAnalysis.Line1.Point1.XY.Y, 
TestParameter, AutoAnalysis.Line1.Point1.Data.Var, 
TestParameter, AutoAnalysis.Line1.Point1.Data.Condition, 
TestParameter, AutoAnalysis.Line1.Point1.Data.Start, false
TestParameter, AutoAnalysis.Line1.Point1.Data.StartVar, 
TestParameter, AutoAnalysis.Line1.Point1.Data.StartCondition, 
TestParameter, AutoAnalysis.Line1.Point2.Type, 0
TestParameter, AutoAnalysis.Line1.Point2.XY.X, 
TestParameter, AutoAnalysis.Line1.Point2.XY.Y, 
TestParameter, AutoAnalysis.Line1.Point2.Data.Var, 
TestParameter, AutoAnalysis.Line1.Point2.Data.Condition, 
TestParameter, AutoAnalysis.Line1.Point2.Data.Start, false
TestParameter, AutoAnalysis.Line1.Point2.Data.StartVar, 
TestParameter, AutoAnalysis.Line1.Point2.Data.StartCondition, 
TestParameter, AutoAnalysis.Line1.GradientExpr, 0
TestParameter, AutoAnalysis.Line2.Enabled, false
TestParameter, AutoAnalysis.Line2.Type, 1
TestParameter, AutoAnalysis.Line2.Fix, True
TestParameter, AutoAnalysis.Line2.YAxis, 0
TestParameter, AutoAnalysis.Line2.Point1.Type, 0
TestParameter, AutoAnalysis.Line2.Point1.XY.X, 
TestParameter, AutoAnalysis.Line2.Point1.XY.Y, 
TestParameter, AutoAnalysis.Line2.Point1.Data.Var, 
TestParameter, AutoAnalysis.Line2.Point1.Data.Condition, 
TestParameter, AutoAnalysis.Line2.Point1.Data.Start, false
TestParameter, AutoAnalysis.Line2.Point1.Data.StartVar, 
TestParameter, AutoAnalysis.Line2.Point1.Data.StartCondition, 
TestParameter, AutoAnalysis.Line2.Point2.Type, 0
TestParameter, AutoAnalysis.Line2.Point2.XY.X, 
TestParameter, AutoAnalysis.Line2.Point2.XY.Y, 
TestParameter, AutoAnalysis.Line2.Point2.Data.Var, 
TestParameter, AutoAnalysis.Line2.Point2.Data.Condition, 
TestParameter, AutoAnalysis.Line2.Point2.Data.Start, false
TestParameter, AutoAnalysis.Line2.Point2.Data.StartVar, 
TestParameter, AutoAnalysis.Line2.Point2.Data.StartCondition, 
TestParameter, AutoAnalysis.Line2.GradientExpr, 0
TestParameter, AutoAnalysis.Marker.Enabled, false
TestParameter, AutoAnalysis.Marker.Data.Var, 
TestParameter, AutoAnalysis.Marker.Data.Condition, 
TestParameter, AutoAnalysis.Marker.Data.Start, false
TestParameter, AutoAnalysis.Marker.Data.StartVar, 
TestParameter, AutoAnalysis.Marker.Data.StartCondition, 
MetaData, TestRecord.EntryPoint, false
MetaData, TestRecord.RecordTime, 12/28/2020 09:35:40
MetaData, TestRecord.TestTarget, 
MetaData, TestRecord.IterationIndex, 11
MetaData, TestRecord.Preservation, true
MetaData, TestRecord.Flag, 
MetaData, TestRecord.Remarks, 
MetaData, TestRecord.LinkKey, 84ae0a9a-6221-48b4-9606-cba7aa513bb5
Dimension1, 51, 51, 51, 51, 51
Dimension2, 1, 1, 1, 1, 1
DataName, Ids, Vdrain, Cgs, G, Ta
DataValue, -7.7000000000000011E-09, 0.0026000000000000003, 1.13949E-09, -0.00140039, 25
DataValue, -4.92E-09, 0.99640000000000006, 1.13935E-09, -0.00140088, 25
DataValue, -4.99E-09, 2.0036, 1.13958E-09, -0.0013992100000000001, 25
DataValue, -6.2200000000000004E-09, 3.0006, 1.1394E-09, -0.00140082, 25
DataValue, -1.7600000000000001E-09, 3.991, 1.13969E-09, -0.00140031, 25
DataValue, -4.93E-09, 5.0056, 1.13959E-09, -0.0014003800000000001, 25
DataValue, -1.7000000000000001E-09, 5.9978000000000007, 1.13968E-09, -0.00140015, 25
DataValue, -8.2000000000000006E-10, 6.9962, 1.13972E-09, -0.00140083, 25
DataValue, -1.59E-09, 7.9984, 1.13979E-09, -0.00140085, 25
DataValue, -3.0500000000000004E-09, 9.002600000000001, 1.13974E-09, -0.00140007, 25
DataValue, -5.3900000000000006E-09, 10.0032, 1.14E-09, -0.00139977, 25
DataValue, -9.23E-09, 11.0076, 1.13988E-09, -0.0014007, 25
DataValue, -4.51E-09, 12.0024, 1.1399E-09, -0.00140075, 25
DataValue, -3.4000000000000003E-09, 12.999400000000001, 1.13993E-09, -0.0014004900000000001, 25
DataValue, -1.0420000000000002E-08, 14.0042, 1.14003E-09, -0.00140028, 25
DataValue, -2.0000000000000003E-10, 14.998800000000001, 1.13995E-09, -0.0014008, 25
DataValue, -4.96E-09, 16.0018, 1.13987E-09, -0.00140055, 25
DataValue, -3.01E-09, 17.003, 1.14009E-09, -0.00140074, 25
DataValue, -3.2300000000000002E-09, 18.000600000000002, 1.14001E-09, -0.0014004900000000001, 25
DataValue, -2.8000000000000003E-09, 19.0002, 1.1401E-09, -0.00140152, 25
DataValue, -3.5800000000000005E-09, 19.9972, 1.14002E-09, -0.00140086, 25
DataValue, -2.5200000000000004E-09, 20.9978, 1.14012E-09, -0.0014012, 25
DataValue, -6.7600000000000006E-09, 22.0026, 1.14003E-09, -0.0014011, 25
DataValue, -6.6300000000000005E-09, 22.999000000000002, 1.14022E-09, -0.0014004900000000001, 25
DataValue, -5.9300000000000008E-09, 24.0028, 1.14008E-09, -0.00140124, 25
DataValue, -1.0990000000000001E-08, 25.0046, 1.14028E-09, -0.00140114, 25
DataValue, 6.4000000000000006E-10, 25.9924, 1.14021E-09, -0.0014011800000000001, 25
DataValue, -2.3900000000000002E-09, 27.001, 1.1403E-09, -0.00140065, 25
DataValue, -3.8800000000000007E-09, 27.9968, 1.14019E-09, -0.00140199, 25
DataValue, -6.4400000000000009E-09, 29.0012, 1.14048E-09, -0.00140086, 25
DataValue, -6.300000000000001E-09, 30.0044, 1.14019E-09, -0.00140177, 25
DataValue, 6.4000000000000006E-10, 30.998, 1.14046E-09, -0.00140159, 25
DataValue, -2.8500000000000003E-09, 31.995600000000003, 1.14024E-09, -0.00140167, 25
DataValue, -6.2400000000000008E-09, 32.9966, 1.14044E-09, -0.00140074, 25
DataValue, -2.0600000000000003E-09, 33.9968, 1.14029E-09, -0.00140095, 25
DataValue, -3.6500000000000004E-09, 35.002, 1.14044E-09, -0.0014006000000000001, 25
DataValue, -6.950000000000001E-09, 36.0062, 1.14034E-09, -0.00140141, 25
DataValue, -2.9200000000000003E-09, 36.999, 1.14053E-09, -0.00140132, 25
DataValue, -9.9E-10, 37.998200000000004, 1.14051E-09, -0.00140103, 25
DataValue, -3.0400000000000003E-09, 39.0004, 1.14053E-09, -0.00140101, 25
DataValue, -4.3000000000000007E-10, 40.000800000000005, 1.14058E-09, -0.00140047, 25
DataValue, -4.65E-09, 41.002, 1.14061E-09, -0.00140126, 25
DataValue, -8.55E-09, 42.0036, 1.14043E-09, -0.00140138, 25
DataValue, 2.1300000000000003E-09, 42.9992, 1.14062E-09, -0.00140169, 25
DataValue, -1.2600000000000002E-09, 43.9942, 1.14058E-09, -0.00140081, 25
DataValue, -8.4500000000000012E-09, 45.002, 1.14061E-09, -0.00140185, 25
DataValue, -1.034E-08, 46.0036, 1.14056E-09, -0.00140062, 25
DataValue, -4.6300000000000008E-09, 46.9988, 1.14068E-09, -0.00140136, 25
DataValue, 3.2800000000000003E-09, 47.996, 1.14058E-09, -0.0014007800000000001, 25
DataValue, 2.2700000000000002E-09, 48.998400000000004, 1.14061E-09, -0.00140222, 25
DataValue, -8.2400000000000013E-09, 50.0028, 1.14072E-09, -0.0014016, 25