
SetupTitle, Cgs
ApplicationTest, Cgs, Public
TestParameter, Name, Memo, IntegTime, Frequency, OscLevel, Scale, Gate, VdBias, VdStart, VdStop, VdLinearStep, IdLimit, HoldTime, DelayTime, IdMinRange
TestParameter, Value, , SHORT, 1000000, 0.025, LINEAR, CMU1:MF	MFCMU, SMU6:HV	HVSMU, 0, 50, 1, 0.004, 1, 1, 10uA
DutParameter, Name, Polarity, Temp, YAxisCgsMin, YAxisCgsMax
DutParameter, Value, 1, 25, 1E-12, 5E-09
MetaData, TestRecord.EntryPoint, true
MetaData, TestRecord.RecordTime, 12/28/2020 10:04:55
MetaData, TestRecord.TestTarget, 
MetaData, TestRecord.IterationIndex, 12
MetaData, TestRecord.Preservation, true
MetaData, TestRecord.Flag, 
MetaData, TestRecord.Remarks, 
MetaData, TestRecord.LinkKey, 3ebb0b37-5e32-4966-b002-39ab3e425648
Dimension1, 51, 51, 51, 51, 51
Dimension2, 1, 1, 1, 1, 1
DataName, Ids, Vdrain, Cgs, G, Ta
DataValue, -6.9000000000000006E-09, 0.0072000000000000007, 1.15165E-09, -0.00146338, 25
DataValue, 8.700000000000001E-10, 0.9988, 1.15161E-09, -0.0014636200000000001, 25
DataValue, -7.8300000000000013E-09, 2.0006, 1.15158E-09, -0.00146398, 25
DataValue, 1.65E-09, 2.9968000000000004, 1.15175E-09, -0.0014633600000000001, 25
DataValue, 6.7000000000000006E-10, 3.9962, 1.15156E-09, -0.00146331, 25
DataValue, -9.0000000000000012E-11, 4.9976, 1.15164E-09, -0.00146271, 25
DataValue, 9.0000000000000012E-11, 5.997, 1.15153E-09, -0.0014631, 25
DataValue, -4.3700000000000004E-09, 6.998, 1.15162E-09, -0.00146288, 25
DataValue, -7.7100000000000009E-09, 8.0018000000000011, 1.15149E-09, -0.0014628500000000001, 25
DataValue, -6.91E-09, 9.002, 1.15168E-09, -0.00146368, 25
DataValue, -2.1E-09, 10.001000000000001, 1.15169E-09, -0.00146346, 25
DataValue, -7.980000000000001E-09, 11.005600000000001, 1.15146E-09, -0.00146319, 25
DataValue, 1.36E-09, 11.992, 1.15158E-09, -0.00146306, 25
DataValue, -1.0150000000000002E-08, 13.0038, 1.15162E-09, -0.00146297, 25
DataValue, -1.5200000000000001E-09, 13.996400000000001, 1.15155E-09, -0.00146354, 25
DataValue, -7.7100000000000009E-09, 15.0066, 1.15167E-09, -0.00146293, 25
DataValue, 1.48E-09, 15.994800000000002, 1.15161E-09, -0.00146381, 25
DataValue, -3.8100000000000007E-09, 16.9994, 1.15169E-09, -0.0014632900000000001, 25
DataValue, -1.0520000000000001E-08, 18.003800000000002, 1.15164E-09, -0.0014632900000000001, 25
DataValue, 2.4400000000000003E-09, 18.9954, 1.15159E-09, -0.00146243, 25
DataValue, -4.38E-09, 19.9998, 1.15162E-09, -0.00146279, 25
DataValue, -4E-09, 20.9942, 1.15157E-09, -0.00146338, 25
DataValue, 2.34E-09, 22.0014, 1.15164E-09, -0.00146283, 25
DataValue, -2.6E-09, 22.9964, 1.15157E-09, -0.00146383, 25
DataValue, -7.260000000000001E-09, 24.004, 1.15162E-09, -0.00146222, 25
DataValue, -7.72E-09, 25, 1.15156E-09, -0.00146325, 25
DataValue, -7.3500000000000005E-09, 26.0024, 1.15155E-09, -0.00146295, 25
DataValue, -7.85E-09, 27.0032, 1.1516E-09, -0.00146268, 25
DataValue, -7.1E-10, 27.994600000000002, 1.15167E-09, -0.00146238, 25
DataValue, -3.77E-09, 28.9986, 1.15151E-09, -0.00146215, 25
DataValue, -3.8500000000000006E-09, 29.9986, 1.15155E-09, -0.00146189, 25
DataValue, 1.3900000000000002E-09, 31, 1.15163E-09, -0.00146313, 25
DataValue, -7.73E-09, 32.007000000000005, 1.15172E-09, -0.00146255, 25
DataValue, -6.98E-09, 33.001400000000004, 1.15155E-09, -0.0014624, 25
DataValue, -5.78E-09, 34.0058, 1.15166E-09, -0.0014623, 25
DataValue, -2.09E-09, 34.9958, 1.15163E-09, -0.00146294, 25
DataValue, -9.24E-09, 36.0058, 1.15157E-09, -0.00146226, 25
DataValue, -2.24E-09, 36.9986, 1.15174E-09, -0.00146249, 25
DataValue, -1.1000000000000001E-09, 37.998200000000004, 1.15145E-09, -0.00146249, 25
DataValue, -3.73E-09, 39.004200000000004, 1.15164E-09, -0.00146149, 25
DataValue, -2.1300000000000003E-09, 39.9976, 1.15164E-09, -0.00146273, 25
DataValue, -3.8100000000000007E-09, 41.005, 1.15148E-09, -0.0014623, 25
DataValue, -7.01E-09, 42.0018, 1.15174E-09, -0.00146259, 25
DataValue, -5.4900000000000007E-09, 42.9988, 1.15151E-09, -0.00146195, 25
DataValue, 1.0300000000000002E-09, 43.9926, 1.15159E-09, -0.00146258, 25
DataValue, -3.8200000000000005E-09, 44.9986, 1.15164E-09, -0.00146331, 25
DataValue, 6.4000000000000006E-10, 45.9968, 1.15145E-09, -0.00146215, 25
DataValue, -7.9700000000000012E-09, 47.0032, 1.15171E-09, -0.00146184, 25
DataValue, -3.18E-09, 47.998200000000004, 1.15159E-09, -0.00146247, 25
DataValue, -7.9000000000000006E-10, 49, 1.1517E-09, -0.00146255, 25
DataValue, 3.6000000000000005E-10, 49.998400000000004, 1.15161E-09, -0.00146156, 25
SetupTitle, Cgs
PrimitiveTest, C-V Sweep
TestParameter, Channel.UnitTyp, CMU, SMU
TestParameter, Channel.Unit, Gate, VdBias
TestParameter, Channel.IName, , Ids
TestParameter, Channel.VName, VBias, Vdrain
TestParameter, Channel.Mode, , V
TestParameter, Channel.Func, CONST, VAR1
TestParameter, Channel.Index, 
TestParameter, Channel.Time, 
TestParameter, Measurement.Primary.Locus, Single
TestParameter, Measurement.Primary.Scale, Scale
TestParameter, Measurement.Primary.Start, VdStart*Polarity
TestParameter, Measurement.Primary.Stop, VdStop*Polarity
TestParameter, Measurement.Primary.Compliance, IdLimit
TestParameter, Measurement.Primary.Step, VdLinearStep*Polarity
TestParameter, Measurement.Aborting.Condition, CONTINUE AT ANY
TestParameter, Measurement.PostOutput.Value, START
TestParameter, Measurement.PostOutput.Retention, OFF
TestParameter, Measurement.Secondary.ACLevel, OscLevel
TestParameter, Measurement.Secondary.FName, Freq
TestParameter, Measurement.Secondary.Frequency, Frequency
TestParameter, Measurement.Bias.Source, 0, 0
TestParameter, Measurement.ImpedanceMode.Model, Cp-G
TestParameter, Measurement.ImpedanceMode.CName, Cgs
TestParameter, Measurement.ImpedanceMode.LName, L
TestParameter, Measurement.ImpedanceMode.GName, G
TestParameter, Measurement.ImpedanceMode.RName, R
TestParameter, Measurement.ImpedanceMode.QName, Q
TestParameter, Measurement.ImpedanceMode.DName, D
TestParameter, Measurement.ImpedanceMode.YName, Y
TestParameter, Measurement.ImpedanceMode.ZName, Z
TestParameter, Measurement.ImpedanceMode.ThName, Theta
TestParameter, Measurement.ImpedanceMode.BName, B
TestParameter, Measurement.ImpedanceMode.XName, X
TestParameter, Measurement.Monitor.Unit, CMU:=Gate, SMU:=VdBias
TestParameter, Measurement.Monitor.RangingMode, AUTO, LIMITED
TestParameter, Measurement.Monitor.RangeBoundary, 50, IdMinRange
TestParameter, Measurement.Monitor.AcMonitorSymbol, 
TestParameter, Measurement.Monitor.DcMonitorSymbol, 
TestParameter, Measurement.Timing.Hold, HoldTime
TestParameter, Measurement.Timing.Delay, DelayTime
TestParameter, Measurement.Adc.UnitType, Cmu, Smu
TestParameter, Measurement.Adc.HighResolution.Mode, IntegMode, IntegMode
TestParameter, Measurement.Adc.HighResolution.Coeff, AdcFactor, AdcFactor
TestParameter, Measurement.WaitTime.Source.Coeff, 1
TestParameter, Measurement.WaitTime.Source.Offset, 0
TestParameter, Measurement.WaitTime.Monitor.Coeff, 1
TestParameter, Measurement.WaitTime.Monitor.Offset, 0
TestParameter, Function.User.Name, Ta
TestParameter, Function.User.Unit, deg
TestParameter, Function.User.Definition, Temp
TestParameter, Output.Graph.Enabled, true
TestParameter, Output.Graph.AutoScaling, false
TestParameter, Output.Graph.XAxis.Data, Vdrain
TestParameter, Output.Graph.XAxis.Scale, ScaleStr
TestParameter, Output.Graph.XAxis.Left, VdStart*Polarity
TestParameter, Output.Graph.XAxis.Right, VdStop*Polarity
TestParameter, Output.Graph.XAxis.RunTimeAutoScale, false
TestParameter, Output.Graph.YAxis.Data, Cgs
TestParameter, Output.Graph.YAxis.Scale, Log
TestParameter, Output.Graph.YAxis.Bottom, YAxisCgsMin
TestParameter, Output.Graph.YAxis.Top, YAxisCgsMax
TestParameter, Output.Graph.YAxis.Group, 
TestParameter, Output.Graph.YAxis.RunTimeAutoScale, false
TestParameter, Output.List.Data, Vdrain, Cgs, Ids
TestParameter, Output.Scalar.Data, Ta
TestParameter, AutoAnalysis.Interpolation, true
TestParameter, AutoAnalysis.Line1.Enabled, false
TestParameter, AutoAnalysis.Line1.Type, 1
TestParameter, AutoAnalysis.Line1.Fix, True
TestParameter, AutoAnalysis.Line1.YAxis, 0
TestParameter, AutoAnalysis.Line1.Point1.Type, 0
TestParameter, AutoAnalysis.Line1.Point1.XY.X, 
TestParameter, AutoAnalysis.Line1.Point1.XY.Y, 
TestParameter, AutoAnalysis.Line1.Point1.Data.Var, 
TestParameter, AutoAnalysis.Line1.Point1.Data.Condition, 
TestParameter, AutoAnalysis.Line1.Point1.Data.Start, false
TestParameter, AutoAnalysis.Line1.Point1.Data.StartVar, 
TestParameter, AutoAnalysis.Line1.Point1.Data.StartCondition, 
TestParameter, AutoAnalysis.Line1.Point2.Type, 0
TestParameter, AutoAnalysis.Line1.Point2.XY.X, 
TestParameter, AutoAnalysis.Line1.Point2.XY.Y, 
TestParameter, AutoAnalysis.Line1.Point2.Data.Var, 
TestParameter, AutoAnalysis.Line1.Point2.Data.Condition, 
TestParameter, AutoAnalysis.Line1.Point2.Data.Start, false
TestParameter, AutoAnalysis.Line1.Point2.Data.StartVar, 
TestParameter, AutoAnalysis.Line1.Point2.Data.StartCondition, 
TestParameter, AutoAnalysis.Line1.GradientExpr, 0
TestParameter, AutoAnalysis.Line2.Enabled, false
TestParameter, AutoAnalysis.Line2.Type, 1
TestParameter, AutoAnalysis.Line2.Fix, True
TestParameter, AutoAnalysis.Line2.YAxis, 0
TestParameter, AutoAnalysis.Line2.Point1.Type, 0
TestParameter, AutoAnalysis.Line2.Point1.XY.X, 
TestParameter, AutoAnalysis.Line2.Point1.XY.Y, 
TestParameter, AutoAnalysis.Line2.Point1.Data.Var, 
TestParameter, AutoAnalysis.Line2.Point1.Data.Condition, 
TestParameter, AutoAnalysis.Line2.Point1.Data.Start, false
TestParameter, AutoAnalysis.Line2.Point1.Data.StartVar, 
TestParameter, AutoAnalysis.Line2.Point1.Data.StartCondition, 
TestParameter, AutoAnalysis.Line2.Point2.Type, 0
TestParameter, AutoAnalysis.Line2.Point2.XY.X, 
TestParameter, AutoAnalysis.Line2.Point2.XY.Y, 
TestParameter, AutoAnalysis.Line2.Point2.Data.Var, 
TestParameter, AutoAnalysis.Line2.Point2.Data.Condition, 
TestParameter, AutoAnalysis.Line2.Point2.Data.Start, false
TestParameter, AutoAnalysis.Line2.Point2.Data.StartVar, 
TestParameter, AutoAnalysis.Line2.Point2.Data.StartCondition, 
TestParameter, AutoAnalysis.Line2.GradientExpr, 0
TestParameter, AutoAnalysis.Marker.Enabled, false
TestParameter, AutoAnalysis.Marker.Data.Var, 
TestParameter, AutoAnalysis.Marker.Data.Condition, 
TestParameter, AutoAnalysis.Marker.Data.Start, false
TestParameter, AutoAnalysis.Marker.Data.StartVar, 
TestParameter, AutoAnalysis.Marker.Data.StartCondition, 
MetaData, TestRecord.EntryPoint, false
MetaData, TestRecord.RecordTime, 12/28/2020 10:04:55
MetaData, TestRecord.TestTarget, 
MetaData, TestRecord.IterationIndex, 12
MetaData, TestRecord.Preservation, true
MetaData, TestRecord.Flag, 
MetaData, TestRecord.Remarks, 
MetaData, TestRecord.LinkKey, 3ebb0b37-5e32-4966-b002-39ab3e425648
Dimension1, 51, 51, 51, 51, 51
Dimension2, 1, 1, 1, 1, 1
DataName, Ids, Vdrain, Cgs, G, Ta
DataValue, -6.9000000000000006E-09, 0.0072000000000000007, 1.15165E-09, -0.00146338, 25
DataValue, 8.700000000000001E-10, 0.9988, 1.15161E-09, -0.0014636200000000001, 25
DataValue, -7.8300000000000013E-09, 2.0006, 1.15158E-09, -0.00146398, 25
DataValue, 1.65E-09, 2.9968000000000004, 1.15175E-09, -0.0014633600000000001, 25
DataValue, 6.7000000000000006E-10, 3.9962, 1.15156E-09, -0.00146331, 25
DataValue, -9.0000000000000012E-11, 4.9976, 1.15164E-09, -0.00146271, 25
DataValue, 9.0000000000000012E-11, 5.997, 1.15153E-09, -0.0014631, 25
DataValue, -4.3700000000000004E-09, 6.998, 1.15162E-09, -0.00146288, 25
DataValue, -7.7100000000000009E-09, 8.0018000000000011, 1.15149E-09, -0.0014628500000000001, 25
DataValue, -6.91E-09, 9.002, 1.15168E-09, -0.00146368, 25
DataValue, -2.1E-09, 10.001000000000001, 1.15169E-09, -0.00146346, 25
DataValue, -7.980000000000001E-09, 11.005600000000001, 1.15146E-09, -0.00146319, 25
DataValue, 1.36E-09, 11.992, 1.15158E-09, -0.00146306, 25
DataValue, -1.0150000000000002E-08, 13.0038, 1.15162E-09, -0.00146297, 25
DataValue, -1.5200000000000001E-09, 13.996400000000001, 1.15155E-09, -0.00146354, 25
DataValue, -7.7100000000000009E-09, 15.0066, 1.15167E-09, -0.00146293, 25
DataValue, 1.48E-09, 15.994800000000002, 1.15161E-09, -0.00146381, 25
DataValue, -3.8100000000000007E-09, 16.9994, 1.15169E-09, -0.0014632900000000001, 25
DataValue, -1.0520000000000001E-08, 18.003800000000002, 1.15164E-09, -0.0014632900000000001, 25
DataValue, 2.4400000000000003E-09, 18.9954, 1.15159E-09, -0.00146243, 25
DataValue, -4.38E-09, 19.9998, 1.15162E-09, -0.00146279, 25
DataValue, -4E-09, 20.9942, 1.15157E-09, -0.00146338, 25
DataValue, 2.34E-09, 22.0014, 1.15164E-09, -0.00146283, 25
DataValue, -2.6E-09, 22.9964, 1.15157E-09, -0.00146383, 25
DataValue, -7.260000000000001E-09, 24.004, 1.15162E-09, -0.00146222, 25
DataValue, -7.72E-09, 25, 1.15156E-09, -0.00146325, 25
DataValue, -7.3500000000000005E-09, 26.0024, 1.15155E-09, -0.00146295, 25
DataValue, -7.85E-09, 27.0032, 1.1516E-09, -0.00146268, 25
DataValue, -7.1E-10, 27.994600000000002, 1.15167E-09, -0.00146238, 25
DataValue, -3.77E-09, 28.9986, 1.15151E-09, -0.00146215, 25
DataValue, -3.8500000000000006E-09, 29.9986, 1.15155E-09, -0.00146189, 25
DataValue, 1.3900000000000002E-09, 31, 1.15163E-09, -0.00146313, 25
DataValue, -7.73E-09, 32.007000000000005, 1.15172E-09, -0.00146255, 25
DataValue, -6.98E-09, 33.001400000000004, 1.15155E-09, -0.0014624, 25
DataValue, -5.78E-09, 34.0058, 1.15166E-09, -0.0014623, 25
DataValue, -2.09E-09, 34.9958, 1.15163E-09, -0.00146294, 25
DataValue, -9.24E-09, 36.0058, 1.15157E-09, -0.00146226, 25
DataValue, -2.24E-09, 36.9986, 1.15174E-09, -0.00146249, 25
DataValue, -1.1000000000000001E-09, 37.998200000000004, 1.15145E-09, -0.00146249, 25
DataValue, -3.73E-09, 39.004200000000004, 1.15164E-09, -0.00146149, 25
DataValue, -2.1300000000000003E-09, 39.9976, 1.15164E-09, -0.00146273, 25
DataValue, -3.8100000000000007E-09, 41.005, 1.15148E-09, -0.0014623, 25
DataValue, -7.01E-09, 42.0018, 1.15174E-09, -0.00146259, 25
DataValue, -5.4900000000000007E-09, 42.9988, 1.15151E-09, -0.00146195, 25
DataValue, 1.0300000000000002E-09, 43.9926, 1.15159E-09, -0.00146258, 25
DataValue, -3.8200000000000005E-09, 44.9986, 1.15164E-09, -0.00146331, 25
DataValue, 6.4000000000000006E-10, 45.9968, 1.15145E-09, -0.00146215, 25
DataValue, -7.9700000000000012E-09, 47.0032, 1.15171E-09, -0.00146184, 25
DataValue, -3.18E-09, 47.998200000000004, 1.15159E-09, -0.00146247, 25
DataValue, -7.9000000000000006E-10, 49, 1.1517E-09, -0.00146255, 25
DataValue, 3.6000000000000005E-10, 49.998400000000004, 1.15161E-09, -0.00146156, 25