
SetupTitle, Cgs
ApplicationTest, Cgs, Public
TestParameter, Name, Memo, IntegTime, Frequency, OscLevel, Scale, Gate, VdBias, VdStart, VdStop, VdLinearStep, IdLimit, HoldTime, DelayTime, IdMinRange
TestParameter, Value, , SHORT, 1000000, 0.025, LINEAR, CMU1:MF	MFCMU, SMU6:HV	HVSMU, 0, 50, 1, 0.004, 1, 1, 10uA
DutParameter, Name, Polarity, Temp, YAxisCgsMin, YAxisCgsMax
DutParameter, Value, 1, 25, 1E-12, 5E-09
MetaData, TestRecord.EntryPoint, true
MetaData, TestRecord.RecordTime, 12/28/2020 10:35:36
MetaData, TestRecord.TestTarget, 
MetaData, TestRecord.IterationIndex, 15
MetaData, TestRecord.Preservation, true
MetaData, TestRecord.Flag, 
MetaData, TestRecord.Remarks, 
MetaData, TestRecord.LinkKey, a478d0f6-9448-445e-8fbb-9fc54e85df6c
Dimension1, 51, 51, 51, 51, 51
Dimension2, 1, 1, 1, 1, 1
DataName, Ids, Vdrain, Cgs, G, Ta
DataValue, -2.77E-09, 0.001, 2.72425E-10, -0.000386838, 25
DataValue, -1.7500000000000002E-09, 1.0026000000000002, 2.724E-10, -0.000387695, 25
DataValue, -8.88E-09, 2.0012000000000003, 2.7237200000000003E-10, -0.00038722, 25
DataValue, -5.5500000000000009E-09, 2.9984, 2.7243800000000003E-10, -0.00038775800000000004, 25
DataValue, -4.7400000000000006E-09, 4.0096, 2.7240200000000003E-10, -0.00038814100000000005, 25
DataValue, -2.8800000000000004E-09, 4.9996, 2.7239100000000004E-10, -0.00038748600000000004, 25
DataValue, -6.6E-09, 6, 2.7245100000000003E-10, -0.00038692, 25
DataValue, -8.22E-09, 7.0058000000000007, 2.7243300000000004E-10, -0.00038720400000000004, 25
DataValue, -9.5500000000000011E-09, 8.0012, 2.7236200000000005E-10, -0.00038721800000000005, 25
DataValue, -7.6200000000000014E-09, 9.0004, 2.7236200000000005E-10, -0.00038662900000000004, 25
DataValue, -1.5000000000000003E-10, 9.9974, 2.72359E-10, -0.000387506, 25
DataValue, -8.5000000000000017E-09, 11.003400000000001, 2.72383E-10, -0.000386803, 25
DataValue, -2.46E-09, 11.999, 2.72448E-10, -0.000386951, 25
DataValue, -6.300000000000001E-10, 12.994200000000001, 2.72339E-10, -0.000387222, 25
DataValue, 1.4000000000000001E-09, 13.9976, 2.72419E-10, -0.000387137, 25
DataValue, -9.3300000000000015E-09, 14.999600000000001, 2.7232500000000004E-10, -0.00038742000000000003, 25
DataValue, -4.5300000000000007E-09, 16.004, 2.7240800000000003E-10, -0.000387099, 25
DataValue, -3.6500000000000004E-09, 17.002200000000002, 2.72339E-10, -0.000386885, 25
DataValue, 3.7E-10, 17.998, 2.72357E-10, -0.00038704600000000005, 25
DataValue, -1.0480000000000002E-08, 19.003800000000002, 2.72437E-10, -0.000387192, 25
DataValue, -3.5200000000000003E-09, 19.994600000000002, 2.7243200000000003E-10, -0.000387688, 25
DataValue, -2.94E-09, 20.9978, 2.7236700000000004E-10, -0.000387687, 25
DataValue, -4.3700000000000004E-09, 21.9984, 2.72489E-10, -0.00038718600000000003, 25
DataValue, -1.4000000000000001E-09, 22.998800000000003, 2.72405E-10, -0.000387119, 25
DataValue, -4.0500000000000007E-09, 24.000400000000003, 2.7239800000000005E-10, -0.00038726300000000005, 25
DataValue, -8.460000000000001E-09, 25.007, 2.72387E-10, -0.000387876, 25
DataValue, -1.36E-09, 25.9984, 2.72285E-10, -0.000387542, 25
DataValue, -6.7000000000000004E-09, 26.9984, 2.72424E-10, -0.00038789300000000005, 25
DataValue, -4.7300000000000008E-09, 27.998800000000003, 2.72363E-10, -0.000386986, 25
DataValue, -2.5900000000000004E-09, 28.9998, 2.72323E-10, -0.000387684, 25
DataValue, -9.8200000000000012E-09, 30.004, 2.72383E-10, -0.00038732500000000005, 25
DataValue, -8.870000000000001E-09, 31.000600000000002, 2.72387E-10, -0.000386903, 25
DataValue, -4.89E-09, 32.0006, 2.7243E-10, -0.000386981, 25
DataValue, -2.4400000000000003E-09, 33.0028, 2.7239000000000003E-10, -0.000387533, 25
DataValue, -3.3E-09, 33.995400000000004, 2.72449E-10, -0.00038772400000000004, 25
DataValue, -6.000000000000001E-10, 34.9998, 2.72334E-10, -0.000387103, 25
DataValue, -2.8100000000000004E-09, 35.998200000000004, 2.72381E-10, -0.00038746, 25
DataValue, -3.7100000000000002E-09, 36.998000000000005, 2.7240400000000004E-10, -0.00038700400000000004, 25
DataValue, -6.5500000000000007E-09, 38.0036, 2.72352E-10, -0.00038734500000000004, 25
DataValue, 4.0900000000000006E-09, 38.9974, 2.7245800000000004E-10, -0.00038728000000000005, 25
DataValue, -4.8500000000000004E-09, 40.0024, 2.7234300000000004E-10, -0.00038769900000000003, 25
DataValue, -1.95E-09, 41.0048, 2.72341E-10, -0.00038737600000000004, 25
DataValue, -5.92E-09, 42.0066, 2.72351E-10, -0.000387564, 25
DataValue, -6.2400000000000008E-09, 43.0006, 2.7236600000000003E-10, -0.00038738900000000003, 25
DataValue, 1.0300000000000002E-09, 44.0002, 2.72341E-10, -0.000387096, 25
DataValue, -7.1300000000000008E-09, 45.0052, 2.7239700000000004E-10, -0.000387308, 25
DataValue, -5.5200000000000008E-09, 46.003800000000005, 2.72429E-10, -0.000386895, 25
DataValue, -1.19E-09, 46.9958, 2.7230000000000003E-10, -0.000387133, 25
DataValue, -4.9000000000000009E-09, 47.999, 2.72345E-10, -0.000386799, 25
DataValue, -7.9000000000000013E-09, 49.0028, 2.72431E-10, -0.000387467, 25
DataValue, -4.44E-09, 50.0046, 2.7236800000000005E-10, -0.00038718600000000003, 25
SetupTitle, Cgs
PrimitiveTest, C-V Sweep
TestParameter, Channel.UnitTyp, CMU, SMU
TestParameter, Channel.Unit, Gate, VdBias
TestParameter, Channel.IName, , Ids
TestParameter, Channel.VName, VBias, Vdrain
TestParameter, Channel.Mode, , V
TestParameter, Channel.Func, CONST, VAR1
TestParameter, Channel.Index, 
TestParameter, Channel.Time, 
TestParameter, Measurement.Primary.Locus, Single
TestParameter, Measurement.Primary.Scale, Scale
TestParameter, Measurement.Primary.Start, VdStart*Polarity
TestParameter, Measurement.Primary.Stop, VdStop*Polarity
TestParameter, Measurement.Primary.Compliance, IdLimit
TestParameter, Measurement.Primary.Step, VdLinearStep*Polarity
TestParameter, Measurement.Aborting.Condition, CONTINUE AT ANY
TestParameter, Measurement.PostOutput.Value, START
TestParameter, Measurement.PostOutput.Retention, OFF
TestParameter, Measurement.Secondary.ACLevel, OscLevel
TestParameter, Measurement.Secondary.FName, Freq
TestParameter, Measurement.Secondary.Frequency, Frequency
TestParameter, Measurement.Bias.Source, 0, 0
TestParameter, Measurement.ImpedanceMode.Model, Cp-G
TestParameter, Measurement.ImpedanceMode.CName, Cgs
TestParameter, Measurement.ImpedanceMode.LName, L
TestParameter, Measurement.ImpedanceMode.GName, G
TestParameter, Measurement.ImpedanceMode.RName, R
TestParameter, Measurement.ImpedanceMode.QName, Q
TestParameter, Measurement.ImpedanceMode.DName, D
TestParameter, Measurement.ImpedanceMode.YName, Y
TestParameter, Measurement.ImpedanceMode.ZName, Z
TestParameter, Measurement.ImpedanceMode.ThName, Theta
TestParameter, Measurement.ImpedanceMode.BName, B
TestParameter, Measurement.ImpedanceMode.XName, X
TestParameter, Measurement.Monitor.Unit, CMU:=Gate, SMU:=VdBias
TestParameter, Measurement.Monitor.RangingMode, AUTO, LIMITED
TestParameter, Measurement.Monitor.RangeBoundary, 50, IdMinRange
TestParameter, Measurement.Monitor.AcMonitorSymbol, 
TestParameter, Measurement.Monitor.DcMonitorSymbol, 
TestParameter, Measurement.Timing.Hold, HoldTime
TestParameter, Measurement.Timing.Delay, DelayTime
TestParameter, Measurement.Adc.UnitType, Cmu, Smu
TestParameter, Measurement.Adc.HighResolution.Mode, IntegMode, IntegMode
TestParameter, Measurement.Adc.HighResolution.Coeff, AdcFactor, AdcFactor
TestParameter, Measurement.WaitTime.Source.Coeff, 1
TestParameter, Measurement.WaitTime.Source.Offset, 0
TestParameter, Measurement.WaitTime.Monitor.Coeff, 1
TestParameter, Measurement.WaitTime.Monitor.Offset, 0
TestParameter, Function.User.Name, Ta
TestParameter, Function.User.Unit, deg
TestParameter, Function.User.Definition, Temp
TestParameter, Output.Graph.Enabled, true
TestParameter, Output.Graph.AutoScaling, false
TestParameter, Output.Graph.XAxis.Data, Vdrain
TestParameter, Output.Graph.XAxis.Scale, ScaleStr
TestParameter, Output.Graph.XAxis.Left, VdStart*Polarity
TestParameter, Output.Graph.XAxis.Right, VdStop*Polarity
TestParameter, Output.Graph.XAxis.RunTimeAutoScale, false
TestParameter, Output.Graph.YAxis.Data, Cgs
TestParameter, Output.Graph.YAxis.Scale, Log
TestParameter, Output.Graph.YAxis.Bottom, YAxisCgsMin
TestParameter, Output.Graph.YAxis.Top, YAxisCgsMax
TestParameter, Output.Graph.YAxis.Group, 
TestParameter, Output.Graph.YAxis.RunTimeAutoScale, false
TestParameter, Output.List.Data, Vdrain, Cgs, Ids
TestParameter, Output.Scalar.Data, Ta
TestParameter, AutoAnalysis.Interpolation, true
TestParameter, AutoAnalysis.Line1.Enabled, false
TestParameter, AutoAnalysis.Line1.Type, 1
TestParameter, AutoAnalysis.Line1.Fix, True
TestParameter, AutoAnalysis.Line1.YAxis, 0
TestParameter, AutoAnalysis.Line1.Point1.Type, 0
TestParameter, AutoAnalysis.Line1.Point1.XY.X, 
TestParameter, AutoAnalysis.Line1.Point1.XY.Y, 
TestParameter, AutoAnalysis.Line1.Point1.Data.Var, 
TestParameter, AutoAnalysis.Line1.Point1.Data.Condition, 
TestParameter, AutoAnalysis.Line1.Point1.Data.Start, false
TestParameter, AutoAnalysis.Line1.Point1.Data.StartVar, 
TestParameter, AutoAnalysis.Line1.Point1.Data.StartCondition, 
TestParameter, AutoAnalysis.Line1.Point2.Type, 0
TestParameter, AutoAnalysis.Line1.Point2.XY.X, 
TestParameter, AutoAnalysis.Line1.Point2.XY.Y, 
TestParameter, AutoAnalysis.Line1.Point2.Data.Var, 
TestParameter, AutoAnalysis.Line1.Point2.Data.Condition, 
TestParameter, AutoAnalysis.Line1.Point2.Data.Start, false
TestParameter, AutoAnalysis.Line1.Point2.Data.StartVar, 
TestParameter, AutoAnalysis.Line1.Point2.Data.StartCondition, 
TestParameter, AutoAnalysis.Line1.GradientExpr, 0
TestParameter, AutoAnalysis.Line2.Enabled, false
TestParameter, AutoAnalysis.Line2.Type, 1
TestParameter, AutoAnalysis.Line2.Fix, True
TestParameter, AutoAnalysis.Line2.YAxis, 0
TestParameter, AutoAnalysis.Line2.Point1.Type, 0
TestParameter, AutoAnalysis.Line2.Point1.XY.X, 
TestParameter, AutoAnalysis.Line2.Point1.XY.Y, 
TestParameter, AutoAnalysis.Line2.Point1.Data.Var, 
TestParameter, AutoAnalysis.Line2.Point1.Data.Condition, 
TestParameter, AutoAnalysis.Line2.Point1.Data.Start, false
TestParameter, AutoAnalysis.Line2.Point1.Data.StartVar, 
TestParameter, AutoAnalysis.Line2.Point1.Data.StartCondition, 
TestParameter, AutoAnalysis.Line2.Point2.Type, 0
TestParameter, AutoAnalysis.Line2.Point2.XY.X, 
TestParameter, AutoAnalysis.Line2.Point2.XY.Y, 
TestParameter, AutoAnalysis.Line2.Point2.Data.Var, 
TestParameter, AutoAnalysis.Line2.Point2.Data.Condition, 
TestParameter, AutoAnalysis.Line2.Point2.Data.Start, false
TestParameter, AutoAnalysis.Line2.Point2.Data.StartVar, 
TestParameter, AutoAnalysis.Line2.Point2.Data.StartCondition, 
TestParameter, AutoAnalysis.Line2.GradientExpr, 0
TestParameter, AutoAnalysis.Marker.Enabled, false
TestParameter, AutoAnalysis.Marker.Data.Var, 
TestParameter, AutoAnalysis.Marker.Data.Condition, 
TestParameter, AutoAnalysis.Marker.Data.Start, false
TestParameter, AutoAnalysis.Marker.Data.StartVar, 
TestParameter, AutoAnalysis.Marker.Data.StartCondition, 
MetaData, TestRecord.EntryPoint, false
MetaData, TestRecord.RecordTime, 12/28/2020 10:35:36
MetaData, TestRecord.TestTarget, 
MetaData, TestRecord.IterationIndex, 15
MetaData, TestRecord.Preservation, true
MetaData, TestRecord.Flag, 
MetaData, TestRecord.Remarks, 
MetaData, TestRecord.LinkKey, a478d0f6-9448-445e-8fbb-9fc54e85df6c
Dimension1, 51, 51, 51, 51, 51
Dimension2, 1, 1, 1, 1, 1
DataName, Ids, Vdrain, Cgs, G, Ta
DataValue, -2.77E-09, 0.001, 2.72425E-10, -0.000386838, 25
DataValue, -1.7500000000000002E-09, 1.0026000000000002, 2.724E-10, -0.000387695, 25
DataValue, -8.88E-09, 2.0012000000000003, 2.7237200000000003E-10, -0.00038722, 25
DataValue, -5.5500000000000009E-09, 2.9984, 2.7243800000000003E-10, -0.00038775800000000004, 25
DataValue, -4.7400000000000006E-09, 4.0096, 2.7240200000000003E-10, -0.00038814100000000005, 25
DataValue, -2.8800000000000004E-09, 4.9996, 2.7239100000000004E-10, -0.00038748600000000004, 25
DataValue, -6.6E-09, 6, 2.7245100000000003E-10, -0.00038692, 25
DataValue, -8.22E-09, 7.0058000000000007, 2.7243300000000004E-10, -0.00038720400000000004, 25
DataValue, -9.5500000000000011E-09, 8.0012, 2.7236200000000005E-10, -0.00038721800000000005, 25
DataValue, -7.6200000000000014E-09, 9.0004, 2.7236200000000005E-10, -0.00038662900000000004, 25
DataValue, -1.5000000000000003E-10, 9.9974, 2.72359E-10, -0.000387506, 25
DataValue, -8.5000000000000017E-09, 11.003400000000001, 2.72383E-10, -0.000386803, 25
DataValue, -2.46E-09, 11.999, 2.72448E-10, -0.000386951, 25
DataValue, -6.300000000000001E-10, 12.994200000000001, 2.72339E-10, -0.000387222, 25
DataValue, 1.4000000000000001E-09, 13.9976, 2.72419E-10, -0.000387137, 25
DataValue, -9.3300000000000015E-09, 14.999600000000001, 2.7232500000000004E-10, -0.00038742000000000003, 25
DataValue, -4.5300000000000007E-09, 16.004, 2.7240800000000003E-10, -0.000387099, 25
DataValue, -3.6500000000000004E-09, 17.002200000000002, 2.72339E-10, -0.000386885, 25
DataValue, 3.7E-10, 17.998, 2.72357E-10, -0.00038704600000000005, 25
DataValue, -1.0480000000000002E-08, 19.003800000000002, 2.72437E-10, -0.000387192, 25
DataValue, -3.5200000000000003E-09, 19.994600000000002, 2.7243200000000003E-10, -0.000387688, 25
DataValue, -2.94E-09, 20.9978, 2.7236700000000004E-10, -0.000387687, 25
DataValue, -4.3700000000000004E-09, 21.9984, 2.72489E-10, -0.00038718600000000003, 25
DataValue, -1.4000000000000001E-09, 22.998800000000003, 2.72405E-10, -0.000387119, 25
DataValue, -4.0500000000000007E-09, 24.000400000000003, 2.7239800000000005E-10, -0.00038726300000000005, 25
DataValue, -8.460000000000001E-09, 25.007, 2.72387E-10, -0.000387876, 25
DataValue, -1.36E-09, 25.9984, 2.72285E-10, -0.000387542, 25
DataValue, -6.7000000000000004E-09, 26.9984, 2.72424E-10, -0.00038789300000000005, 25
DataValue, -4.7300000000000008E-09, 27.998800000000003, 2.72363E-10, -0.000386986, 25
DataValue, -2.5900000000000004E-09, 28.9998, 2.72323E-10, -0.000387684, 25
DataValue, -9.8200000000000012E-09, 30.004, 2.72383E-10, -0.00038732500000000005, 25
DataValue, -8.870000000000001E-09, 31.000600000000002, 2.72387E-10, -0.000386903, 25
DataValue, -4.89E-09, 32.0006, 2.7243E-10, -0.000386981, 25
DataValue, -2.4400000000000003E-09, 33.0028, 2.7239000000000003E-10, -0.000387533, 25
DataValue, -3.3E-09, 33.995400000000004, 2.72449E-10, -0.00038772400000000004, 25
DataValue, -6.000000000000001E-10, 34.9998, 2.72334E-10, -0.000387103, 25
DataValue, -2.8100000000000004E-09, 35.998200000000004, 2.72381E-10, -0.00038746, 25
DataValue, -3.7100000000000002E-09, 36.998000000000005, 2.7240400000000004E-10, -0.00038700400000000004, 25
DataValue, -6.5500000000000007E-09, 38.0036, 2.72352E-10, -0.00038734500000000004, 25
DataValue, 4.0900000000000006E-09, 38.9974, 2.7245800000000004E-10, -0.00038728000000000005, 25
DataValue, -4.8500000000000004E-09, 40.0024, 2.7234300000000004E-10, -0.00038769900000000003, 25
DataValue, -1.95E-09, 41.0048, 2.72341E-10, -0.00038737600000000004, 25
DataValue, -5.92E-09, 42.0066, 2.72351E-10, -0.000387564, 25
DataValue, -6.2400000000000008E-09, 43.0006, 2.7236600000000003E-10, -0.00038738900000000003, 25
DataValue, 1.0300000000000002E-09, 44.0002, 2.72341E-10, -0.000387096, 25
DataValue, -7.1300000000000008E-09, 45.0052, 2.7239700000000004E-10, -0.000387308, 25
DataValue, -5.5200000000000008E-09, 46.003800000000005, 2.72429E-10, -0.000386895, 25
DataValue, -1.19E-09, 46.9958, 2.7230000000000003E-10, -0.000387133, 25
DataValue, -4.9000000000000009E-09, 47.999, 2.72345E-10, -0.000386799, 25
DataValue, -7.9000000000000013E-09, 49.0028, 2.72431E-10, -0.000387467, 25
DataValue, -4.44E-09, 50.0046, 2.7236800000000005E-10, -0.00038718600000000003, 25