
SetupTitle, Cgs
ApplicationTest, Cgs, Public
TestParameter, Name, Memo, IntegTime, Frequency, OscLevel, Scale, Gate, VdBias, VdStart, VdStop, VdLinearStep, IdLimit, HoldTime, DelayTime, IdMinRange
TestParameter, Value, , SHORT, 1000000, 0.025, LINEAR, CMU1:MF	MFCMU, SMU6:HV	HVSMU, 0, 50, 1, 0.004, 1, 1, 10uA
DutParameter, Name, Polarity, Temp, YAxisCgsMin, YAxisCgsMax
DutParameter, Value, 1, 25, 1E-12, 5E-09
MetaData, TestRecord.EntryPoint, true
MetaData, TestRecord.RecordTime, 12/28/2020 13:26:54
MetaData, TestRecord.TestTarget, 
MetaData, TestRecord.IterationIndex, 30
MetaData, TestRecord.Preservation, true
MetaData, TestRecord.Flag, 
MetaData, TestRecord.Remarks, 
MetaData, TestRecord.LinkKey, 1810f780-08c2-473d-b9eb-79cb578b7f78
Dimension1, 51, 51, 51, 51, 51
Dimension2, 1, 1, 1, 1, 1
DataName, Ids, Vdrain, Cgs, G, Ta
DataValue, -7.9000000000000013E-09, 0.0084000000000000012, 1.17877E-09, -0.00154995, 25
DataValue, -6.2200000000000004E-09, 0.9998, 1.17842E-09, -0.00155046, 25
DataValue, 6.4000000000000006E-10, 1.9946000000000002, 1.17884E-09, -0.00155023, 25
DataValue, -7.8E-09, 3.0046, 1.17844E-09, -0.00154927, 25
DataValue, -2.7400000000000005E-09, 4.0036000000000005, 1.17845E-09, -0.00154963, 25
DataValue, -5.0100000000000007E-09, 4.9982000000000006, 1.17835E-09, -0.00154961, 25
DataValue, -1.1330000000000001E-08, 6.0104000000000006, 1.1787E-09, -0.00155045, 25
DataValue, -6.9300000000000007E-09, 7.0024000000000006, 1.17835E-09, -0.00154865, 25
DataValue, -8.1800000000000011E-09, 8.0048000000000012, 1.17871E-09, -0.00155034, 25
DataValue, -6.5200000000000006E-09, 8.9966, 1.17849E-09, -0.00154958, 25
DataValue, -6.5900000000000006E-09, 9.998800000000001, 1.1786E-09, -0.00155027, 25
DataValue, -7.59E-09, 11.0032, 1.17839E-09, -0.0015502600000000001, 25
DataValue, -5.6000000000000005E-09, 12.0014, 1.17873E-09, -0.00155096, 25
DataValue, -3.76E-09, 12.999, 1.17848E-09, -0.00154993, 25
DataValue, -5.2900000000000006E-09, 14.001000000000001, 1.17864E-09, -0.00155025, 25
DataValue, -2.2800000000000004E-09, 14.995000000000001, 1.17833E-09, -0.0015499, 25
DataValue, -6.470000000000001E-09, 15.9974, 1.17854E-09, -0.0015510300000000001, 25
DataValue, -1.0070000000000002E-08, 17.0034, 1.17856E-09, -0.00154922, 25
DataValue, 4.2000000000000005E-10, 17.994, 1.17861E-09, -0.00155032, 25
DataValue, -1.98E-09, 18.9978, 1.17849E-09, -0.0015495700000000001, 25
DataValue, -2.9800000000000005E-09, 19.9994, 1.17837E-09, -0.00155053, 25
DataValue, -6.2700000000000009E-09, 21.0012, 1.17851E-09, -0.00154899, 25
DataValue, 3.6000000000000005E-10, 21.9982, 1.17847E-09, -0.00154959, 25
DataValue, 7E-11, 22.9952, 1.17856E-09, -0.0015496400000000001, 25
DataValue, -3.7800000000000006E-09, 24.0014, 1.17832E-09, -0.00155007, 25
DataValue, -8.48E-09, 25.005200000000002, 1.17859E-09, -0.00155044, 25
DataValue, -6.36E-09, 26.0046, 1.17828E-09, -0.00154998, 25
DataValue, -3.9100000000000008E-09, 27.0024, 1.17863E-09, -0.00154949, 25
DataValue, -4.44E-09, 27.997600000000002, 1.17813E-09, -0.00155055, 25
DataValue, -8.2000000000000006E-10, 29.0016, 1.17874E-09, -0.00155005, 25
DataValue, 4.41E-09, 29.994200000000003, 1.17821E-09, -0.00154945, 25
DataValue, -3.5000000000000003E-10, 30.9994, 1.17858E-09, -0.00154932, 25
DataValue, -1.0630000000000002E-08, 31.9994, 1.17818E-09, -0.00154918, 25
DataValue, -7.020000000000001E-09, 32.9998, 1.17867E-09, -0.0015493100000000001, 25
DataValue, -2.0100000000000003E-09, 34.0006, 1.17813E-09, -0.00154969, 25
DataValue, -3.2600000000000003E-09, 34.995200000000004, 1.17884E-09, -0.00155045, 25
DataValue, -9.5E-10, 35.996, 1.17822E-09, -0.00154916, 25
DataValue, -6.12E-09, 37.001000000000005, 1.17866E-09, -0.00154969, 25
DataValue, -3.6200000000000003E-09, 37.9976, 1.17829E-09, -0.00154865, 25
DataValue, -6.130000000000001E-09, 39.005, 1.17867E-09, -0.00154928, 25
DataValue, -3.5000000000000003E-09, 39.998200000000004, 1.17822E-09, -0.0015492400000000001, 25
DataValue, -3.9E-09, 40.9976, 1.17865E-09, -0.00155089, 25
DataValue, -7.0000000000000006E-10, 41.9988, 1.17831E-09, -0.00154871, 25
DataValue, -6.4200000000000006E-09, 42.9996, 1.17868E-09, -0.0015499, 25
DataValue, -7.94E-09, 44.0022, 1.17867E-09, -0.00154982, 25
DataValue, -5.7000000000000006E-09, 44.9968, 1.17872E-09, -0.0015489500000000001, 25
DataValue, -3.93E-09, 45.9998, 1.17871E-09, -0.00155004, 25
DataValue, -9.4000000000000015E-09, 47.007400000000004, 1.17874E-09, -0.00154991, 25
DataValue, -4.1200000000000007E-09, 47.9994, 1.17873E-09, -0.00154999, 25
DataValue, 1.2600000000000002E-09, 48.992200000000004, 1.17861E-09, -0.00154977, 25
DataValue, -8.6000000000000013E-10, 49.994, 1.17865E-09, -0.00155039, 25
SetupTitle, Cgs
PrimitiveTest, C-V Sweep
TestParameter, Channel.UnitTyp, CMU, SMU
TestParameter, Channel.Unit, Gate, VdBias
TestParameter, Channel.IName, , Ids
TestParameter, Channel.VName, VBias, Vdrain
TestParameter, Channel.Mode, , V
TestParameter, Channel.Func, CONST, VAR1
TestParameter, Channel.Index, 
TestParameter, Channel.Time, 
TestParameter, Measurement.Primary.Locus, Single
TestParameter, Measurement.Primary.Scale, Scale
TestParameter, Measurement.Primary.Start, VdStart*Polarity
TestParameter, Measurement.Primary.Stop, VdStop*Polarity
TestParameter, Measurement.Primary.Compliance, IdLimit
TestParameter, Measurement.Primary.Step, VdLinearStep*Polarity
TestParameter, Measurement.Aborting.Condition, CONTINUE AT ANY
TestParameter, Measurement.PostOutput.Value, START
TestParameter, Measurement.PostOutput.Retention, OFF
TestParameter, Measurement.Secondary.ACLevel, OscLevel
TestParameter, Measurement.Secondary.FName, Freq
TestParameter, Measurement.Secondary.Frequency, Frequency
TestParameter, Measurement.Bias.Source, 0, 0
TestParameter, Measurement.ImpedanceMode.Model, Cp-G
TestParameter, Measurement.ImpedanceMode.CName, Cgs
TestParameter, Measurement.ImpedanceMode.LName, L
TestParameter, Measurement.ImpedanceMode.GName, G
TestParameter, Measurement.ImpedanceMode.RName, R
TestParameter, Measurement.ImpedanceMode.QName, Q
TestParameter, Measurement.ImpedanceMode.DName, D
TestParameter, Measurement.ImpedanceMode.YName, Y
TestParameter, Measurement.ImpedanceMode.ZName, Z
TestParameter, Measurement.ImpedanceMode.ThName, Theta
TestParameter, Measurement.ImpedanceMode.BName, B
TestParameter, Measurement.ImpedanceMode.XName, X
TestParameter, Measurement.Monitor.Unit, CMU:=Gate, SMU:=VdBias
TestParameter, Measurement.Monitor.RangingMode, AUTO, LIMITED
TestParameter, Measurement.Monitor.RangeBoundary, 50, IdMinRange
TestParameter, Measurement.Monitor.AcMonitorSymbol, 
TestParameter, Measurement.Monitor.DcMonitorSymbol, 
TestParameter, Measurement.Timing.Hold, HoldTime
TestParameter, Measurement.Timing.Delay, DelayTime
TestParameter, Measurement.Adc.UnitType, Cmu, Smu
TestParameter, Measurement.Adc.HighResolution.Mode, IntegMode, IntegMode
TestParameter, Measurement.Adc.HighResolution.Coeff, AdcFactor, AdcFactor
TestParameter, Measurement.WaitTime.Source.Coeff, 1
TestParameter, Measurement.WaitTime.Source.Offset, 0
TestParameter, Measurement.WaitTime.Monitor.Coeff, 1
TestParameter, Measurement.WaitTime.Monitor.Offset, 0
TestParameter, Function.User.Name, Ta
TestParameter, Function.User.Unit, deg
TestParameter, Function.User.Definition, Temp
TestParameter, Output.Graph.Enabled, true
TestParameter, Output.Graph.AutoScaling, false
TestParameter, Output.Graph.XAxis.Data, Vdrain
TestParameter, Output.Graph.XAxis.Scale, ScaleStr
TestParameter, Output.Graph.XAxis.Left, VdStart*Polarity
TestParameter, Output.Graph.XAxis.Right, VdStop*Polarity
TestParameter, Output.Graph.XAxis.RunTimeAutoScale, false
TestParameter, Output.Graph.YAxis.Data, Cgs
TestParameter, Output.Graph.YAxis.Scale, Log
TestParameter, Output.Graph.YAxis.Bottom, YAxisCgsMin
TestParameter, Output.Graph.YAxis.Top, YAxisCgsMax
TestParameter, Output.Graph.YAxis.Group, 
TestParameter, Output.Graph.YAxis.RunTimeAutoScale, false
TestParameter, Output.List.Data, Vdrain, Cgs, Ids
TestParameter, Output.Scalar.Data, Ta
TestParameter, AutoAnalysis.Interpolation, true
TestParameter, AutoAnalysis.Line1.Enabled, false
TestParameter, AutoAnalysis.Line1.Type, 1
TestParameter, AutoAnalysis.Line1.Fix, True
TestParameter, AutoAnalysis.Line1.YAxis, 0
TestParameter, AutoAnalysis.Line1.Point1.Type, 0
TestParameter, AutoAnalysis.Line1.Point1.XY.X, 
TestParameter, AutoAnalysis.Line1.Point1.XY.Y, 
TestParameter, AutoAnalysis.Line1.Point1.Data.Var, 
TestParameter, AutoAnalysis.Line1.Point1.Data.Condition, 
TestParameter, AutoAnalysis.Line1.Point1.Data.Start, false
TestParameter, AutoAnalysis.Line1.Point1.Data.StartVar, 
TestParameter, AutoAnalysis.Line1.Point1.Data.StartCondition, 
TestParameter, AutoAnalysis.Line1.Point2.Type, 0
TestParameter, AutoAnalysis.Line1.Point2.XY.X, 
TestParameter, AutoAnalysis.Line1.Point2.XY.Y, 
TestParameter, AutoAnalysis.Line1.Point2.Data.Var, 
TestParameter, AutoAnalysis.Line1.Point2.Data.Condition, 
TestParameter, AutoAnalysis.Line1.Point2.Data.Start, false
TestParameter, AutoAnalysis.Line1.Point2.Data.StartVar, 
TestParameter, AutoAnalysis.Line1.Point2.Data.StartCondition, 
TestParameter, AutoAnalysis.Line1.GradientExpr, 0
TestParameter, AutoAnalysis.Line2.Enabled, false
TestParameter, AutoAnalysis.Line2.Type, 1
TestParameter, AutoAnalysis.Line2.Fix, True
TestParameter, AutoAnalysis.Line2.YAxis, 0
TestParameter, AutoAnalysis.Line2.Point1.Type, 0
TestParameter, AutoAnalysis.Line2.Point1.XY.X, 
TestParameter, AutoAnalysis.Line2.Point1.XY.Y, 
TestParameter, AutoAnalysis.Line2.Point1.Data.Var, 
TestParameter, AutoAnalysis.Line2.Point1.Data.Condition, 
TestParameter, AutoAnalysis.Line2.Point1.Data.Start, false
TestParameter, AutoAnalysis.Line2.Point1.Data.StartVar, 
TestParameter, AutoAnalysis.Line2.Point1.Data.StartCondition, 
TestParameter, AutoAnalysis.Line2.Point2.Type, 0
TestParameter, AutoAnalysis.Line2.Point2.XY.X, 
TestParameter, AutoAnalysis.Line2.Point2.XY.Y, 
TestParameter, AutoAnalysis.Line2.Point2.Data.Var, 
TestParameter, AutoAnalysis.Line2.Point2.Data.Condition, 
TestParameter, AutoAnalysis.Line2.Point2.Data.Start, false
TestParameter, AutoAnalysis.Line2.Point2.Data.StartVar, 
TestParameter, AutoAnalysis.Line2.Point2.Data.StartCondition, 
TestParameter, AutoAnalysis.Line2.GradientExpr, 0
TestParameter, AutoAnalysis.Marker.Enabled, false
TestParameter, AutoAnalysis.Marker.Data.Var, 
TestParameter, AutoAnalysis.Marker.Data.Condition, 
TestParameter, AutoAnalysis.Marker.Data.Start, false
TestParameter, AutoAnalysis.Marker.Data.StartVar, 
TestParameter, AutoAnalysis.Marker.Data.StartCondition, 
MetaData, TestRecord.EntryPoint, false
MetaData, TestRecord.RecordTime, 12/28/2020 13:26:54
MetaData, TestRecord.TestTarget, 
MetaData, TestRecord.IterationIndex, 30
MetaData, TestRecord.Preservation, true
MetaData, TestRecord.Flag, 
MetaData, TestRecord.Remarks, 
MetaData, TestRecord.LinkKey, 1810f780-08c2-473d-b9eb-79cb578b7f78
Dimension1, 51, 51, 51, 51, 51
Dimension2, 1, 1, 1, 1, 1
DataName, Ids, Vdrain, Cgs, G, Ta
DataValue, -7.9000000000000013E-09, 0.0084000000000000012, 1.17877E-09, -0.00154995, 25
DataValue, -6.2200000000000004E-09, 0.9998, 1.17842E-09, -0.00155046, 25
DataValue, 6.4000000000000006E-10, 1.9946000000000002, 1.17884E-09, -0.00155023, 25
DataValue, -7.8E-09, 3.0046, 1.17844E-09, -0.00154927, 25
DataValue, -2.7400000000000005E-09, 4.0036000000000005, 1.17845E-09, -0.00154963, 25
DataValue, -5.0100000000000007E-09, 4.9982000000000006, 1.17835E-09, -0.00154961, 25
DataValue, -1.1330000000000001E-08, 6.0104000000000006, 1.1787E-09, -0.00155045, 25
DataValue, -6.9300000000000007E-09, 7.0024000000000006, 1.17835E-09, -0.00154865, 25
DataValue, -8.1800000000000011E-09, 8.0048000000000012, 1.17871E-09, -0.00155034, 25
DataValue, -6.5200000000000006E-09, 8.9966, 1.17849E-09, -0.00154958, 25
DataValue, -6.5900000000000006E-09, 9.998800000000001, 1.1786E-09, -0.00155027, 25
DataValue, -7.59E-09, 11.0032, 1.17839E-09, -0.0015502600000000001, 25
DataValue, -5.6000000000000005E-09, 12.0014, 1.17873E-09, -0.00155096, 25
DataValue, -3.76E-09, 12.999, 1.17848E-09, -0.00154993, 25
DataValue, -5.2900000000000006E-09, 14.001000000000001, 1.17864E-09, -0.00155025, 25
DataValue, -2.2800000000000004E-09, 14.995000000000001, 1.17833E-09, -0.0015499, 25
DataValue, -6.470000000000001E-09, 15.9974, 1.17854E-09, -0.0015510300000000001, 25
DataValue, -1.0070000000000002E-08, 17.0034, 1.17856E-09, -0.00154922, 25
DataValue, 4.2000000000000005E-10, 17.994, 1.17861E-09, -0.00155032, 25
DataValue, -1.98E-09, 18.9978, 1.17849E-09, -0.0015495700000000001, 25
DataValue, -2.9800000000000005E-09, 19.9994, 1.17837E-09, -0.00155053, 25
DataValue, -6.2700000000000009E-09, 21.0012, 1.17851E-09, -0.00154899, 25
DataValue, 3.6000000000000005E-10, 21.9982, 1.17847E-09, -0.00154959, 25
DataValue, 7E-11, 22.9952, 1.17856E-09, -0.0015496400000000001, 25
DataValue, -3.7800000000000006E-09, 24.0014, 1.17832E-09, -0.00155007, 25
DataValue, -8.48E-09, 25.005200000000002, 1.17859E-09, -0.00155044, 25
DataValue, -6.36E-09, 26.0046, 1.17828E-09, -0.00154998, 25
DataValue, -3.9100000000000008E-09, 27.0024, 1.17863E-09, -0.00154949, 25
DataValue, -4.44E-09, 27.997600000000002, 1.17813E-09, -0.00155055, 25
DataValue, -8.2000000000000006E-10, 29.0016, 1.17874E-09, -0.00155005, 25
DataValue, 4.41E-09, 29.994200000000003, 1.17821E-09, -0.00154945, 25
DataValue, -3.5000000000000003E-10, 30.9994, 1.17858E-09, -0.00154932, 25
DataValue, -1.0630000000000002E-08, 31.9994, 1.17818E-09, -0.00154918, 25
DataValue, -7.020000000000001E-09, 32.9998, 1.17867E-09, -0.0015493100000000001, 25
DataValue, -2.0100000000000003E-09, 34.0006, 1.17813E-09, -0.00154969, 25
DataValue, -3.2600000000000003E-09, 34.995200000000004, 1.17884E-09, -0.00155045, 25
DataValue, -9.5E-10, 35.996, 1.17822E-09, -0.00154916, 25
DataValue, -6.12E-09, 37.001000000000005, 1.17866E-09, -0.00154969, 25
DataValue, -3.6200000000000003E-09, 37.9976, 1.17829E-09, -0.00154865, 25
DataValue, -6.130000000000001E-09, 39.005, 1.17867E-09, -0.00154928, 25
DataValue, -3.5000000000000003E-09, 39.998200000000004, 1.17822E-09, -0.0015492400000000001, 25
DataValue, -3.9E-09, 40.9976, 1.17865E-09, -0.00155089, 25
DataValue, -7.0000000000000006E-10, 41.9988, 1.17831E-09, -0.00154871, 25
DataValue, -6.4200000000000006E-09, 42.9996, 1.17868E-09, -0.0015499, 25
DataValue, -7.94E-09, 44.0022, 1.17867E-09, -0.00154982, 25
DataValue, -5.7000000000000006E-09, 44.9968, 1.17872E-09, -0.0015489500000000001, 25
DataValue, -3.93E-09, 45.9998, 1.17871E-09, -0.00155004, 25
DataValue, -9.4000000000000015E-09, 47.007400000000004, 1.17874E-09, -0.00154991, 25
DataValue, -4.1200000000000007E-09, 47.9994, 1.17873E-09, -0.00154999, 25
DataValue, 1.2600000000000002E-09, 48.992200000000004, 1.17861E-09, -0.00154977, 25
DataValue, -8.6000000000000013E-10, 49.994, 1.17865E-09, -0.00155039, 25