
SetupTitle, Cgs
ApplicationTest, Cgs, Public
TestParameter, Name, Memo, IntegTime, Frequency, OscLevel, Scale, Gate, VdBias, VdStart, VdStop, VdLinearStep, IdLimit, HoldTime, DelayTime, IdMinRange
TestParameter, Value, , SHORT, 1000000, 0.025, LINEAR, CMU1:MF	MFCMU, SMU6:HV	HVSMU, 0, 50, 1, 0.004, 1, 1, 10uA
DutParameter, Name, Polarity, Temp, YAxisCgsMin, YAxisCgsMax
DutParameter, Value, 1, 25, 1E-12, 5E-09
MetaData, TestRecord.EntryPoint, true
MetaData, TestRecord.RecordTime, 12/28/2020 11:50:40
MetaData, TestRecord.TestTarget, 
MetaData, TestRecord.IterationIndex, 23
MetaData, TestRecord.Preservation, true
MetaData, TestRecord.Flag, 
MetaData, TestRecord.Remarks, 
MetaData, TestRecord.LinkKey, a4f1c32d-f987-4ed5-8025-0342b99b510e
Dimension1, 51, 51, 51, 51, 51
Dimension2, 1, 1, 1, 1, 1
DataName, Ids, Vdrain, Cgs, G, Ta
DataValue, -8.47E-09, -0.0012000000000000001, 1.16139E-09, -0.0015324100000000001, 25
DataValue, 2.2000000000000002E-10, 0.9968, 1.16144E-09, -0.00153239, 25
DataValue, -9.11E-09, 2.004, 1.16156E-09, -0.00153247, 25
DataValue, -5.44E-09, 2.9974000000000003, 1.16147E-09, -0.00153284, 25
DataValue, 2.2700000000000002E-09, 3.9998, 1.16144E-09, -0.0015322, 25
DataValue, 4.5000000000000006E-09, 4.996, 1.16169E-09, -0.00153234, 25
DataValue, -3.6500000000000004E-09, 5.9944000000000006, 1.16165E-09, -0.00153235, 25
DataValue, -6.2500000000000005E-09, 7.0064, 1.16169E-09, -0.0015328, 25
DataValue, -2.55E-09, 8.0046, 1.16158E-09, -0.00153296, 25
DataValue, -1.3900000000000002E-09, 8.9934000000000012, 1.1618E-09, -0.00153359, 25
DataValue, -2.1800000000000003E-09, 10.0012, 1.16176E-09, -0.00153302, 25
DataValue, -1.1170000000000002E-08, 11.0084, 1.16181E-09, -0.00153304, 25
DataValue, -8.7100000000000016E-09, 12.0052, 1.16173E-09, -0.00153322, 25
DataValue, -1.6600000000000003E-09, 13.000200000000001, 1.1618E-09, -0.00153304, 25
DataValue, -7.08E-09, 14.004000000000001, 1.1618E-09, -0.00153238, 25
DataValue, -3.3500000000000002E-09, 15.005, 1.16195E-09, -0.00153331, 25
DataValue, -7.1100000000000005E-09, 16.0024, 1.16184E-09, -0.00153323, 25
DataValue, -7.53E-09, 17.0032, 1.16197E-09, -0.00153307, 25
DataValue, -7.1700000000000007E-09, 18.005200000000002, 1.16194E-09, -0.00153243, 25
DataValue, -6.98E-09, 19.0094, 1.16188E-09, -0.00153201, 25
DataValue, -1.142E-08, 19.9998, 1.16206E-09, -0.0015324100000000001, 25
DataValue, -6.6900000000000007E-09, 21.0014, 1.16192E-09, -0.00153187, 25
DataValue, -3.3E-09, 21.999000000000002, 1.16205E-09, -0.00153245, 25
DataValue, 1.97E-09, 23.0002, 1.16209E-09, -0.00153211, 25
DataValue, -6.6800000000000009E-09, 24.0002, 1.16197E-09, -0.00153285, 25
DataValue, -3.8100000000000007E-09, 24.9954, 1.16199E-09, -0.00153255, 25
DataValue, -8.390000000000001E-09, 26.0024, 1.16218E-09, -0.00153181, 25
DataValue, 9.8000000000000013E-10, 26.9982, 1.16203E-09, -0.00153177, 25
DataValue, -3.2900000000000004E-09, 27.9966, 1.16221E-09, -0.0015332100000000001, 25
DataValue, -1.1050000000000001E-08, 29.006400000000003, 1.16208E-09, -0.00153309, 25
DataValue, -1.1740000000000001E-08, 30.0012, 1.16201E-09, -0.00153283, 25
DataValue, -1.0890000000000002E-08, 31.003, 1.16222E-09, -0.00153289, 25
DataValue, -7.92E-09, 32.0048, 1.16216E-09, -0.00153216, 25
DataValue, -2.6000000000000003E-10, 33.004400000000004, 1.16217E-09, -0.00153216, 25
DataValue, -6.710000000000001E-09, 34.005, 1.16215E-09, -0.00153247, 25
DataValue, -4.92E-09, 34.9976, 1.16215E-09, -0.00153272, 25
DataValue, -6.5500000000000007E-09, 36.0056, 1.16216E-09, -0.00153279, 25
DataValue, -3.6700000000000004E-09, 37.004200000000004, 1.16232E-09, -0.00153238, 25
DataValue, -2.79E-09, 38.0028, 1.16222E-09, -0.00153282, 25
DataValue, -4.58E-09, 39.000800000000005, 1.16202E-09, -0.00153136, 25
DataValue, -3.13E-09, 40.0018, 1.16224E-09, -0.00153356, 25
DataValue, -8.390000000000001E-09, 41.0052, 1.16216E-09, -0.00153294, 25
DataValue, -2.36E-09, 41.9992, 1.1623E-09, -0.00153326, 25
DataValue, -1.5200000000000001E-09, 42.997800000000005, 1.1622E-09, -0.0015329, 25
DataValue, -6.6900000000000007E-09, 44.002, 1.16218E-09, -0.00153282, 25
DataValue, -6.7600000000000006E-09, 45.0026, 1.16222E-09, -0.00153263, 25
DataValue, -6.2700000000000009E-09, 46.0018, 1.16214E-09, -0.00153311, 25
DataValue, 2.5E-10, 46.998200000000004, 1.16224E-09, -0.00153274, 25
DataValue, -8.0900000000000016E-09, 48.0048, 1.16223E-09, -0.00153216, 25
DataValue, -6.060000000000001E-09, 49.000600000000006, 1.16224E-09, -0.00153309, 25
DataValue, -8.27E-09, 50.0018, 1.1623E-09, -0.00153269, 25
SetupTitle, Cgs
PrimitiveTest, C-V Sweep
TestParameter, Channel.UnitTyp, CMU, SMU
TestParameter, Channel.Unit, Gate, VdBias
TestParameter, Channel.IName, , Ids
TestParameter, Channel.VName, VBias, Vdrain
TestParameter, Channel.Mode, , V
TestParameter, Channel.Func, CONST, VAR1
TestParameter, Channel.Index, 
TestParameter, Channel.Time, 
TestParameter, Measurement.Primary.Locus, Single
TestParameter, Measurement.Primary.Scale, Scale
TestParameter, Measurement.Primary.Start, VdStart*Polarity
TestParameter, Measurement.Primary.Stop, VdStop*Polarity
TestParameter, Measurement.Primary.Compliance, IdLimit
TestParameter, Measurement.Primary.Step, VdLinearStep*Polarity
TestParameter, Measurement.Aborting.Condition, CONTINUE AT ANY
TestParameter, Measurement.PostOutput.Value, START
TestParameter, Measurement.PostOutput.Retention, OFF
TestParameter, Measurement.Secondary.ACLevel, OscLevel
TestParameter, Measurement.Secondary.FName, Freq
TestParameter, Measurement.Secondary.Frequency, Frequency
TestParameter, Measurement.Bias.Source, 0, 0
TestParameter, Measurement.ImpedanceMode.Model, Cp-G
TestParameter, Measurement.ImpedanceMode.CName, Cgs
TestParameter, Measurement.ImpedanceMode.LName, L
TestParameter, Measurement.ImpedanceMode.GName, G
TestParameter, Measurement.ImpedanceMode.RName, R
TestParameter, Measurement.ImpedanceMode.QName, Q
TestParameter, Measurement.ImpedanceMode.DName, D
TestParameter, Measurement.ImpedanceMode.YName, Y
TestParameter, Measurement.ImpedanceMode.ZName, Z
TestParameter, Measurement.ImpedanceMode.ThName, Theta
TestParameter, Measurement.ImpedanceMode.BName, B
TestParameter, Measurement.ImpedanceMode.XName, X
TestParameter, Measurement.Monitor.Unit, CMU:=Gate, SMU:=VdBias
TestParameter, Measurement.Monitor.RangingMode, AUTO, LIMITED
TestParameter, Measurement.Monitor.RangeBoundary, 50, IdMinRange
TestParameter, Measurement.Monitor.AcMonitorSymbol, 
TestParameter, Measurement.Monitor.DcMonitorSymbol, 
TestParameter, Measurement.Timing.Hold, HoldTime
TestParameter, Measurement.Timing.Delay, DelayTime
TestParameter, Measurement.Adc.UnitType, Cmu, Smu
TestParameter, Measurement.Adc.HighResolution.Mode, IntegMode, IntegMode
TestParameter, Measurement.Adc.HighResolution.Coeff, AdcFactor, AdcFactor
TestParameter, Measurement.WaitTime.Source.Coeff, 1
TestParameter, Measurement.WaitTime.Source.Offset, 0
TestParameter, Measurement.WaitTime.Monitor.Coeff, 1
TestParameter, Measurement.WaitTime.Monitor.Offset, 0
TestParameter, Function.User.Name, Ta
TestParameter, Function.User.Unit, deg
TestParameter, Function.User.Definition, Temp
TestParameter, Output.Graph.Enabled, true
TestParameter, Output.Graph.AutoScaling, false
TestParameter, Output.Graph.XAxis.Data, Vdrain
TestParameter, Output.Graph.XAxis.Scale, ScaleStr
TestParameter, Output.Graph.XAxis.Left, VdStart*Polarity
TestParameter, Output.Graph.XAxis.Right, VdStop*Polarity
TestParameter, Output.Graph.XAxis.RunTimeAutoScale, false
TestParameter, Output.Graph.YAxis.Data, Cgs
TestParameter, Output.Graph.YAxis.Scale, Log
TestParameter, Output.Graph.YAxis.Bottom, YAxisCgsMin
TestParameter, Output.Graph.YAxis.Top, YAxisCgsMax
TestParameter, Output.Graph.YAxis.Group, 
TestParameter, Output.Graph.YAxis.RunTimeAutoScale, false
TestParameter, Output.List.Data, Vdrain, Cgs, Ids
TestParameter, Output.Scalar.Data, Ta
TestParameter, AutoAnalysis.Interpolation, true
TestParameter, AutoAnalysis.Line1.Enabled, false
TestParameter, AutoAnalysis.Line1.Type, 1
TestParameter, AutoAnalysis.Line1.Fix, True
TestParameter, AutoAnalysis.Line1.YAxis, 0
TestParameter, AutoAnalysis.Line1.Point1.Type, 0
TestParameter, AutoAnalysis.Line1.Point1.XY.X, 
TestParameter, AutoAnalysis.Line1.Point1.XY.Y, 
TestParameter, AutoAnalysis.Line1.Point1.Data.Var, 
TestParameter, AutoAnalysis.Line1.Point1.Data.Condition, 
TestParameter, AutoAnalysis.Line1.Point1.Data.Start, false
TestParameter, AutoAnalysis.Line1.Point1.Data.StartVar, 
TestParameter, AutoAnalysis.Line1.Point1.Data.StartCondition, 
TestParameter, AutoAnalysis.Line1.Point2.Type, 0
TestParameter, AutoAnalysis.Line1.Point2.XY.X, 
TestParameter, AutoAnalysis.Line1.Point2.XY.Y, 
TestParameter, AutoAnalysis.Line1.Point2.Data.Var, 
TestParameter, AutoAnalysis.Line1.Point2.Data.Condition, 
TestParameter, AutoAnalysis.Line1.Point2.Data.Start, false
TestParameter, AutoAnalysis.Line1.Point2.Data.StartVar, 
TestParameter, AutoAnalysis.Line1.Point2.Data.StartCondition, 
TestParameter, AutoAnalysis.Line1.GradientExpr, 0
TestParameter, AutoAnalysis.Line2.Enabled, false
TestParameter, AutoAnalysis.Line2.Type, 1
TestParameter, AutoAnalysis.Line2.Fix, True
TestParameter, AutoAnalysis.Line2.YAxis, 0
TestParameter, AutoAnalysis.Line2.Point1.Type, 0
TestParameter, AutoAnalysis.Line2.Point1.XY.X, 
TestParameter, AutoAnalysis.Line2.Point1.XY.Y, 
TestParameter, AutoAnalysis.Line2.Point1.Data.Var, 
TestParameter, AutoAnalysis.Line2.Point1.Data.Condition, 
TestParameter, AutoAnalysis.Line2.Point1.Data.Start, false
TestParameter, AutoAnalysis.Line2.Point1.Data.StartVar, 
TestParameter, AutoAnalysis.Line2.Point1.Data.StartCondition, 
TestParameter, AutoAnalysis.Line2.Point2.Type, 0
TestParameter, AutoAnalysis.Line2.Point2.XY.X, 
TestParameter, AutoAnalysis.Line2.Point2.XY.Y, 
TestParameter, AutoAnalysis.Line2.Point2.Data.Var, 
TestParameter, AutoAnalysis.Line2.Point2.Data.Condition, 
TestParameter, AutoAnalysis.Line2.Point2.Data.Start, false
TestParameter, AutoAnalysis.Line2.Point2.Data.StartVar, 
TestParameter, AutoAnalysis.Line2.Point2.Data.StartCondition, 
TestParameter, AutoAnalysis.Line2.GradientExpr, 0
TestParameter, AutoAnalysis.Marker.Enabled, false
TestParameter, AutoAnalysis.Marker.Data.Var, 
TestParameter, AutoAnalysis.Marker.Data.Condition, 
TestParameter, AutoAnalysis.Marker.Data.Start, false
TestParameter, AutoAnalysis.Marker.Data.StartVar, 
TestParameter, AutoAnalysis.Marker.Data.StartCondition, 
MetaData, TestRecord.EntryPoint, false
MetaData, TestRecord.RecordTime, 12/28/2020 11:50:40
MetaData, TestRecord.TestTarget, 
MetaData, TestRecord.IterationIndex, 23
MetaData, TestRecord.Preservation, true
MetaData, TestRecord.Flag, 
MetaData, TestRecord.Remarks, 
MetaData, TestRecord.LinkKey, a4f1c32d-f987-4ed5-8025-0342b99b510e
Dimension1, 51, 51, 51, 51, 51
Dimension2, 1, 1, 1, 1, 1
DataName, Ids, Vdrain, Cgs, G, Ta
DataValue, -8.47E-09, -0.0012000000000000001, 1.16139E-09, -0.0015324100000000001, 25
DataValue, 2.2000000000000002E-10, 0.9968, 1.16144E-09, -0.00153239, 25
DataValue, -9.11E-09, 2.004, 1.16156E-09, -0.00153247, 25
DataValue, -5.44E-09, 2.9974000000000003, 1.16147E-09, -0.00153284, 25
DataValue, 2.2700000000000002E-09, 3.9998, 1.16144E-09, -0.0015322, 25
DataValue, 4.5000000000000006E-09, 4.996, 1.16169E-09, -0.00153234, 25
DataValue, -3.6500000000000004E-09, 5.9944000000000006, 1.16165E-09, -0.00153235, 25
DataValue, -6.2500000000000005E-09, 7.0064, 1.16169E-09, -0.0015328, 25
DataValue, -2.55E-09, 8.0046, 1.16158E-09, -0.00153296, 25
DataValue, -1.3900000000000002E-09, 8.9934000000000012, 1.1618E-09, -0.00153359, 25
DataValue, -2.1800000000000003E-09, 10.0012, 1.16176E-09, -0.00153302, 25
DataValue, -1.1170000000000002E-08, 11.0084, 1.16181E-09, -0.00153304, 25
DataValue, -8.7100000000000016E-09, 12.0052, 1.16173E-09, -0.00153322, 25
DataValue, -1.6600000000000003E-09, 13.000200000000001, 1.1618E-09, -0.00153304, 25
DataValue, -7.08E-09, 14.004000000000001, 1.1618E-09, -0.00153238, 25
DataValue, -3.3500000000000002E-09, 15.005, 1.16195E-09, -0.00153331, 25
DataValue, -7.1100000000000005E-09, 16.0024, 1.16184E-09, -0.00153323, 25
DataValue, -7.53E-09, 17.0032, 1.16197E-09, -0.00153307, 25
DataValue, -7.1700000000000007E-09, 18.005200000000002, 1.16194E-09, -0.00153243, 25
DataValue, -6.98E-09, 19.0094, 1.16188E-09, -0.00153201, 25
DataValue, -1.142E-08, 19.9998, 1.16206E-09, -0.0015324100000000001, 25
DataValue, -6.6900000000000007E-09, 21.0014, 1.16192E-09, -0.00153187, 25
DataValue, -3.3E-09, 21.999000000000002, 1.16205E-09, -0.00153245, 25
DataValue, 1.97E-09, 23.0002, 1.16209E-09, -0.00153211, 25
DataValue, -6.6800000000000009E-09, 24.0002, 1.16197E-09, -0.00153285, 25
DataValue, -3.8100000000000007E-09, 24.9954, 1.16199E-09, -0.00153255, 25
DataValue, -8.390000000000001E-09, 26.0024, 1.16218E-09, -0.00153181, 25
DataValue, 9.8000000000000013E-10, 26.9982, 1.16203E-09, -0.00153177, 25
DataValue, -3.2900000000000004E-09, 27.9966, 1.16221E-09, -0.0015332100000000001, 25
DataValue, -1.1050000000000001E-08, 29.006400000000003, 1.16208E-09, -0.00153309, 25
DataValue, -1.1740000000000001E-08, 30.0012, 1.16201E-09, -0.00153283, 25
DataValue, -1.0890000000000002E-08, 31.003, 1.16222E-09, -0.00153289, 25
DataValue, -7.92E-09, 32.0048, 1.16216E-09, -0.00153216, 25
DataValue, -2.6000000000000003E-10, 33.004400000000004, 1.16217E-09, -0.00153216, 25
DataValue, -6.710000000000001E-09, 34.005, 1.16215E-09, -0.00153247, 25
DataValue, -4.92E-09, 34.9976, 1.16215E-09, -0.00153272, 25
DataValue, -6.5500000000000007E-09, 36.0056, 1.16216E-09, -0.00153279, 25
DataValue, -3.6700000000000004E-09, 37.004200000000004, 1.16232E-09, -0.00153238, 25
DataValue, -2.79E-09, 38.0028, 1.16222E-09, -0.00153282, 25
DataValue, -4.58E-09, 39.000800000000005, 1.16202E-09, -0.00153136, 25
DataValue, -3.13E-09, 40.0018, 1.16224E-09, -0.00153356, 25
DataValue, -8.390000000000001E-09, 41.0052, 1.16216E-09, -0.00153294, 25
DataValue, -2.36E-09, 41.9992, 1.1623E-09, -0.00153326, 25
DataValue, -1.5200000000000001E-09, 42.997800000000005, 1.1622E-09, -0.0015329, 25
DataValue, -6.6900000000000007E-09, 44.002, 1.16218E-09, -0.00153282, 25
DataValue, -6.7600000000000006E-09, 45.0026, 1.16222E-09, -0.00153263, 25
DataValue, -6.2700000000000009E-09, 46.0018, 1.16214E-09, -0.00153311, 25
DataValue, 2.5E-10, 46.998200000000004, 1.16224E-09, -0.00153274, 25
DataValue, -8.0900000000000016E-09, 48.0048, 1.16223E-09, -0.00153216, 25
DataValue, -6.060000000000001E-09, 49.000600000000006, 1.16224E-09, -0.00153309, 25
DataValue, -8.27E-09, 50.0018, 1.1623E-09, -0.00153269, 25