
SetupTitle, Cgs
ApplicationTest, Cgs, Public
TestParameter, Name, Memo, IntegTime, Frequency, OscLevel, Scale, Gate, VdBias, VdStart, VdStop, VdLinearStep, IdLimit, HoldTime, DelayTime, IdMinRange
TestParameter, Value, , SHORT, 1000000, 0.025, LINEAR, CMU1:MF	MFCMU, SMU6:HV	HVSMU, 0, 50, 1, 0.004, 1, 1, 10uA
DutParameter, Name, Polarity, Temp, YAxisCgsMin, YAxisCgsMax
DutParameter, Value, 1, 25, 1E-12, 5E-09
MetaData, TestRecord.EntryPoint, true
MetaData, TestRecord.RecordTime, 12/28/2020 12:51:29
MetaData, TestRecord.TestTarget, 
MetaData, TestRecord.IterationIndex, 29
MetaData, TestRecord.Preservation, true
MetaData, TestRecord.Flag, 
MetaData, TestRecord.Remarks, 
MetaData, TestRecord.LinkKey, 82f42427-e547-41a6-b74e-45a09645a9e1
Dimension1, 51, 51, 51, 51, 51
Dimension2, 1, 1, 1, 1, 1
DataName, Ids, Vdrain, Cgs, G, Ta
DataValue, -4.0200000000000006E-09, -0.0038, 1.17133E-09, -0.00154571, 25
DataValue, -4.8500000000000004E-09, 0.9998, 1.17145E-09, -0.00154528, 25
DataValue, -4.4000000000000003E-10, 1.9948000000000001, 1.1715E-09, -0.00154605, 25
DataValue, -3.6000000000000004E-09, 3.0036, 1.1715E-09, -0.00154558, 25
DataValue, 1E-09, 3.9946, 1.17157E-09, -0.00154594, 25
DataValue, -6.6400000000000011E-09, 5, 1.17153E-09, -0.0015454400000000001, 25
DataValue, -6.2700000000000009E-09, 6.0044, 1.1716E-09, -0.00154536, 25
DataValue, -6.3200000000000005E-09, 7.0038, 1.17165E-09, -0.0015456, 25
DataValue, -6.5600000000000005E-09, 8.0008, 1.17157E-09, -0.0015456600000000001, 25
DataValue, -6.610000000000001E-09, 9.0042, 1.1716E-09, -0.00154503, 25
DataValue, -1.95E-09, 10.0012, 1.17157E-09, -0.0015457000000000001, 25
DataValue, 9.5E-10, 11.0008, 1.17168E-09, -0.00154564, 25
DataValue, -1.8200000000000001E-09, 11.995000000000001, 1.17159E-09, -0.00154572, 25
DataValue, -4.8300000000000009E-09, 13.003, 1.1715E-09, -0.00154649, 25
DataValue, -6.4800000000000008E-09, 14.0022, 1.17166E-09, -0.00154575, 25
DataValue, -4.1300000000000004E-09, 15.002600000000001, 1.1717E-09, -0.00154541, 25
DataValue, -6.8000000000000005E-09, 16.002200000000002, 1.17181E-09, -0.00154606, 25
DataValue, -6.02E-09, 17.0084, 1.17161E-09, -0.00154586, 25
DataValue, 6.900000000000001E-10, 18.000400000000003, 1.17184E-09, -0.00154594, 25
DataValue, -5.58E-09, 19.0026, 1.17173E-09, -0.0015456600000000001, 25
DataValue, 1.7200000000000003E-09, 19.9934, 1.17194E-09, -0.0015458800000000001, 25
DataValue, -8.75E-09, 21.001, 1.17166E-09, -0.00154574, 25
DataValue, -3.18E-09, 21.995800000000003, 1.17178E-09, -0.00154615, 25
DataValue, -1.2070000000000002E-08, 23.003, 1.17175E-09, -0.00154685, 25
DataValue, -3.76E-09, 23.997, 1.17175E-09, -0.0015461700000000001, 25
DataValue, -3.3600000000000004E-09, 25.0016, 1.17159E-09, -0.0015441300000000001, 25
DataValue, -6.8300000000000006E-09, 26.0014, 1.17165E-09, -0.00154549, 25
DataValue, -9.1E-09, 26.994600000000002, 1.17165E-09, -0.0015452600000000001, 25
DataValue, -5.3E-10, 28.000400000000003, 1.17176E-09, -0.00154629, 25
DataValue, -4.9500000000000005E-09, 29.0032, 1.17175E-09, -0.00154511, 25
DataValue, -9.91E-09, 30.0044, 1.17174E-09, -0.00154527, 25
DataValue, 2.7400000000000005E-09, 30.996000000000002, 1.17174E-09, -0.001546, 25
DataValue, -9.17E-09, 32.002, 1.17175E-09, -0.0015459, 25
DataValue, 4.38E-09, 32.9964, 1.17206E-09, -0.00154472, 25
DataValue, -1.42E-09, 33.9946, 1.17172E-09, -0.00154606, 25
DataValue, -6.6900000000000007E-09, 35.0016, 1.17214E-09, -0.0015448, 25
DataValue, -6.5200000000000006E-09, 36.0036, 1.17178E-09, -0.0015454, 25
DataValue, -7.910000000000001E-09, 37.0078, 1.17216E-09, -0.0015456, 25
DataValue, -7.6E-09, 38.003800000000005, 1.17184E-09, -0.00154607, 25
DataValue, -1.0780000000000001E-08, 39.007000000000005, 1.17241E-09, -0.00154511, 25
DataValue, 1.5100000000000002E-09, 39.9996, 1.17166E-09, -0.0015463900000000001, 25
DataValue, -5.3500000000000008E-09, 40.998400000000004, 1.17235E-09, -0.00154644, 25
DataValue, -2.02E-09, 41.997, 1.17193E-09, -0.00154534, 25
DataValue, -1.0150000000000002E-08, 43.0052, 1.17226E-09, -0.0015465000000000001, 25
DataValue, -4.5600000000000008E-09, 43.9964, 1.17183E-09, -0.0015457000000000001, 25
DataValue, -7.4900000000000012E-09, 45.0028, 1.1723E-09, -0.00154593, 25
DataValue, -1.07E-09, 46.0018, 1.17184E-09, -0.00154634, 25
DataValue, -6.19E-09, 46.997600000000006, 1.17232E-09, -0.00154687, 25
DataValue, -2.67E-09, 48.0026, 1.17188E-09, -0.00154534, 25
DataValue, -5.6600000000000007E-09, 48.9998, 1.17242E-09, -0.00154652, 25
DataValue, -4.9800000000000006E-09, 50.0004, 1.17195E-09, -0.00154572, 25
SetupTitle, Cgs
PrimitiveTest, C-V Sweep
TestParameter, Channel.UnitTyp, CMU, SMU
TestParameter, Channel.Unit, Gate, VdBias
TestParameter, Channel.IName, , Ids
TestParameter, Channel.VName, VBias, Vdrain
TestParameter, Channel.Mode, , V
TestParameter, Channel.Func, CONST, VAR1
TestParameter, Channel.Index, 
TestParameter, Channel.Time, 
TestParameter, Measurement.Primary.Locus, Single
TestParameter, Measurement.Primary.Scale, Scale
TestParameter, Measurement.Primary.Start, VdStart*Polarity
TestParameter, Measurement.Primary.Stop, VdStop*Polarity
TestParameter, Measurement.Primary.Compliance, IdLimit
TestParameter, Measurement.Primary.Step, VdLinearStep*Polarity
TestParameter, Measurement.Aborting.Condition, CONTINUE AT ANY
TestParameter, Measurement.PostOutput.Value, START
TestParameter, Measurement.PostOutput.Retention, OFF
TestParameter, Measurement.Secondary.ACLevel, OscLevel
TestParameter, Measurement.Secondary.FName, Freq
TestParameter, Measurement.Secondary.Frequency, Frequency
TestParameter, Measurement.Bias.Source, 0, 0
TestParameter, Measurement.ImpedanceMode.Model, Cp-G
TestParameter, Measurement.ImpedanceMode.CName, Cgs
TestParameter, Measurement.ImpedanceMode.LName, L
TestParameter, Measurement.ImpedanceMode.GName, G
TestParameter, Measurement.ImpedanceMode.RName, R
TestParameter, Measurement.ImpedanceMode.QName, Q
TestParameter, Measurement.ImpedanceMode.DName, D
TestParameter, Measurement.ImpedanceMode.YName, Y
TestParameter, Measurement.ImpedanceMode.ZName, Z
TestParameter, Measurement.ImpedanceMode.ThName, Theta
TestParameter, Measurement.ImpedanceMode.BName, B
TestParameter, Measurement.ImpedanceMode.XName, X
TestParameter, Measurement.Monitor.Unit, CMU:=Gate, SMU:=VdBias
TestParameter, Measurement.Monitor.RangingMode, AUTO, LIMITED
TestParameter, Measurement.Monitor.RangeBoundary, 50, IdMinRange
TestParameter, Measurement.Monitor.AcMonitorSymbol, 
TestParameter, Measurement.Monitor.DcMonitorSymbol, 
TestParameter, Measurement.Timing.Hold, HoldTime
TestParameter, Measurement.Timing.Delay, DelayTime
TestParameter, Measurement.Adc.UnitType, Cmu, Smu
TestParameter, Measurement.Adc.HighResolution.Mode, IntegMode, IntegMode
TestParameter, Measurement.Adc.HighResolution.Coeff, AdcFactor, AdcFactor
TestParameter, Measurement.WaitTime.Source.Coeff, 1
TestParameter, Measurement.WaitTime.Source.Offset, 0
TestParameter, Measurement.WaitTime.Monitor.Coeff, 1
TestParameter, Measurement.WaitTime.Monitor.Offset, 0
TestParameter, Function.User.Name, Ta
TestParameter, Function.User.Unit, deg
TestParameter, Function.User.Definition, Temp
TestParameter, Output.Graph.Enabled, true
TestParameter, Output.Graph.AutoScaling, false
TestParameter, Output.Graph.XAxis.Data, Vdrain
TestParameter, Output.Graph.XAxis.Scale, ScaleStr
TestParameter, Output.Graph.XAxis.Left, VdStart*Polarity
TestParameter, Output.Graph.XAxis.Right, VdStop*Polarity
TestParameter, Output.Graph.XAxis.RunTimeAutoScale, false
TestParameter, Output.Graph.YAxis.Data, Cgs
TestParameter, Output.Graph.YAxis.Scale, Log
TestParameter, Output.Graph.YAxis.Bottom, YAxisCgsMin
TestParameter, Output.Graph.YAxis.Top, YAxisCgsMax
TestParameter, Output.Graph.YAxis.Group, 
TestParameter, Output.Graph.YAxis.RunTimeAutoScale, false
TestParameter, Output.List.Data, Vdrain, Cgs, Ids
TestParameter, Output.Scalar.Data, Ta
TestParameter, AutoAnalysis.Interpolation, true
TestParameter, AutoAnalysis.Line1.Enabled, false
TestParameter, AutoAnalysis.Line1.Type, 1
TestParameter, AutoAnalysis.Line1.Fix, True
TestParameter, AutoAnalysis.Line1.YAxis, 0
TestParameter, AutoAnalysis.Line1.Point1.Type, 0
TestParameter, AutoAnalysis.Line1.Point1.XY.X, 
TestParameter, AutoAnalysis.Line1.Point1.XY.Y, 
TestParameter, AutoAnalysis.Line1.Point1.Data.Var, 
TestParameter, AutoAnalysis.Line1.Point1.Data.Condition, 
TestParameter, AutoAnalysis.Line1.Point1.Data.Start, false
TestParameter, AutoAnalysis.Line1.Point1.Data.StartVar, 
TestParameter, AutoAnalysis.Line1.Point1.Data.StartCondition, 
TestParameter, AutoAnalysis.Line1.Point2.Type, 0
TestParameter, AutoAnalysis.Line1.Point2.XY.X, 
TestParameter, AutoAnalysis.Line1.Point2.XY.Y, 
TestParameter, AutoAnalysis.Line1.Point2.Data.Var, 
TestParameter, AutoAnalysis.Line1.Point2.Data.Condition, 
TestParameter, AutoAnalysis.Line1.Point2.Data.Start, false
TestParameter, AutoAnalysis.Line1.Point2.Data.StartVar, 
TestParameter, AutoAnalysis.Line1.Point2.Data.StartCondition, 
TestParameter, AutoAnalysis.Line1.GradientExpr, 0
TestParameter, AutoAnalysis.Line2.Enabled, false
TestParameter, AutoAnalysis.Line2.Type, 1
TestParameter, AutoAnalysis.Line2.Fix, True
TestParameter, AutoAnalysis.Line2.YAxis, 0
TestParameter, AutoAnalysis.Line2.Point1.Type, 0
TestParameter, AutoAnalysis.Line2.Point1.XY.X, 
TestParameter, AutoAnalysis.Line2.Point1.XY.Y, 
TestParameter, AutoAnalysis.Line2.Point1.Data.Var, 
TestParameter, AutoAnalysis.Line2.Point1.Data.Condition, 
TestParameter, AutoAnalysis.Line2.Point1.Data.Start, false
TestParameter, AutoAnalysis.Line2.Point1.Data.StartVar, 
TestParameter, AutoAnalysis.Line2.Point1.Data.StartCondition, 
TestParameter, AutoAnalysis.Line2.Point2.Type, 0
TestParameter, AutoAnalysis.Line2.Point2.XY.X, 
TestParameter, AutoAnalysis.Line2.Point2.XY.Y, 
TestParameter, AutoAnalysis.Line2.Point2.Data.Var, 
TestParameter, AutoAnalysis.Line2.Point2.Data.Condition, 
TestParameter, AutoAnalysis.Line2.Point2.Data.Start, false
TestParameter, AutoAnalysis.Line2.Point2.Data.StartVar, 
TestParameter, AutoAnalysis.Line2.Point2.Data.StartCondition, 
TestParameter, AutoAnalysis.Line2.GradientExpr, 0
TestParameter, AutoAnalysis.Marker.Enabled, false
TestParameter, AutoAnalysis.Marker.Data.Var, 
TestParameter, AutoAnalysis.Marker.Data.Condition, 
TestParameter, AutoAnalysis.Marker.Data.Start, false
TestParameter, AutoAnalysis.Marker.Data.StartVar, 
TestParameter, AutoAnalysis.Marker.Data.StartCondition, 
MetaData, TestRecord.EntryPoint, false
MetaData, TestRecord.RecordTime, 12/28/2020 12:51:29
MetaData, TestRecord.TestTarget, 
MetaData, TestRecord.IterationIndex, 29
MetaData, TestRecord.Preservation, true
MetaData, TestRecord.Flag, 
MetaData, TestRecord.Remarks, 
MetaData, TestRecord.LinkKey, 82f42427-e547-41a6-b74e-45a09645a9e1
Dimension1, 51, 51, 51, 51, 51
Dimension2, 1, 1, 1, 1, 1
DataName, Ids, Vdrain, Cgs, G, Ta
DataValue, -4.0200000000000006E-09, -0.0038, 1.17133E-09, -0.00154571, 25
DataValue, -4.8500000000000004E-09, 0.9998, 1.17145E-09, -0.00154528, 25
DataValue, -4.4000000000000003E-10, 1.9948000000000001, 1.1715E-09, -0.00154605, 25
DataValue, -3.6000000000000004E-09, 3.0036, 1.1715E-09, -0.00154558, 25
DataValue, 1E-09, 3.9946, 1.17157E-09, -0.00154594, 25
DataValue, -6.6400000000000011E-09, 5, 1.17153E-09, -0.0015454400000000001, 25
DataValue, -6.2700000000000009E-09, 6.0044, 1.1716E-09, -0.00154536, 25
DataValue, -6.3200000000000005E-09, 7.0038, 1.17165E-09, -0.0015456, 25
DataValue, -6.5600000000000005E-09, 8.0008, 1.17157E-09, -0.0015456600000000001, 25
DataValue, -6.610000000000001E-09, 9.0042, 1.1716E-09, -0.00154503, 25
DataValue, -1.95E-09, 10.0012, 1.17157E-09, -0.0015457000000000001, 25
DataValue, 9.5E-10, 11.0008, 1.17168E-09, -0.00154564, 25
DataValue, -1.8200000000000001E-09, 11.995000000000001, 1.17159E-09, -0.00154572, 25
DataValue, -4.8300000000000009E-09, 13.003, 1.1715E-09, -0.00154649, 25
DataValue, -6.4800000000000008E-09, 14.0022, 1.17166E-09, -0.00154575, 25
DataValue, -4.1300000000000004E-09, 15.002600000000001, 1.1717E-09, -0.00154541, 25
DataValue, -6.8000000000000005E-09, 16.002200000000002, 1.17181E-09, -0.00154606, 25
DataValue, -6.02E-09, 17.0084, 1.17161E-09, -0.00154586, 25
DataValue, 6.900000000000001E-10, 18.000400000000003, 1.17184E-09, -0.00154594, 25
DataValue, -5.58E-09, 19.0026, 1.17173E-09, -0.0015456600000000001, 25
DataValue, 1.7200000000000003E-09, 19.9934, 1.17194E-09, -0.0015458800000000001, 25
DataValue, -8.75E-09, 21.001, 1.17166E-09, -0.00154574, 25
DataValue, -3.18E-09, 21.995800000000003, 1.17178E-09, -0.00154615, 25
DataValue, -1.2070000000000002E-08, 23.003, 1.17175E-09, -0.00154685, 25
DataValue, -3.76E-09, 23.997, 1.17175E-09, -0.0015461700000000001, 25
DataValue, -3.3600000000000004E-09, 25.0016, 1.17159E-09, -0.0015441300000000001, 25
DataValue, -6.8300000000000006E-09, 26.0014, 1.17165E-09, -0.00154549, 25
DataValue, -9.1E-09, 26.994600000000002, 1.17165E-09, -0.0015452600000000001, 25
DataValue, -5.3E-10, 28.000400000000003, 1.17176E-09, -0.00154629, 25
DataValue, -4.9500000000000005E-09, 29.0032, 1.17175E-09, -0.00154511, 25
DataValue, -9.91E-09, 30.0044, 1.17174E-09, -0.00154527, 25
DataValue, 2.7400000000000005E-09, 30.996000000000002, 1.17174E-09, -0.001546, 25
DataValue, -9.17E-09, 32.002, 1.17175E-09, -0.0015459, 25
DataValue, 4.38E-09, 32.9964, 1.17206E-09, -0.00154472, 25
DataValue, -1.42E-09, 33.9946, 1.17172E-09, -0.00154606, 25
DataValue, -6.6900000000000007E-09, 35.0016, 1.17214E-09, -0.0015448, 25
DataValue, -6.5200000000000006E-09, 36.0036, 1.17178E-09, -0.0015454, 25
DataValue, -7.910000000000001E-09, 37.0078, 1.17216E-09, -0.0015456, 25
DataValue, -7.6E-09, 38.003800000000005, 1.17184E-09, -0.00154607, 25
DataValue, -1.0780000000000001E-08, 39.007000000000005, 1.17241E-09, -0.00154511, 25
DataValue, 1.5100000000000002E-09, 39.9996, 1.17166E-09, -0.0015463900000000001, 25
DataValue, -5.3500000000000008E-09, 40.998400000000004, 1.17235E-09, -0.00154644, 25
DataValue, -2.02E-09, 41.997, 1.17193E-09, -0.00154534, 25
DataValue, -1.0150000000000002E-08, 43.0052, 1.17226E-09, -0.0015465000000000001, 25
DataValue, -4.5600000000000008E-09, 43.9964, 1.17183E-09, -0.0015457000000000001, 25
DataValue, -7.4900000000000012E-09, 45.0028, 1.1723E-09, -0.00154593, 25
DataValue, -1.07E-09, 46.0018, 1.17184E-09, -0.00154634, 25
DataValue, -6.19E-09, 46.997600000000006, 1.17232E-09, -0.00154687, 25
DataValue, -2.67E-09, 48.0026, 1.17188E-09, -0.00154534, 25
DataValue, -5.6600000000000007E-09, 48.9998, 1.17242E-09, -0.00154652, 25
DataValue, -4.9800000000000006E-09, 50.0004, 1.17195E-09, -0.00154572, 25