
SetupTitle, ID-VGS
PrimitiveTest, Multi Channel I/V Sweep
TestParameter, Channel.UnitType, SMU, SMU
TestParameter, Channel.Unit, SMU2:MC, SMU3:UHC500
TestParameter, Channel.IName, IG, ID
TestParameter, Channel.VName, VGS, VDS
TestParameter, Channel.Mode, VPULSE, VPULSE
TestParameter, Channel.Func, VAR1, CONST
TestParameter, Channel.Index, 
TestParameter, Channel.Time, 
TestParameter, Measurement.Port.Unit, SMU2:MC, SMU3:UHC500
TestParameter, Measurement.Port.SeriesResistor, NONE, NONE
TestParameter, Measurement.Port.Filter, OFF, OFF
TestParameter, Measurement.Port.OutputVoltageComparison, 0, 0
TestParameter, Measurement.Primary.Start, 0
TestParameter, Measurement.Primary.Stop, 10
TestParameter, Measurement.Primary.Compliance, 0.099999999999999992
TestParameter, Measurement.Primary.PowerCompliance, 0
TestParameter, Measurement.Primary.Locus, Single
TestParameter, Measurement.Primary.Scale, LINEAR
TestParameter, Measurement.Primary.Count, 2001
TestParameter, Measurement.Aborting.Condition, CONTINUE AT ANY
TestParameter, Measurement.PostOutput.Value, START
TestParameter, Measurement.PostOutput.Retention, OFF
TestParameter, Measurement.Bias.Source, 0, 3
TestParameter, Measurement.Bias.Compliance, 0.099999999999999992, 5
TestParameter, Measurement.Pulse.Delay, 0, 9.9999999999999991E-05
TestParameter, Measurement.Pulse.Duration, 0.001, 4.9999999999999996E-05
TestParameter, Measurement.Pulse.Base, 0, 0
TestParameter, Measurement.Pulse.Period, 0
TestParameter, Measurement.Pulse.MeasurementDelay, 0
TestParameter, Measurement.Pulse.AveragingCount, 1
TestParameter, Measurement.Monitor.Unit, SMU2:MC, SMU3:UHC500
TestParameter, Measurement.Monitor.Adc, HS ADC, HS ADC
TestParameter, Measurement.Monitor.Measurement, Force and Compliance Sides, Force and Compliance Sides
TestParameter, Measurement.Timing.Hold, 0
TestParameter, Measurement.Timing.Delay, 0
TestParameter, Measurement.Adc.HighSpeed.Mode, TIME
TestParameter, Measurement.Adc.HighSpeed.Coeff, 9.9999999999999991E-06
TestParameter, Measurement.Adc.HighResolution.AutoZero, OFF
TestParameter, Measurement.Adc.HighResolution.Mode, AUTO
TestParameter, Measurement.Adc.HighResolution.Coeff, 6
TestParameter, Measurement.WaitTime.Source.Coeff, 1
TestParameter, Measurement.WaitTime.Source.Offset, 0
TestParameter, Measurement.WaitTime.Monitor.Coeff, 1
TestParameter, Measurement.WaitTime.Monitor.Offset, 0
TestParameter, Output.Graph.Enabled, true
TestParameter, Output.Graph.AutoScaling, false
TestParameter, Output.Graph.XAxis.Data, VGS
TestParameter, Output.Graph.XAxis.Scale, Linear
TestParameter, Output.Graph.XAxis.Left, -5.4
TestParameter, Output.Graph.XAxis.Right, 12.6
TestParameter, Output.Graph.XAxis.RunTimeAutoScale, false
TestParameter, Output.Graph.YAxis.Data, ID
TestParameter, Output.Graph.YAxis.Scale, Linear
TestParameter, Output.Graph.YAxis.Bottom, 0
TestParameter, Output.Graph.YAxis.Top, 10
TestParameter, Output.Graph.YAxis.Group, 
TestParameter, Output.Graph.YAxis.RunTimeAutoScale, false
TestParameter, Output.List.Data, VGS, ID
TestParameter, AutoAnalysis.Interpolation, false
TestParameter, AutoAnalysis.Line1.Enabled, false
TestParameter, AutoAnalysis.Line1.Type, 1
TestParameter, AutoAnalysis.Line1.Fix, True
TestParameter, AutoAnalysis.Line1.YAxis, 0
TestParameter, AutoAnalysis.Line1.Point1.Type, 0
TestParameter, AutoAnalysis.Line1.Point1.XY.X, 
TestParameter, AutoAnalysis.Line1.Point1.XY.Y, 
TestParameter, AutoAnalysis.Line1.Point1.Data.Var, 
TestParameter, AutoAnalysis.Line1.Point1.Data.Condition, 
TestParameter, AutoAnalysis.Line1.Point1.Data.Start, false
TestParameter, AutoAnalysis.Line1.Point1.Data.StartVar, 
TestParameter, AutoAnalysis.Line1.Point1.Data.StartCondition, 
TestParameter, AutoAnalysis.Line1.Point2.Type, 0
TestParameter, AutoAnalysis.Line1.Point2.XY.X, 
TestParameter, AutoAnalysis.Line1.Point2.XY.Y, 
TestParameter, AutoAnalysis.Line1.Point2.Data.Var, 
TestParameter, AutoAnalysis.Line1.Point2.Data.Condition, 
TestParameter, AutoAnalysis.Line1.Point2.Data.Start, false
TestParameter, AutoAnalysis.Line1.Point2.Data.StartVar, 
TestParameter, AutoAnalysis.Line1.Point2.Data.StartCondition, 
TestParameter, AutoAnalysis.Line1.GradientExpr, 0
TestParameter, AutoAnalysis.Line2.Enabled, false
TestParameter, AutoAnalysis.Line2.Type, 1
TestParameter, AutoAnalysis.Line2.Fix, True
TestParameter, AutoAnalysis.Line2.YAxis, 0
TestParameter, AutoAnalysis.Line2.Point1.Type, 0
TestParameter, AutoAnalysis.Line2.Point1.XY.X, 
TestParameter, AutoAnalysis.Line2.Point1.XY.Y, 
TestParameter, AutoAnalysis.Line2.Point1.Data.Var, 
TestParameter, AutoAnalysis.Line2.Point1.Data.Condition, 
TestParameter, AutoAnalysis.Line2.Point1.Data.Start, false
TestParameter, AutoAnalysis.Line2.Point1.Data.StartVar, 
TestParameter, AutoAnalysis.Line2.Point1.Data.StartCondition, 
TestParameter, AutoAnalysis.Line2.Point2.Type, 0
TestParameter, AutoAnalysis.Line2.Point2.XY.X, 
TestParameter, AutoAnalysis.Line2.Point2.XY.Y, 
TestParameter, AutoAnalysis.Line2.Point2.Data.Var, 
TestParameter, AutoAnalysis.Line2.Point2.Data.Condition, 
TestParameter, AutoAnalysis.Line2.Point2.Data.Start, false
TestParameter, AutoAnalysis.Line2.Point2.Data.StartVar, 
TestParameter, AutoAnalysis.Line2.Point2.Data.StartCondition, 
TestParameter, AutoAnalysis.Line2.GradientExpr, 0
TestParameter, AutoAnalysis.Marker.Enabled, false
TestParameter, AutoAnalysis.Marker.Data.Var, 
TestParameter, AutoAnalysis.Marker.Data.Condition, 
TestParameter, AutoAnalysis.Marker.Data.Start, false
TestParameter, AutoAnalysis.Marker.Data.StartVar, 
TestParameter, AutoAnalysis.Marker.Data.StartCondition, 
MetaData, TestRecord.EntryPoint, true
MetaData, TestRecord.RecordTime, 04/16/2021 14:40:57
MetaData, TestRecord.TestTarget, 
MetaData, TestRecord.IterationIndex, 1
MetaData, TestRecord.Preservation, true
MetaData, TestRecord.Flag, 
MetaData, TestRecord.Remarks, 
MetaData, TestRecord.LinkKey, d543c7f4-ceca-4f50-94d5-1efeaeec247c
Dimension1, 2001, 2001
Dimension2, 1, 1
DataName, VGS, ID
DataValue, -0.00064, -0.035
DataValue, 0.0054, -0.0485
DataValue, 0.00986, -0.0265
DataValue, 0.014580000000000001, -0.0205
DataValue, 0.02018, -0.0225
DataValue, 0.024780000000000003, -0.0205
DataValue, 0.029620000000000004, -0.0285
DataValue, 0.03524, -0.047
DataValue, 0.04014, -0.0335
DataValue, 0.0456, -0.0185
DataValue, 0.05016, -0.016
DataValue, 0.055180000000000007, -0.0245
DataValue, 0.059860000000000003, -0.033
DataValue, 0.06554, -0.0305
DataValue, 0.06994, -0.0305
DataValue, 0.074640000000000012, -0.014
DataValue, 0.07978, -0.0095
DataValue, 0.0849, -0.0225
DataValue, 0.09024, -0.026000000000000002
DataValue, 0.09494000000000001, -0.0335
DataValue, 0.10058, -0.032
DataValue, 0.10468000000000001, -0.0145
DataValue, 0.10994000000000001, -0.022
DataValue, 0.11498000000000001, -0.008
DataValue, 0.11986000000000001, -0.0185
DataValue, 0.1254, -0.0375
DataValue, 0.12976000000000001, -0.0325
DataValue, 0.13524, -0.025
DataValue, 0.13984000000000002, -0.0155
DataValue, 0.14534000000000003, -0.022
DataValue, 0.15012, -0.0475
DataValue, 0.15582000000000001, -0.035
DataValue, 0.15942, -0.043000000000000003
DataValue, 0.16464, -0.0245
DataValue, 0.16936, -0.0185
DataValue, 0.17492000000000002, -0.016
DataValue, 0.18024, -0.0335
DataValue, 0.18546, -0.0335
DataValue, 0.19030000000000003, -0.045
DataValue, 0.19438000000000003, -0.0385
DataValue, 0.19978, -0.021500000000000002
DataValue, 0.20502, -0.0165
DataValue, 0.21000000000000002, -0.0305
DataValue, 0.21552000000000002, -0.0415
DataValue, 0.22012, -0.037
DataValue, 0.22468000000000002, -0.0225
DataValue, 0.23030000000000003, -0.031
DataValue, 0.23466, -0.006
DataValue, 0.24080000000000001, -0.0205
DataValue, 0.24436000000000002, -0.025500000000000002
DataValue, 0.25004000000000004, -0.0305
DataValue, 0.25542000000000004, -0.052000000000000005
DataValue, 0.26036000000000004, -0.0365
DataValue, 0.26504, -0.0275
DataValue, 0.27028, -0.027
DataValue, 0.27578, -0.0375
DataValue, 0.28044, -0.021500000000000002
DataValue, 0.28496000000000005, -0.0405
DataValue, 0.2906, -0.032
DataValue, 0.29502, -0.037
DataValue, 0.30000000000000004, -0.0145
DataValue, 0.30536, -0.013000000000000001
DataValue, 0.31054000000000004, -0.025500000000000002
DataValue, 0.31526000000000004, -0.025
DataValue, 0.32014000000000004, -0.0375
DataValue, 0.3249, -0.018000000000000002
DataValue, 0.3299, -0.0305
DataValue, 0.33528, -0.0245
DataValue, 0.34058000000000005, -0.0245
DataValue, 0.34526, -0.0345
DataValue, 0.35012000000000004, -0.051500000000000004
DataValue, 0.35522000000000004, -0.0205
DataValue, 0.36024, -0.023
DataValue, 0.3648, -0.01
DataValue, 0.37022000000000005, -0.0335
DataValue, 0.37506, -0.057
DataValue, 0.38070000000000004, -0.043500000000000004
DataValue, 0.38544, -0.0305
DataValue, 0.39036000000000004, -0.022
DataValue, 0.39482000000000006, -0.0225
DataValue, 0.40002000000000004, -0.0225
DataValue, 0.40540000000000004, -0.03
DataValue, 0.4102, -0.0425
DataValue, 0.41512000000000004, -0.0495
DataValue, 0.41974000000000006, -0.025
DataValue, 0.42534000000000005, -0.0235
DataValue, 0.43000000000000005, -0.025500000000000002
DataValue, 0.43456000000000006, -0.025500000000000002
DataValue, 0.44026000000000004, -0.039
DataValue, 0.44520000000000004, -0.0415
DataValue, 0.4505, -0.027
DataValue, 0.45554000000000006, -0.021
DataValue, 0.45996000000000004, -0.0105
DataValue, 0.46442000000000006, -0.021
DataValue, 0.46992000000000006, -0.0305
DataValue, 0.47516, -0.0385
DataValue, 0.48048, -0.048
DataValue, 0.48546000000000006, -0.054
DataValue, 0.49006000000000005, -0.038
DataValue, 0.49516000000000004, -0.0315
DataValue, 0.50034, -0.0135
DataValue, 0.50484000000000007, -0.027
DataValue, 0.50958, -0.0275
DataValue, 0.51546, -0.0365
DataValue, 0.5201, -0.037
DataValue, 0.5258, -0.043500000000000004
DataValue, 0.52970000000000006, -0.049
DataValue, 0.53538000000000008, -0.043000000000000003
DataValue, 0.54016000000000008, -0.0205
DataValue, 0.54562, -0.018000000000000002
DataValue, 0.54964, -0.037
DataValue, 0.55570000000000008, -0.0345
DataValue, 0.56056000000000006, -0.037
DataValue, 0.56554, -0.051000000000000004
DataValue, 0.5696, -0.037
DataValue, 0.57516, -0.051500000000000004
DataValue, 0.57988000000000006, -0.031
DataValue, 0.58546000000000009, -0.024
DataValue, 0.58984, -0.029
DataValue, 0.59498000000000006, -0.024
DataValue, 0.59956000000000009, -0.047
DataValue, 0.60476000000000008, -0.04
DataValue, 0.60994, -0.025500000000000002
DataValue, 0.61538, -0.028
DataValue, 0.61954000000000009, -0.03
DataValue, 0.6251000000000001, -0.011
DataValue, 0.62962000000000007, -0.0090000000000000011
DataValue, 0.63504, -0.029
DataValue, 0.64032, -0.054
DataValue, 0.6446400000000001, -0.032
DataValue, 0.65026000000000006, -0.036000000000000004
DataValue, 0.65504000000000007, -0.017
DataValue, 0.65998, -0.022
DataValue, 0.66474000000000011, -0.017
DataValue, 0.66970000000000007, -0.0275
DataValue, 0.67522, -0.0365
DataValue, 0.68028000000000011, -0.0315
DataValue, 0.68506, -0.035500000000000004
DataValue, 0.69012000000000007, -0.035
DataValue, 0.69494, -0.021500000000000002
DataValue, 0.70000000000000007, -0.0145
DataValue, 0.70522000000000007, -0.0175
DataValue, 0.70970000000000011, -0.023
DataValue, 0.71516, -0.0445
DataValue, 0.72010000000000007, -0.041
DataValue, 0.72482, -0.031
DataValue, 0.73036, -0.035500000000000004
DataValue, 0.73526, -0.0385
DataValue, 0.74020000000000008, -0.008
DataValue, 0.74596000000000007, -0.021500000000000002
DataValue, 0.75018000000000007, -0.033
DataValue, 0.7551000000000001, -0.036000000000000004
DataValue, 0.7598, -0.037
DataValue, 0.7647, -0.029
DataValue, 0.76956, -0.0315
DataValue, 0.7748600000000001, -0.014
DataValue, 0.78044, 0.002
DataValue, 0.78502, -0.0195
DataValue, 0.7901800000000001, -0.015
DataValue, 0.795, -0.028
DataValue, 0.7999400000000001, -0.03
DataValue, 0.80492000000000008, -0.037
DataValue, 0.81048000000000009, -0.035500000000000004
DataValue, 0.8154, -0.0245
DataValue, 0.81996, -0.0145
DataValue, 0.82566000000000006, -0.021500000000000002
DataValue, 0.82984, -0.027
DataValue, 0.83526000000000011, -0.047
DataValue, 0.83916, -0.044
DataValue, 0.8452400000000001, -0.028
DataValue, 0.84980000000000011, -0.0285
DataValue, 0.85532000000000008, -0.0145
DataValue, 0.86010000000000009, -0.0185
DataValue, 0.86514, -0.0285
DataValue, 0.86994, -0.035
DataValue, 0.87524, -0.033
DataValue, 0.87952000000000008, -0.0425
DataValue, 0.88558, -0.044
DataValue, 0.88992, -0.04
DataValue, 0.8950800000000001, -0.0225
DataValue, 0.89992, -0.0305
DataValue, 0.90548000000000006, -0.04
DataValue, 0.91028000000000009, -0.024
DataValue, 0.91412, -0.0225
DataValue, 0.91954, -0.0505
DataValue, 0.9252800000000001, -0.038
DataValue, 0.93074000000000012, -0.0395
DataValue, 0.93478, -0.0385
DataValue, 0.94016000000000011, -0.021500000000000002
DataValue, 0.94558000000000009, -0.019
DataValue, 0.9502, -0.017
DataValue, 0.95488000000000006, -0.025500000000000002
DataValue, 0.96038000000000012, -0.04
DataValue, 0.96538000000000013, -0.0405
DataValue, 0.9704600000000001, -0.043500000000000004
DataValue, 0.97526000000000013, -0.0235
DataValue, 0.98042000000000007, -0.0285
DataValue, 0.98472, -0.029500000000000002
DataValue, 0.99032000000000009, -0.034
DataValue, 0.99490000000000012, -0.033
DataValue, 0.99984000000000006, -0.0365
DataValue, 1.0048400000000002, -0.0375
DataValue, 1.01024, -0.0305
DataValue, 1.0152400000000001, -0.022
DataValue, 1.0192, -0.028
DataValue, 1.02478, -0.043500000000000004
DataValue, 1.0293400000000001, -0.0535
DataValue, 1.0357800000000001, -0.034
DataValue, 1.04054, -0.043000000000000003
DataValue, 1.0448600000000001, -0.025500000000000002
DataValue, 1.0502, -0.0145
DataValue, 1.05474, -0.0265
DataValue, 1.0605200000000001, -0.0365
DataValue, 1.0655000000000001, -0.0415
DataValue, 1.0697, -0.039
DataValue, 1.07508, -0.042
DataValue, 1.0805200000000002, -0.0225
DataValue, 1.0852000000000002, -0.0195
DataValue, 1.09024, -0.0145
DataValue, 1.0959400000000001, -0.021500000000000002
DataValue, 1.10036, -0.0235
DataValue, 1.1051600000000001, -0.032
DataValue, 1.1098800000000002, -0.051500000000000004
DataValue, 1.11522, -0.042
DataValue, 1.11978, -0.043500000000000004
DataValue, 1.1250600000000002, -0.0175
DataValue, 1.12998, -0.021500000000000002
DataValue, 1.13484, -0.035
DataValue, 1.13988, -0.04
DataValue, 1.1455600000000001, -0.056
DataValue, 1.14982, -0.035500000000000004
DataValue, 1.15476, -0.032
DataValue, 1.1601400000000002, -0.016
DataValue, 1.1652, -0.024
DataValue, 1.16982, -0.0225
DataValue, 1.1751200000000002, -0.039
DataValue, 1.1793600000000002, -0.0345
DataValue, 1.1856200000000001, -0.0445
DataValue, 1.18984, -0.037
DataValue, 1.1947800000000002, -0.0145
DataValue, 1.20104, -0.028
DataValue, 1.20506, -0.044
DataValue, 1.2099600000000002, -0.0385
DataValue, 1.2152200000000002, -0.023
DataValue, 1.2199000000000002, -0.03
DataValue, 1.22502, -0.006
DataValue, 1.2298600000000002, -0.0225
DataValue, 1.23476, -0.02
DataValue, 1.2403000000000002, -0.037
DataValue, 1.2449800000000002, -0.0415
DataValue, 1.2500200000000001, -0.0115
DataValue, 1.25452, -0.019
DataValue, 1.26, -0.021500000000000002
DataValue, 1.26498, -0.031
DataValue, 1.2698, -0.0445
DataValue, 1.27454, -0.037
DataValue, 1.2797200000000002, -0.023
DataValue, 1.28464, -0.0155
DataValue, 1.29034, -0.0265
DataValue, 1.2954400000000002, -0.023
DataValue, 1.3001200000000002, -0.032
DataValue, 1.30458, -0.036000000000000004
DataValue, 1.3098200000000002, -0.0505
DataValue, 1.3152400000000002, -0.025500000000000002
DataValue, 1.3203200000000002, -0.025500000000000002
DataValue, 1.32448, -0.0135
DataValue, 1.3300200000000002, -0.017
DataValue, 1.3354000000000001, -0.0285
DataValue, 1.3398, -0.029
DataValue, 1.3444600000000002, -0.038
DataValue, 1.35024, -0.033
DataValue, 1.35524, -0.015
DataValue, 1.3599, -0.0135
DataValue, 1.3653600000000001, -0.02
DataValue, 1.3701800000000002, -0.0405
DataValue, 1.37528, -0.026000000000000002
DataValue, 1.37992, -0.047
DataValue, 1.3854600000000001, -0.022
DataValue, 1.3901400000000002, -0.0345
DataValue, 1.3945800000000002, -0.022
DataValue, 1.4002400000000002, -0.0365
DataValue, 1.4049600000000002, -0.054
DataValue, 1.41042, -0.045
DataValue, 1.41504, -0.043000000000000003
DataValue, 1.42022, -0.0115
DataValue, 1.4246800000000002, -0.0075
DataValue, 1.42972, -0.0385
DataValue, 1.4352200000000002, -0.029
DataValue, 1.4400000000000002, -0.0495
DataValue, 1.4452800000000001, -0.037
DataValue, 1.4497000000000002, -0.0365
DataValue, 1.4548400000000001, -0.0275
DataValue, 1.4593800000000001, -0.0245
DataValue, 1.4652800000000001, -0.021
DataValue, 1.4697000000000002, -0.03
DataValue, 1.4752, -0.0505
DataValue, 1.4799600000000002, -0.042
DataValue, 1.4853, -0.032
DataValue, 1.4901600000000002, -0.021500000000000002
DataValue, 1.49442, -0.0245
DataValue, 1.4998200000000002, -0.035
DataValue, 1.50554, -0.0375
DataValue, 1.50988, -0.033
DataValue, 1.51496, -0.043000000000000003
DataValue, 1.52068, -0.046
DataValue, 1.52522, -0.019
DataValue, 1.53028, -0.025
DataValue, 1.5350000000000001, -0.0135
DataValue, 1.53974, -0.0275
DataValue, 1.5450400000000002, -0.032
DataValue, 1.5499800000000001, -0.0425
DataValue, 1.55488, -0.037
DataValue, 1.55952, -0.0325
DataValue, 1.5648000000000002, -0.017
DataValue, 1.5700200000000002, -0.0265
DataValue, 1.5751600000000001, -0.0235
DataValue, 1.5799400000000001, -0.0315
DataValue, 1.58522, -0.021500000000000002
DataValue, 1.59006, -0.03
DataValue, 1.5954000000000002, -0.035
DataValue, 1.60016, -0.0285
DataValue, 1.60478, -0.013000000000000001
DataValue, 1.61026, -0.018000000000000002
DataValue, 1.61548, -0.0275
DataValue, 1.6193600000000001, -0.035500000000000004
DataValue, 1.6248200000000002, -0.023
DataValue, 1.6298000000000001, -0.0455
DataValue, 1.6348, -0.0345
DataValue, 1.6405, -0.015
DataValue, 1.6453600000000002, -0.0235
DataValue, 1.64908, -0.0165
DataValue, 1.6551200000000002, -0.033
DataValue, 1.6595600000000002, -0.0305
DataValue, 1.6653600000000002, -0.051500000000000004
DataValue, 1.6693600000000002, -0.0235
DataValue, 1.6747400000000001, -0.017
DataValue, 1.6793200000000002, -0.003
DataValue, 1.68504, -0.0205
DataValue, 1.6901800000000002, -0.021500000000000002
DataValue, 1.6957200000000001, -0.0285
DataValue, 1.69992, -0.047
DataValue, 1.7045000000000001, -0.0335
DataValue, 1.71008, -0.0405
DataValue, 1.7151, -0.031
DataValue, 1.72012, -0.0165
DataValue, 1.7249400000000001, -0.0125
DataValue, 1.7300200000000001, -0.0315
DataValue, 1.7343400000000002, -0.017
DataValue, 1.7401000000000002, -0.0365
DataValue, 1.7454, -0.034
DataValue, 1.7502000000000002, -0.04
DataValue, 1.75506, -0.035
DataValue, 1.7603400000000002, -0.0335
DataValue, 1.7644400000000002, -0.025500000000000002
DataValue, 1.7697800000000001, -0.011
DataValue, 1.7740000000000002, -0.0125
DataValue, 1.7799600000000002, -0.0085
DataValue, 1.7846000000000002, -0.025
DataValue, 1.7896600000000003, -0.0365
DataValue, 1.7954, -0.0365
DataValue, 1.8000600000000002, -0.0445
DataValue, 1.8053200000000003, -0.0185
DataValue, 1.8102200000000002, -0.025
DataValue, 1.81526, -0.022
DataValue, 1.8197, -0.0095
DataValue, 1.82468, -0.0385
DataValue, 1.8305600000000002, -0.028
DataValue, 1.83566, -0.0345
DataValue, 1.8401, -0.043500000000000004
DataValue, 1.8449600000000002, -0.0305
DataValue, 1.84956, -0.039
DataValue, 1.8543, -0.0265
DataValue, 1.8605600000000002, -0.022
DataValue, 1.8653000000000002, -0.011
DataValue, 1.86986, -0.0245
DataValue, 1.87518, -0.025500000000000002
DataValue, 1.87972, -0.035500000000000004
