
SetupTitle, Rds-Id
ApplicationTest, Rds-Id, Public
TestParameter, Name, Memo, Scale, HoldTime, PulseBase, PulseAvgCnt, Gate, VgStart, VgStop, VgStep, IgLimit, Source, MeasurementTime, Drain, IdStart, IdStop, IdLinearStep, VdLimit, VdStop, PulsePeriodMode, ManualPulsePeriod, PulseWidth
TestParameter, Value, , LINEAR, 0, 0, 1, SMU2:MC	MCSMU, 20, 5, 1, 0.1, GNDU:GND	GNDU, 1E-05, SMU3:UHC500	UHCU500A, 0.5, 30, 0.2, 2, 0, 0, 0.05, 0.0002
DutParameter, Name, Polarity, Temp, YAxisRdsMin, YAxisRdsMax
DutParameter, Value, 1, 25, 0.001, 1
MetaData, TestRecord.EntryPoint, true
MetaData, TestRecord.RecordTime, 04/16/2021 14:40:06
MetaData, TestRecord.TestTarget, 
MetaData, TestRecord.IterationIndex, 1
MetaData, TestRecord.Preservation, true
MetaData, TestRecord.Flag, 
MetaData, TestRecord.Remarks, 
MetaData, TestRecord.LinkKey, 037114a9-dce1-4617-9849-8b60cedcddcb
Dimension1, 148, 148, 148, 148, 148, 148
Dimension2, 16, 16, 16, 16, 16, 16
DataName, Igate, Vgate, Vdrain, Idrain, Ta, Rds
DataValue, -3.5000000000000004E-06, 19.999760000000002, 0.00030000000000000003, 0.0935, 25, 0.0032085561497326208
DataValue, -5.1E-06, 20.000380000000003, 0.0063, 0.313, 25, 0.020127795527156548
DataValue, -1.8000000000000001E-06, 20.00028, 0.011300000000000001, 0.5155, 25, 0.021920465567410286
DataValue, -3.9E-06, 20.00056, 0.015000000000000001, 0.7815, 25, 0.019193857965451058
DataValue, -4.1000000000000006E-06, 19.999920000000003, 0.020300000000000002, 1.0010000000000001, 25, 0.020279720279720279
DataValue, -3.9E-06, 20.000300000000003, 0.0256, 1.249, 25, 0.020496397117694156
DataValue, -6.6E-06, 19.99958, 0.029300000000000003, 1.453, 25, 0.020165175498967656
DataValue, -3.6000000000000003E-06, 20.00018, 0.0346, 1.6525, 25, 0.020937972768532525
DataValue, -3.7E-06, 20.00008, 0.039, 1.8865, 25, 0.020673204346673732
DataValue, -4.4E-06, 20.000200000000003, 0.044500000000000005, 2.0935, 25, 0.021256269405302126
DataValue, -3.9E-06, 20.00016, 0.0466, 2.2915, 25, 0.020336024438140955
DataValue, -2.6E-06, 19.999740000000003, 0.0517, 2.5135, 25, 0.020568927789934355
DataValue, -1.2000000000000002E-06, 20.001, 0.0545, 2.716, 25, 0.020066273932253312
DataValue, -3.7E-06, 19.999740000000003, 0.0601, 2.918, 25, 0.020596298834818366
DataValue, -2.5E-06, 19.999840000000003, 0.0645, 3.146, 25, 0.020502225047679595
DataValue, -1.3E-06, 19.99986, 0.068600000000000008, 3.344, 25, 0.020514354066985648
DataValue, -5.1E-06, 20.00018, 0.0719, 3.5355, 25, 0.02033658605572055
DataValue, -3.9E-06, 19.99944, 0.0782, 3.7355, 25, 0.020934279212956767
DataValue, -4.0000000000000007E-06, 19.999940000000002, 0.080800000000000011, 3.9530000000000003, 25, 0.020440172021249686
DataValue, -2.4000000000000003E-06, 20.00008, 0.0845, 4.164, 25, 0.020292987512007688
DataValue, -5.0000000000000008E-07, 20.00064, 0.090400000000000008, 4.356, 25, 0.020752984389348028
DataValue, -9.0000000000000007E-07, 19.99972, 0.0935, 4.555, 25, 0.020526893523600442
DataValue, -3.4000000000000005E-06, 20.00028, 0.098600000000000007, 4.739, 25, 0.020806077231483436
DataValue, -3.1000000000000004E-06, 19.9997, 0.10350000000000001, 4.9510000000000005, 25, 0.020904867703494243
DataValue, -5.1E-06, 20.000320000000002, 0.10640000000000001, 5.1575, 25, 0.020630150266602039
DataValue, -1.8000000000000001E-06, 20.00024, 0.11, 5.373, 25, 0.020472734040573235
DataValue, -5.3E-06, 20.000480000000003, 0.1163, 5.571, 25, 0.0208759648178065
DataValue, -2.6E-06, 19.999840000000003, 0.11950000000000001, 5.7645, 25, 0.020730332205742042
DataValue, -1.2000000000000002E-06, 20.00084, 0.12240000000000001, 5.9535, 25, 0.020559334845049133
DataValue, -2.1000000000000002E-06, 20.00024, 0.1278, 6.1685, 25, 0.020718164869903542
DataValue, -2.0000000000000003E-06, 20.00006, 0.1323, 6.3605, 25, 0.0208002515525509
DataValue, -3.2000000000000003E-06, 19.999920000000003, 0.13470000000000001, 6.582, 25, 0.020464904284412035
DataValue, -3.2000000000000003E-06, 20.000040000000002, 0.13970000000000002, 6.755, 25, 0.020680977054034051
DataValue, -4.4E-06, 19.999840000000003, 0.1438, 6.9510000000000005, 25, 0.020687670838728241
DataValue, -6.1000000000000009E-06, 19.99942, 0.1479, 7.155, 25, 0.020670859538784066
DataValue, -2.0000000000000003E-06, 19.999640000000003, 0.1509, 7.3065, 25, 0.020652843358653257
DataValue, -2.0000000000000003E-06, 20.00024, 0.1537, 7.449, 25, 0.020633642099610688
DataValue, -2.1000000000000002E-06, 20.00028, 0.1569, 7.591, 25, 0.020669213542352786
DataValue, -1.9000000000000002E-06, 19.999560000000002, 0.16060000000000002, 7.7275, 25, 0.020782918149466194
DataValue, -3.4000000000000005E-06, 19.99934, 0.1603, 7.8015, 25, 0.020547330641543293
DataValue, -3.3E-06, 19.9999, 0.16190000000000002, 7.8455, 25, 0.020636033394939777
DataValue, -3.6000000000000003E-06, 19.99988, 0.1632, 7.8845, 25, 0.020698839495212125
DataValue, -2.8000000000000003E-06, 20.00018, 0.1636, 7.8980000000000006, 25, 0.02071410483666751
DataValue, -4.6E-06, 19.99968, 0.1637, 7.938, 25, 0.020622323003275385
DataValue, -4.2000000000000004E-06, 19.999560000000002, 0.16240000000000002, 7.9430000000000005, 25, 0.020445675437492133
DataValue, -2.7000000000000004E-06, 20.000300000000003, 0.1621, 7.9805, 25, 0.020312010525656288
DataValue, -5.5000000000000007E-06, 19.99978, 0.1618, 7.97, 25, 0.020301129234629862
DataValue, -2.6E-06, 20.00056, 0.1638, 7.9735000000000005, 25, 0.02054304884931335
DataValue, 1.6000000000000001E-06, 20.0008, 0.1651, 7.9755, 25, 0.020700896495517523
DataValue, -3.3E-06, 19.99998, 0.1618, 7.988, 25, 0.020255383074611916
DataValue, -2.8000000000000003E-06, 20.000400000000003, 0.1652, 8.002, 25, 0.020644838790302423
DataValue, -1.9000000000000002E-06, 19.9997, 0.1656, 7.988, 25, 0.020731096644967448
DataValue, -6.0000000000000008E-07, 20.000580000000003, 0.1653, 7.993, 25, 0.020680595521080945
DataValue, -4.6E-06, 19.9997, 0.16390000000000002, 7.984, 25, 0.020528557114228459
DataValue, -1.1E-06, 20.00044, 0.1641, 8.0005, 25, 0.020511218048871942
DataValue, -2.6E-06, 20.00046, 0.16490000000000002, 7.997, 25, 0.020620232587220209
DataValue, -4.0000000000000007E-06, 19.999480000000002, 0.1658, 8.0005, 25, 0.020723704768451971
DataValue, -4.1000000000000006E-06, 19.999740000000003, 0.1651, 7.994, 25, 0.02065298974230673
DataValue, -9.0000000000000007E-07, 19.99986, 0.166, 8.026, 25, 0.020682780961873912
DataValue, -3.4000000000000005E-06, 20.00036, 0.16640000000000002, 8.019, 25, 0.020750717047013346
DataValue, -2.7000000000000004E-06, 19.99978, 0.1635, 8.0115, 25, 0.020408163265306124
DataValue, -1.8000000000000001E-06, 19.99986, 0.1638, 8.0175, 25, 0.020430308699719364
DataValue, -1.4000000000000002E-06, 20.000420000000002, 0.16390000000000002, 7.9995, 25, 0.0204887805487843
DataValue, -4.0000000000000007E-06, 19.9998, 0.1645, 7.992, 25, 0.020583083083083084
DataValue, -3.3E-06, 20.000100000000003, 0.16540000000000002, 8.0115, 25, 0.020645322349123137
DataValue, -2.1000000000000002E-06, 20.00026, 0.1647, 7.9975000000000005, 25, 0.020593935604876525
DataValue, -1.2000000000000002E-06, 19.999820000000003, 0.16390000000000002, 8.009, 25, 0.020464477462854291
DataValue, -6.0000000000000008E-07, 20.00108, 0.1625, 8.0195, 25, 0.020263108672610511
DataValue, 0, 20.00026, 0.16390000000000002, 8.007, 25, 0.020469589109529163
DataValue, -2.6E-06, 19.999940000000002, 0.1638, 8.0175, 25, 0.020430308699719364
DataValue, -1.1E-06, 20.000760000000003, 0.1643, 8.004, 25, 0.020527236381809096
DataValue, -3.4000000000000005E-06, 20.00056, 0.163, 8.004, 25, 0.0203648175912044
DataValue, -3.1000000000000004E-06, 19.999360000000003, 0.1647, 8.0345, 25, 0.020499097641421372
DataValue, -4.6E-06, 20.000500000000002, 0.1635, 8.001, 25, 0.020434945631796028
DataValue, -3.7E-06, 20.000020000000003, 0.1648, 8.0080000000000009, 25, 0.020579420579420579
DataValue, -5.0000000000000008E-07, 20.00016, 0.16490000000000002, 8.022, 25, 0.020555971079531291
DataValue, -9.0000000000000007E-07, 19.99962, 0.1656, 7.9925000000000006, 25, 0.020719424460431651
DataValue, -2.6E-06, 19.9996, 0.1661, 8.0240000000000009, 25, 0.020700398803589228
DataValue, -5.5000000000000007E-06, 19.998540000000002, 0.1661, 7.993, 25, 0.020780683097710497
DataValue, -4.1000000000000006E-06, 19.9999, 0.1652, 8.028, 25, 0.020577977080219235
DataValue, -3E-06, 19.999920000000003, 0.1631, 8.003, 25, 0.020379857553417466
DataValue, -8.0000000000000007E-07, 20, 0.16790000000000002, 8.0285, 25, 0.020912997446596505
DataValue, -2.3E-06, 20.00072, 0.16590000000000002, 8.028, 25, 0.020665171898355757
DataValue, -6.3000000000000007E-06, 19.999280000000002, 0.1651, 8.0015, 25, 0.020633631194151097
DataValue, 1.0000000000000002E-06, 20.00016, 0.1651, 8.0355, 25, 0.020546325679795904
DataValue, -5.6000000000000006E-06, 19.99986, 0.1652, 8.0015, 25, 0.020646128850840467
DataValue, -3.1000000000000004E-06, 20, 0.1655, 8.027000000000001, 25, 0.020617914538432789
DataValue, -1.3E-06, 20.000040000000002, 0.1668, 7.996, 25, 0.020860430215107553
DataValue, -3.7E-06, 19.99998, 0.1658, 8.0240000000000009, 25, 0.020663010967098702
DataValue, -2.7000000000000004E-06, 19.999920000000003, 0.16540000000000002, 8.0225, 25, 0.020617014646307261
DataValue, -2.2E-06, 19.9997, 0.16490000000000002, 8.021, 25, 0.020558533848647302
DataValue, -2.0000000000000003E-06, 20.000140000000002, 0.16440000000000002, 7.9975000000000005, 25, 0.02055642388246327
DataValue, -5E-06, 19.99998, 0.16390000000000002, 8.0105, 25, 0.020460645402908685
DataValue, -1.3E-06, 20.00054, 0.1656, 8.004, 25, 0.020689655172413793
DataValue, -3.7E-06, 20.00016, 0.1653, 8.0165, 25, 0.020619971309174825
DataValue, 1.8000000000000001E-06, 20.00054, 0.1656, 8.0115, 25, 0.020670286463209137
DataValue, -5E-06, 19.9996, 0.1655, 8.0080000000000009, 25, 0.020666833166833164
DataValue, -3E-06, 19.99998, 0.16390000000000002, 8.011000000000001, 25, 0.020459368368493321
DataValue, -3.2000000000000003E-06, 20.00018, 0.16670000000000002, 8.033, 25, 0.020751898419021541
DataValue, -1.6000000000000001E-06, 20.000320000000002, 0.1651, 8.0115, 25, 0.020607876177994134
DataValue, -4.5E-06, 19.999480000000002, 0.1631, 8.005, 25, 0.020374765771392876
DataValue, -3.7E-06, 19.99958, 0.1646, 8.0185, 25, 0.020527530086674566
DataValue, -1.7000000000000002E-06, 20, 0.1645, 8.0205, 25, 0.020509943270369677
DataValue, -2.7000000000000004E-06, 19.9996, 0.1642, 7.9955, 25, 0.02053655181039335
DataValue, -2.8000000000000003E-06, 20.000020000000003, 0.1651, 8.025500000000001, 25, 0.020571926982742506
DataValue, -3.5000000000000004E-06, 20.00072, 0.1645, 8.007, 25, 0.020544523541900839
DataValue, 5.0000000000000008E-07, 19.999920000000003, 0.1647, 8.0080000000000009, 25, 0.020566933066933066
DataValue, -7.0000000000000007E-07, 20.00082, 0.1635, 8.0335, 25, 0.020352274849069523
DataValue, -3.5000000000000004E-06, 19.99998, 0.165, 8.009, 25, 0.020601822949182169
DataValue, 2.0000000000000002E-07, 20.00026, 0.165, 8.0215, 25, 0.020569718880508635
DataValue, -2.1000000000000002E-06, 19.999940000000002, 0.1655, 8.005, 25, 0.02067457838850718
DataValue, -5.6000000000000006E-06, 19.999540000000003, 0.1635, 8.0005, 25, 0.020436222736078993
DataValue, -1.7000000000000002E-06, 19.999540000000003, 0.1645, 8.0325, 25, 0.020479302832244008
DataValue, -4.7000000000000007E-06, 19.999840000000003, 0.16670000000000002, 8.0045, 25, 0.020825785495658694
DataValue, -5.5000000000000007E-06, 19.999380000000002, 0.1645, 8.0240000000000009, 25, 0.020500997008973079
DataValue, -3E-06, 20.00046, 0.1651, 8.022, 25, 0.020580902518075293
DataValue, 1.3E-06, 20.000120000000003, 0.16440000000000002, 8.009, 25, 0.020526907229366963
DataValue, -2.7000000000000004E-06, 19.999820000000003, 0.1652, 8.0325, 25, 0.02056644880174292
DataValue, -3E-06, 19.99942, 0.16440000000000002, 8.013, 25, 0.020516660426806443
DataValue, -2.5E-06, 19.9995, 0.16440000000000002, 8.0115, 25, 0.020520501778693131
DataValue, -3.5000000000000004E-06, 20.000420000000002, 0.164, 8.0385, 25, 0.020401816259252348
DataValue, -2.7000000000000004E-06, 19.999660000000002, 0.1646, 8.022, 25, 0.020518573921715282
DataValue, -2.2E-06, 20.000200000000003, 0.1661, 8.0155, 25, 0.020722350446010854
DataValue, -2.1000000000000002E-06, 20.00018, 0.1646, 8.0225, 25, 0.020517295107510124
DataValue, -3.6000000000000003E-06, 19.999560000000002, 0.1641, 8.026, 25, 0.020446050336406677
DataValue, -2.5E-06, 19.999540000000003, 0.16390000000000002, 8.0145, 25, 0.020450433589119722
DataValue, -4.0000000000000003E-07, 20.00092, 0.16640000000000002, 8.037, 25, 0.020704242876695284
DataValue, -2.2E-06, 20.000220000000002, 0.16390000000000002, 8.011000000000001, 25, 0.020459368368493321
DataValue, -2.7000000000000004E-06, 19.9999, 0.1653, 8.0175, 25, 0.020617399438727785
DataValue, -3.1000000000000004E-06, 19.9996, 0.1647, 8.0165, 25, 0.02054512567828853
DataValue, -5.6000000000000006E-06, 20, 0.1646, 8.009, 25, 0.020551879135972031
DataValue, -6.0000000000000008E-07, 20.000600000000002, 0.165, 8.011000000000001, 25, 0.0205966795655973
DataValue, -4.0000000000000003E-07, 19.999460000000003, 0.1638, 8.0225, 25, 0.020417575568712994
DataValue, -1.4000000000000002E-06, 20.00044, 0.16440000000000002, 8.0080000000000009, 25, 0.020529470529470531
DataValue, -5.6000000000000006E-06, 20, 0.16390000000000002, 8.025500000000001, 25, 0.020422403588561459
DataValue, -4.4E-06, 20.000040000000002, 0.1645, 8.0125, 25, 0.020530421216848678
DataValue, -7.3E-06, 19.998820000000002, 0.1668, 8.004, 25, 0.020839580209895053
DataValue, -1.3E-06, 20.00046, 0.1655, 8.0175, 25, 0.020642344870595571
DataValue, -3.8000000000000005E-06, 19.99978, 0.16390000000000002, 8.006, 25, 0.020472145890582064
DataValue, -4.1000000000000006E-06, 19.99986, 0.1658, 8.0025, 25, 0.020718525460793502
DataValue, -2.4000000000000003E-06, 20.000120000000003, 0.16440000000000002, 8.0225, 25, 0.020492365222810845
DataValue, -1.7000000000000002E-06, 19.9997, 0.1652, 8.0065, 25, 0.02063323549615937
DataValue, -5.3E-06, 19.9996, 0.16540000000000002, 8.025500000000001, 25, 0.020609307831287772
DataValue, -2.8000000000000003E-06, 20.00036, 0.1648, 8.007, 25, 0.020581990758086675
DataValue, -3E-06, 19.999920000000003, 0.164, 8.026, 25, 0.020433590829803141
DataValue, -2.0000000000000003E-06, 19.99978, 0.16490000000000002, 8.0105, 25, 0.020585481555458463
DataValue, -6.3000000000000007E-06, 19.99978, 0.165, 8.0205, 25, 0.020572283523471107
DataValue, -2.6E-06, 20.00018, 0.16490000000000002, 8.017, 25, 0.020568791318448302
DataValue, -1.8000000000000001E-06, 18.99958, 0.0012000000000000001, 0.116, 25, 0.010344827586206896
DataValue, -1.5E-06, 18.999560000000002, 0.006, 0.266, 25, 0.022556390977443608
DataValue, -1.6000000000000001E-06, 19.00074, 0.0123, 0.5425, 25, 0.022672811059907837
DataValue, -5.1E-06, 18.99972, 0.016, 0.76250000000000007, 25, 0.020983606557377049
DataValue, -2.8000000000000003E-06, 19.00028, 0.023, 1.0185, 25, 0.022582228767795778
DataValue, -1.1E-06, 19.00082, 0.0273, 1.2245, 25, 0.022294814209881587
DataValue, -6.1000000000000009E-06, 18.99998, 0.030600000000000002, 1.466, 25, 0.020873124147339703
DataValue, -1.1E-06, 18.99968, 0.0345, 1.676, 25, 0.020584725536992844
DataValue, -2.0000000000000002E-07, 18.99978, 0.0392, 1.867, 25, 0.0209962506695233
DataValue, -2.7000000000000004E-06, 19.00016, 0.0444, 2.1105, 25, 0.021037668798862829
DataValue, -2.3E-06, 18.99986, 0.0497, 2.301, 25, 0.021599304650152105
DataValue, -4.8000000000000006E-06, 19.000680000000003, 0.0541, 2.521, 25, 0.021459738199127332
DataValue, -1.8000000000000001E-06, 18.999760000000002, 0.057100000000000005, 2.6985, 25, 0.021159903650176025
DataValue, 3.0000000000000004E-07, 19.000140000000002, 0.062400000000000004, 2.9225, 25, 0.021351582549187342
DataValue, -3.2000000000000003E-06, 19.00052, 0.065, 3.1390000000000002, 25, 0.020707231602421151
DataValue, -9.0000000000000007E-07, 18.99986, 0.0729, 3.3280000000000003, 25, 0.021905048076923075
DataValue, -2.0000000000000003E-06, 18.999660000000002, 0.075400000000000009, 3.5375, 25, 0.021314487632508837
DataValue, -4.5E-06, 18.99962, 0.079700000000000007, 3.755, 25, 0.021225033288948071
DataValue, -1.5E-06, 19.000140000000002, 0.0843, 3.9415, 25, 0.021387796524165927
DataValue, -3E-06, 18.99996, 0.0881, 4.149, 25, 0.021234032296939022
DataValue, -1.9000000000000002E-06, 19.000020000000003, 0.0921, 4.3495, 25, 0.0211748476836418
DataValue, -3.5000000000000004E-06, 18.9994, 0.096800000000000011, 4.5455, 25, 0.021295787042129581
DataValue, -2.4000000000000003E-06, 18.99988, 0.10110000000000001, 4.7345, 25, 0.021353891646425181
DataValue, -3.3E-06, 19.000200000000003, 0.1078, 4.964, 25, 0.021716357775987107
DataValue, -4.0000000000000007E-06, 18.999280000000002, 0.1097, 5.166, 25, 0.021234998064266358
DataValue, -2.6E-06, 19.00054, 0.1145, 5.364, 25, 0.021346010439970173
DataValue, -2.0000000000000003E-06, 19.00038, 0.12010000000000001, 5.5600000000000005, 25, 0.021600719424460433
DataValue, -2.6E-06, 19, 0.1241, 5.75, 25, 0.021582608695652174
DataValue, 6.0000000000000008E-07, 19.001060000000003, 0.1282, 5.962, 25, 0.021502851392150288
DataValue, -2.9E-06, 19.000500000000002, 0.1317, 6.1845, 25, 0.021295173417414506
DataValue, -2.7000000000000004E-06, 19.00038, 0.1368, 6.384, 25, 0.021428571428571429
DataValue, -1.0000000000000002E-06, 19.000040000000002, 0.1413, 6.5565, 25, 0.021551132463967056
DataValue, -1.6000000000000001E-06, 18.999540000000003, 0.1454, 6.7595, 25, 0.021510466750499297
DataValue, -3.3E-06, 18.999840000000003, 0.1505, 6.9325, 25, 0.021709340064911646
DataValue, -3.3E-06, 19.000140000000002, 0.15430000000000002, 7.1415, 25, 0.0216061051599804
DataValue, -4.9000000000000005E-06, 19.000100000000003, 0.15760000000000002, 7.2925, 25, 0.021611244429208091
DataValue, -4.8000000000000006E-06, 18.999260000000003, 0.16160000000000002, 7.454, 25, 0.021679635095250876
DataValue, -2.7000000000000004E-06, 19.00056, 0.16290000000000002, 7.5955, 25, 0.021446909354222898
DataValue, -3.9E-06, 18.999280000000002, 0.1647, 7.6930000000000005, 25, 0.021409073183413493
DataValue, -2.3E-06, 19.00052, 0.16720000000000002, 7.7890000000000006, 25, 0.021466170240082169
DataValue, -3.9E-06, 18.999640000000003, 0.1686, 7.8465, 25, 0.021487287325559167
DataValue, -2.2E-06, 19.000220000000002, 0.1688, 7.862, 25, 0.021470363775120835
DataValue, -1.6000000000000001E-06, 19.000020000000003, 0.1688, 7.9060000000000006, 25, 0.021350872754869719
DataValue, -1.5E-06, 18.999740000000003, 0.169, 7.9300000000000006, 25, 0.021311475409836064
DataValue, -1.5E-06, 19.00006, 0.1686, 7.9190000000000005, 25, 0.021290566990781662
DataValue, -2.2E-06, 19.00016, 0.1706, 7.962, 25, 0.021426777191660386
DataValue, -3.9E-06, 18.99942, 0.1698, 7.973, 25, 0.021296876959739121
DataValue, -1.0000000000000002E-06, 18.99962, 0.1708, 7.9565, 25, 0.021466725318921638
DataValue, -3.9E-06, 19.00008, 0.1716, 7.954, 25, 0.021574050792054312
DataValue, -1.0000000000000002E-06, 19, 0.1711, 7.9605000000000006, 25, 0.021493624772313296
DataValue, -2.8000000000000003E-06, 18.999740000000003, 0.17070000000000002, 7.9815000000000005, 25, 0.021386957338846081
DataValue, -3.4000000000000005E-06, 19.000200000000003, 0.1706, 7.9865, 25, 0.02136104676641833
DataValue, -2.7000000000000004E-06, 18.99988, 0.1709, 7.981, 25, 0.021413356722215261
DataValue, -3.4000000000000005E-06, 18.999640000000003, 0.17020000000000002, 7.963, 25, 0.021373854075097329
DataValue, -3.5000000000000004E-06, 18.999460000000003, 0.1696, 7.947, 25, 0.021341386686800051
DataValue, -1.9000000000000002E-06, 18.99934, 0.1701, 7.952, 25, 0.021390845070422534
DataValue, -1.4000000000000002E-06, 19.00038, 0.1704, 7.9855, 25, 0.021338676350885981
DataValue, -1.6000000000000001E-06, 18.9995, 0.1723, 7.9985, 25, 0.021541539038569733
DataValue, -2.5E-06, 19.00038, 0.1698, 8.003, 25, 0.021217043608646759
