
SetupTitle, ID-VGS
PrimitiveTest, Multi Channel I/V Sweep
TestParameter, Channel.UnitType, SMU, SMU
TestParameter, Channel.Unit, SMU2:MC, SMU3:UHC500
TestParameter, Channel.IName, IG, ID
TestParameter, Channel.VName, VGS, VDS
TestParameter, Channel.Mode, VPULSE, VPULSE
TestParameter, Channel.Func, VAR1, CONST
TestParameter, Channel.Index, 
TestParameter, Channel.Time, 
TestParameter, Measurement.Port.Unit, SMU2:MC, SMU3:UHC500
TestParameter, Measurement.Port.SeriesResistor, NONE, NONE
TestParameter, Measurement.Port.Filter, OFF, OFF
TestParameter, Measurement.Port.OutputVoltageComparison, 0, 0
TestParameter, Measurement.Primary.Start, 0
TestParameter, Measurement.Primary.Stop, 10
TestParameter, Measurement.Primary.Compliance, 0.099999999999999992
TestParameter, Measurement.Primary.PowerCompliance, 0
TestParameter, Measurement.Primary.Locus, Single
TestParameter, Measurement.Primary.Scale, LINEAR
TestParameter, Measurement.Primary.Count, 2001
TestParameter, Measurement.Aborting.Condition, CONTINUE AT ANY
TestParameter, Measurement.PostOutput.Value, START
TestParameter, Measurement.PostOutput.Retention, OFF
TestParameter, Measurement.Bias.Source, 0, 3
TestParameter, Measurement.Bias.Compliance, 0.099999999999999992, 5
TestParameter, Measurement.Pulse.Delay, 0, 9.9999999999999991E-05
TestParameter, Measurement.Pulse.Duration, 0.001, 4.9999999999999996E-05
TestParameter, Measurement.Pulse.Base, 0, 0
TestParameter, Measurement.Pulse.Period, 0
TestParameter, Measurement.Pulse.MeasurementDelay, 0
TestParameter, Measurement.Pulse.AveragingCount, 1
TestParameter, Measurement.Monitor.Unit, SMU2:MC, SMU3:UHC500
TestParameter, Measurement.Monitor.Adc, HS ADC, HS ADC
TestParameter, Measurement.Monitor.Measurement, Force and Compliance Sides, Force and Compliance Sides
TestParameter, Measurement.Timing.Hold, 0
TestParameter, Measurement.Timing.Delay, 0
TestParameter, Measurement.Adc.HighSpeed.Mode, TIME
TestParameter, Measurement.Adc.HighSpeed.Coeff, 9.9999999999999991E-06
TestParameter, Measurement.Adc.HighResolution.AutoZero, OFF
TestParameter, Measurement.Adc.HighResolution.Mode, AUTO
TestParameter, Measurement.Adc.HighResolution.Coeff, 6
TestParameter, Measurement.WaitTime.Source.Coeff, 1
TestParameter, Measurement.WaitTime.Source.Offset, 0
TestParameter, Measurement.WaitTime.Monitor.Coeff, 1
TestParameter, Measurement.WaitTime.Monitor.Offset, 0
TestParameter, Output.Graph.Enabled, true
TestParameter, Output.Graph.AutoScaling, false
TestParameter, Output.Graph.XAxis.Data, VGS
TestParameter, Output.Graph.XAxis.Scale, Linear
TestParameter, Output.Graph.XAxis.Left, -5.4
TestParameter, Output.Graph.XAxis.Right, 12.6
TestParameter, Output.Graph.XAxis.RunTimeAutoScale, false
TestParameter, Output.Graph.YAxis.Data, ID
TestParameter, Output.Graph.YAxis.Scale, Linear
TestParameter, Output.Graph.YAxis.Bottom, 0
TestParameter, Output.Graph.YAxis.Top, 10
TestParameter, Output.Graph.YAxis.Group, 
TestParameter, Output.Graph.YAxis.RunTimeAutoScale, false
TestParameter, Output.List.Data, VGS, ID
TestParameter, AutoAnalysis.Interpolation, false
TestParameter, AutoAnalysis.Line1.Enabled, false
TestParameter, AutoAnalysis.Line1.Type, 1
TestParameter, AutoAnalysis.Line1.Fix, True
TestParameter, AutoAnalysis.Line1.YAxis, 0
TestParameter, AutoAnalysis.Line1.Point1.Type, 0
TestParameter, AutoAnalysis.Line1.Point1.XY.X, 
TestParameter, AutoAnalysis.Line1.Point1.XY.Y, 
TestParameter, AutoAnalysis.Line1.Point1.Data.Var, 
TestParameter, AutoAnalysis.Line1.Point1.Data.Condition, 
TestParameter, AutoAnalysis.Line1.Point1.Data.Start, false
TestParameter, AutoAnalysis.Line1.Point1.Data.StartVar, 
TestParameter, AutoAnalysis.Line1.Point1.Data.StartCondition, 
TestParameter, AutoAnalysis.Line1.Point2.Type, 0
TestParameter, AutoAnalysis.Line1.Point2.XY.X, 
TestParameter, AutoAnalysis.Line1.Point2.XY.Y, 
TestParameter, AutoAnalysis.Line1.Point2.Data.Var, 
TestParameter, AutoAnalysis.Line1.Point2.Data.Condition, 
TestParameter, AutoAnalysis.Line1.Point2.Data.Start, false
TestParameter, AutoAnalysis.Line1.Point2.Data.StartVar, 
TestParameter, AutoAnalysis.Line1.Point2.Data.StartCondition, 
TestParameter, AutoAnalysis.Line1.GradientExpr, 0
TestParameter, AutoAnalysis.Line2.Enabled, false
TestParameter, AutoAnalysis.Line2.Type, 1
TestParameter, AutoAnalysis.Line2.Fix, True
TestParameter, AutoAnalysis.Line2.YAxis, 0
TestParameter, AutoAnalysis.Line2.Point1.Type, 0
TestParameter, AutoAnalysis.Line2.Point1.XY.X, 
TestParameter, AutoAnalysis.Line2.Point1.XY.Y, 
TestParameter, AutoAnalysis.Line2.Point1.Data.Var, 
TestParameter, AutoAnalysis.Line2.Point1.Data.Condition, 
TestParameter, AutoAnalysis.Line2.Point1.Data.Start, false
TestParameter, AutoAnalysis.Line2.Point1.Data.StartVar, 
TestParameter, AutoAnalysis.Line2.Point1.Data.StartCondition, 
TestParameter, AutoAnalysis.Line2.Point2.Type, 0
TestParameter, AutoAnalysis.Line2.Point2.XY.X, 
TestParameter, AutoAnalysis.Line2.Point2.XY.Y, 
TestParameter, AutoAnalysis.Line2.Point2.Data.Var, 
TestParameter, AutoAnalysis.Line2.Point2.Data.Condition, 
TestParameter, AutoAnalysis.Line2.Point2.Data.Start, false
TestParameter, AutoAnalysis.Line2.Point2.Data.StartVar, 
TestParameter, AutoAnalysis.Line2.Point2.Data.StartCondition, 
TestParameter, AutoAnalysis.Line2.GradientExpr, 0
TestParameter, AutoAnalysis.Marker.Enabled, false
TestParameter, AutoAnalysis.Marker.Data.Var, 
TestParameter, AutoAnalysis.Marker.Data.Condition, 
TestParameter, AutoAnalysis.Marker.Data.Start, false
TestParameter, AutoAnalysis.Marker.Data.StartVar, 
TestParameter, AutoAnalysis.Marker.Data.StartCondition, 
MetaData, TestRecord.EntryPoint, true
MetaData, TestRecord.RecordTime, 04/17/2021 12:15:40
MetaData, TestRecord.TestTarget, 
MetaData, TestRecord.IterationIndex, 1
MetaData, TestRecord.Preservation, true
MetaData, TestRecord.Flag, 
MetaData, TestRecord.Remarks, 
MetaData, TestRecord.LinkKey, ec799db9-574c-4480-89c8-2867f2899e78
Dimension1, 2001, 2001
Dimension2, 1, 1
DataName, VGS, ID
DataValue, 0.00028000000000000003, -0.0175
DataValue, 0.0052800000000000008, -0.019
DataValue, 0.01, -0.0425
DataValue, 0.01514, -0.04
DataValue, 0.020200000000000003, -0.0285
DataValue, 0.02518, -0.0145
DataValue, 0.02994, -0.026000000000000002
DataValue, 0.035100000000000006, -0.0455
DataValue, 0.04002, -0.043000000000000003
DataValue, 0.044500000000000005, -0.0195
DataValue, 0.05016, -0.0185
DataValue, 0.055180000000000007, -0.021500000000000002
DataValue, 0.059680000000000004, -0.0395
DataValue, 0.06504, -0.028
DataValue, 0.069640000000000007, -0.0085
DataValue, 0.07512, -0.0225
DataValue, 0.07964, -0.033
DataValue, 0.08518, -0.037
DataValue, 0.09084, -0.012
DataValue, 0.095180000000000015, -0.026000000000000002
DataValue, 0.0994, -0.035
DataValue, 0.10522000000000001, -0.035
DataValue, 0.11028, -0.025
DataValue, 0.11464, -0.0175
DataValue, 0.11992000000000001, -0.021500000000000002
DataValue, 0.12566000000000002, -0.0405
DataValue, 0.13016, -0.059000000000000004
DataValue, 0.13496000000000002, -0.0275
DataValue, 0.1396, -0.0165
DataValue, 0.14548, -0.022
DataValue, 0.14978000000000002, -0.043000000000000003
DataValue, 0.15504, -0.035500000000000004
DataValue, 0.16018000000000002, -0.024
DataValue, 0.16512000000000002, -0.0315
DataValue, 0.17074, -0.046
DataValue, 0.17496, -0.051000000000000004
DataValue, 0.18048, -0.025
DataValue, 0.18556, -0.028
DataValue, 0.1902, -0.0275
DataValue, 0.19554000000000002, -0.034
DataValue, 0.20058, -0.0305
DataValue, 0.20562000000000003, -0.021500000000000002
DataValue, 0.21024, -0.0275
DataValue, 0.21474000000000001, -0.0415
DataValue, 0.21976, -0.044
DataValue, 0.22562000000000002, -0.0195
DataValue, 0.22924000000000003, -0.021
DataValue, 0.23538, -0.0275
DataValue, 0.23966, -0.039
DataValue, 0.24502000000000002, -0.035
DataValue, 0.25064000000000003, -0.0145
DataValue, 0.2553, -0.0245
DataValue, 0.26028, -0.0465
DataValue, 0.26486000000000004, -0.0285
DataValue, 0.26954, -0.0185
DataValue, 0.27530000000000004, -0.0235
DataValue, 0.27968000000000004, -0.0385
DataValue, 0.28594, -0.0425
DataValue, 0.29062000000000004, -0.0345
DataValue, 0.29446, -0.0135
DataValue, 0.30042, -0.0315
DataValue, 0.30554000000000003, -0.033
DataValue, 0.30976000000000004, -0.04
DataValue, 0.3159, -0.033
DataValue, 0.31994, -0.014
DataValue, 0.32476000000000005, -0.0405
DataValue, 0.32970000000000005, -0.04
DataValue, 0.33520000000000005, -0.025
DataValue, 0.34046000000000004, -0.021500000000000002
DataValue, 0.34526, -0.027
DataValue, 0.34956000000000004, -0.048
DataValue, 0.35544000000000003, -0.0315
DataValue, 0.35952, -0.0245
DataValue, 0.36516000000000004, -0.013000000000000001
DataValue, 0.37004000000000004, -0.0495
DataValue, 0.37450000000000006, -0.0445
DataValue, 0.37972000000000006, -0.025
DataValue, 0.385, -0.0285
DataValue, 0.39004000000000005, -0.048
DataValue, 0.39484, -0.043500000000000004
DataValue, 0.39958000000000005, -0.025500000000000002
DataValue, 0.40582, -0.0305
DataValue, 0.41006000000000004, -0.0385
DataValue, 0.41572000000000003, -0.0385
DataValue, 0.42060000000000003, -0.036000000000000004
DataValue, 0.42534000000000005, -0.0305
DataValue, 0.42946, -0.014
DataValue, 0.43432000000000004, -0.0405
DataValue, 0.44018, -0.044
DataValue, 0.44486000000000003, -0.037
DataValue, 0.44970000000000004, -0.021
DataValue, 0.4549, -0.0175
DataValue, 0.46024000000000004, -0.043500000000000004
DataValue, 0.4656, -0.035
DataValue, 0.47034000000000004, -0.023
DataValue, 0.47514000000000006, -0.033
DataValue, 0.48042, -0.039
DataValue, 0.48504, -0.046
DataValue, 0.49008, -0.0365
DataValue, 0.49514, -0.038
DataValue, 0.49986, -0.026000000000000002
DataValue, 0.5048, -0.0275
DataValue, 0.50996000000000008, -0.0575
DataValue, 0.51472000000000007, -0.039
DataValue, 0.52040000000000008, -0.0165
DataValue, 0.52570000000000006, -0.0275
DataValue, 0.52968, -0.049
DataValue, 0.53498, -0.039
DataValue, 0.54036000000000006, -0.0415
DataValue, 0.54474, -0.0245
DataValue, 0.54996, -0.028
DataValue, 0.55452, -0.046
DataValue, 0.55998, -0.0305
DataValue, 0.56580000000000008, -0.02
DataValue, 0.57034000000000007, -0.0345
DataValue, 0.57494, -0.029500000000000002
DataValue, 0.58042, -0.038
DataValue, 0.58544000000000007, -0.0465
DataValue, 0.5906, -0.0205
DataValue, 0.59544000000000008, -0.031
DataValue, 0.59996, -0.051000000000000004
DataValue, 0.60516, -0.0305
DataValue, 0.6098, -0.014
DataValue, 0.61508000000000007, -0.011
DataValue, 0.61956, -0.0275
DataValue, 0.62526, -0.0385
DataValue, 0.6299800000000001, -0.04
DataValue, 0.63494000000000006, -0.006
DataValue, 0.64018000000000008, -0.0145
DataValue, 0.64482000000000006, -0.0235
DataValue, 0.65026000000000006, -0.041
DataValue, 0.6549600000000001, -0.039
DataValue, 0.66008, -0.01
DataValue, 0.66526000000000007, -0.0205
DataValue, 0.66964, -0.031
DataValue, 0.67518, -0.0385
DataValue, 0.67954, -0.032
DataValue, 0.6848200000000001, -0.0025
DataValue, 0.68992000000000009, -0.031
DataValue, 0.69460000000000011, -0.0195
DataValue, 0.7003, -0.039
DataValue, 0.70446000000000009, -0.042
DataValue, 0.7098000000000001, -0.022
DataValue, 0.71512000000000009, -0.0145
DataValue, 0.72038, -0.0425
DataValue, 0.72466000000000008, -0.0415
DataValue, 0.73064000000000007, -0.029
DataValue, 0.7345600000000001, -0.027
DataValue, 0.73988000000000009, -0.0305
DataValue, 0.7445, -0.0335
DataValue, 0.75022000000000011, -0.043500000000000004
DataValue, 0.7556, -0.0195
DataValue, 0.75958, -0.029500000000000002
DataValue, 0.76472000000000007, -0.014
DataValue, 0.77004000000000006, -0.032
DataValue, 0.77494000000000007, -0.043500000000000004
DataValue, 0.78038000000000007, -0.0345
DataValue, 0.78544, -0.0185
DataValue, 0.79032, -0.013000000000000001
DataValue, 0.79480000000000006, -0.0325
DataValue, 0.79988, -0.0405
DataValue, 0.80486, -0.031
DataValue, 0.80978, -0.0265
DataValue, 0.81516000000000011, -0.019
DataValue, 0.8202600000000001, -0.015
DataValue, 0.82466000000000006, -0.0415
DataValue, 0.83034000000000008, -0.0315
DataValue, 0.83528, -0.025
DataValue, 0.84048000000000012, -0.01
DataValue, 0.84484, -0.03
DataValue, 0.85078000000000009, -0.0445
DataValue, 0.85480000000000012, -0.0445
DataValue, 0.85972, -0.013000000000000001
DataValue, 0.86506, -0.015
DataValue, 0.87012000000000012, -0.0395
DataValue, 0.87516, -0.037
DataValue, 0.88022000000000011, -0.0395
DataValue, 0.88556000000000012, -0.0305
DataValue, 0.8899, -0.02
DataValue, 0.89378, -0.0285
DataValue, 0.90056, -0.0375
DataValue, 0.9055200000000001, -0.0335
DataValue, 0.90988, -0.02
DataValue, 0.9148400000000001, -0.027
DataValue, 0.92008000000000012, -0.021500000000000002
DataValue, 0.92470000000000008, -0.029
DataValue, 0.92958000000000007, -0.0345
DataValue, 0.9351, -0.017
DataValue, 0.94028000000000012, -0.034
DataValue, 0.9457000000000001, -0.05
DataValue, 0.95062000000000013, -0.033
DataValue, 0.95556000000000008, -0.0375
DataValue, 0.9600200000000001, -0.0205
DataValue, 0.96474, -0.044
DataValue, 0.97060000000000013, -0.0365
DataValue, 0.97536000000000012, -0.048
DataValue, 0.98026000000000013, -0.0415
DataValue, 0.98492000000000013, -0.025500000000000002
DataValue, 0.99052000000000007, -0.0095
DataValue, 0.99498000000000009, -0.0315
DataValue, 0.99948, -0.0425
DataValue, 1.0050400000000002, -0.0335
DataValue, 1.01032, -0.0145
DataValue, 1.0150400000000002, -0.0095
DataValue, 1.0193800000000002, -0.051500000000000004
DataValue, 1.02522, -0.0485
DataValue, 1.02952, -0.0265
DataValue, 1.03454, -0.015
DataValue, 1.0399, -0.0365
DataValue, 1.0447600000000001, -0.038
DataValue, 1.0503200000000001, -0.0415
DataValue, 1.05474, -0.035
DataValue, 1.05926, -0.0175
DataValue, 1.0650000000000002, -0.019
DataValue, 1.0702200000000002, -0.044
DataValue, 1.0757400000000001, -0.036000000000000004
DataValue, 1.0800800000000002, -0.022
DataValue, 1.08542, -0.024
DataValue, 1.09058, -0.0185
DataValue, 1.0952000000000002, -0.043500000000000004
DataValue, 1.0996400000000002, -0.0405
DataValue, 1.1050600000000002, -0.0165
DataValue, 1.1099800000000002, -0.026000000000000002
DataValue, 1.11556, -0.032
DataValue, 1.1199800000000002, -0.0375
DataValue, 1.1250200000000001, -0.0205
DataValue, 1.1306, -0.0315
DataValue, 1.13508, -0.0375
DataValue, 1.14046, -0.0455
DataValue, 1.1448200000000002, -0.033
DataValue, 1.14978, -0.0265
DataValue, 1.1548200000000002, -0.0285
DataValue, 1.16026, -0.048
DataValue, 1.1646400000000001, -0.032
DataValue, 1.1704800000000002, -0.0185
DataValue, 1.17466, -0.0175
DataValue, 1.17998, -0.053
DataValue, 1.18534, -0.0265
DataValue, 1.19032, -0.0275
DataValue, 1.19526, -0.0275
DataValue, 1.20036, -0.0395
DataValue, 1.20482, -0.04
DataValue, 1.2100600000000001, -0.0065000000000000006
DataValue, 1.21476, -0.0195
DataValue, 1.2195200000000002, -0.035
DataValue, 1.225, -0.0425
DataValue, 1.23056, -0.021
DataValue, 1.2351, -0.021500000000000002
DataValue, 1.2402000000000002, -0.034
DataValue, 1.245, -0.049
DataValue, 1.24936, -0.022
DataValue, 1.25466, -0.0195
DataValue, 1.2592800000000002, -0.031
DataValue, 1.2646600000000001, -0.03
DataValue, 1.2701600000000002, -0.0365
DataValue, 1.27542, -0.03
DataValue, 1.2798, -0.0245
DataValue, 1.2843200000000001, -0.029500000000000002
DataValue, 1.2897800000000002, -0.034
DataValue, 1.2953000000000001, -0.0265
DataValue, 1.29926, -0.012
DataValue, 1.3059800000000001, -0.0245
DataValue, 1.3098, -0.035
DataValue, 1.31472, -0.0235
DataValue, 1.32006, -0.0115
DataValue, 1.32518, -0.028
DataValue, 1.32976, -0.037
DataValue, 1.3350600000000001, -0.038
DataValue, 1.3401800000000002, -0.029
DataValue, 1.3453400000000002, -0.0235
DataValue, 1.3504, -0.0405
DataValue, 1.3547, -0.0365
DataValue, 1.3605600000000002, -0.0345
DataValue, 1.3647, -0.0285
DataValue, 1.3698800000000002, -0.0205
DataValue, 1.3749200000000001, -0.0345
DataValue, 1.3796000000000002, -0.04
DataValue, 1.3848, -0.0335
DataValue, 1.38958, -0.022
DataValue, 1.3948800000000001, -0.0115
DataValue, 1.4003, -0.025
DataValue, 1.4051200000000002, -0.0385
DataValue, 1.4094200000000001, -0.0315
DataValue, 1.4148200000000002, -0.017
DataValue, 1.42036, -0.022
DataValue, 1.4244, -0.036000000000000004
DataValue, 1.4294000000000002, -0.0455
DataValue, 1.4351800000000001, -0.023
DataValue, 1.4400600000000001, -0.0135
DataValue, 1.44476, -0.0235
DataValue, 1.45022, -0.035
DataValue, 1.45476, -0.041
DataValue, 1.46042, -0.0525
DataValue, 1.46544, -0.031
DataValue, 1.4701400000000002, -0.0175
DataValue, 1.4752200000000002, -0.03
DataValue, 1.47974, -0.0335
DataValue, 1.48466, -0.0475
DataValue, 1.4899200000000001, -0.0315
DataValue, 1.4952800000000002, -0.03
DataValue, 1.49984, -0.022
DataValue, 1.50428, -0.014
DataValue, 1.50988, -0.0325
DataValue, 1.51424, -0.04
DataValue, 1.52028, -0.025
DataValue, 1.5245400000000002, -0.0165
DataValue, 1.52984, -0.0115
DataValue, 1.5349400000000002, -0.0245
DataValue, 1.5401, -0.0385
DataValue, 1.5451400000000002, -0.0115
DataValue, 1.5500800000000001, -0.023
DataValue, 1.5548600000000001, -0.026000000000000002
DataValue, 1.56054, -0.031
DataValue, 1.5653800000000002, -0.0335
DataValue, 1.56946, -0.0385
DataValue, 1.5752000000000002, -0.0095
DataValue, 1.5798, -0.025500000000000002
DataValue, 1.5848200000000001, -0.05
DataValue, 1.59044, -0.0365
DataValue, 1.5949000000000002, -0.0065000000000000006
DataValue, 1.6003200000000002, -0.02
DataValue, 1.6050600000000002, -0.0135
DataValue, 1.6102400000000001, -0.0335
DataValue, 1.61556, -0.0335
DataValue, 1.6204200000000002, -0.0235
DataValue, 1.6243800000000002, -0.024
DataValue, 1.6300000000000001, -0.0225
DataValue, 1.6353600000000002, -0.0425
DataValue, 1.63972, -0.053
DataValue, 1.64534, -0.025500000000000002
DataValue, 1.6493600000000002, -0.0175
DataValue, 1.6551000000000002, -0.0135
DataValue, 1.6602000000000001, -0.029
DataValue, 1.6651000000000003, -0.046
DataValue, 1.6697400000000002, -0.0345
DataValue, 1.6749600000000002, -0.021
DataValue, 1.6803400000000002, -0.036000000000000004
DataValue, 1.6850800000000001, -0.0395
DataValue, 1.69036, -0.0415
DataValue, 1.69466, -0.0425
DataValue, 1.7004000000000001, -0.0085
DataValue, 1.70514, -0.022
DataValue, 1.7097000000000002, -0.023
DataValue, 1.7148200000000002, -0.043000000000000003
DataValue, 1.7202400000000002, -0.026000000000000002
DataValue, 1.7252600000000002, -0.0315
DataValue, 1.7300400000000002, -0.0235
DataValue, 1.7354200000000002, -0.028
DataValue, 1.7397600000000002, -0.041
DataValue, 1.7450200000000002, -0.0335
DataValue, 1.75038, -0.031
DataValue, 1.7556600000000002, -0.026000000000000002
DataValue, 1.7602000000000002, -0.047
DataValue, 1.7645600000000001, -0.0225
DataValue, 1.7698800000000001, -0.015
DataValue, 1.7756, -0.019
DataValue, 1.7803400000000003, -0.0485
DataValue, 1.7850400000000002, -0.0405
DataValue, 1.7896800000000002, -0.026000000000000002
DataValue, 1.7951800000000002, -0.026000000000000002
DataValue, 1.8004200000000001, -0.035500000000000004
DataValue, 1.80482, -0.0395
DataValue, 1.8096200000000002, -0.039
DataValue, 1.8155000000000001, -0.0055
DataValue, 1.81976, -0.02
DataValue, 1.82502, -0.04
DataValue, 1.8296400000000002, -0.041
DataValue, 1.83502, -0.0465
DataValue, 1.8399, -0.0125
DataValue, 1.84522, -0.0115
DataValue, 1.8503, -0.04
DataValue, 1.8551000000000002, -0.043500000000000004
DataValue, 1.86044, -0.039
DataValue, 1.8652400000000002, -0.0175
DataValue, 1.8699400000000002, -0.023
DataValue, 1.8753600000000001, -0.0455
DataValue, 1.87996, -0.0395
DataValue, 1.8845800000000001, -0.0205
DataValue, 1.8900000000000001, -0.0265
DataValue, 1.8946600000000002, -0.021500000000000002
DataValue, 1.89992, -0.0335
