
SetupTitle, Rds-Id
ApplicationTest, Rds-Id, Public
TestParameter, Name, Memo, Scale, HoldTime, PulseBase, PulseAvgCnt, Gate, VgStart, VgStop, VgStep, IgLimit, Source, MeasurementTime, Drain, IdStart, IdStop, IdLinearStep, VdLimit, VdStop, PulsePeriodMode, ManualPulsePeriod, PulseWidth
TestParameter, Value, , LINEAR, 0, 0, 1, SMU2:MC	MCSMU, 20, 5, 1, 0.1, GNDU:GND	GNDU, 1E-05, SMU3:UHC500	UHCU500A, 0.5, 30, 0.2, 2, 0, 0, 0.05, 0.0002
DutParameter, Name, Polarity, Temp, YAxisRdsMin, YAxisRdsMax
DutParameter, Value, 1, 25, 0.001, 1
MetaData, TestRecord.EntryPoint, true
MetaData, TestRecord.RecordTime, 04/17/2021 12:14:51
MetaData, TestRecord.TestTarget, 
MetaData, TestRecord.IterationIndex, 1
MetaData, TestRecord.Preservation, true
MetaData, TestRecord.Flag, 
MetaData, TestRecord.Remarks, 
MetaData, TestRecord.LinkKey, dc1d2a3f-40bb-44f4-8b47-76ec13ad5db0
Dimension1, 148, 148, 148, 148, 148, 148
Dimension2, 16, 16, 16, 16, 16, 16
DataName, Igate, Vgate, Vdrain, Idrain, Ta, Rds
DataValue, -1.6000000000000001E-06, 20.00052, 0.0022, 0.0975, 25, 0.022564102564102566
DataValue, -5E-06, 20.00066, 0.0122, 0.28700000000000003, 25, 0.042508710801393727
DataValue, -4.1000000000000006E-06, 19.999540000000003, 0.018500000000000003, 0.532, 25, 0.034774436090225569
DataValue, -4.9000000000000005E-06, 19.99924, 0.0251, 0.7175, 25, 0.034982578397212541
DataValue, -5.8E-06, 19.999560000000002, 0.033, 0.991, 25, 0.033299697275479316
DataValue, -5.7000000000000005E-06, 19.999560000000002, 0.0398, 1.1995, 25, 0.033180491871613177
DataValue, -2.8000000000000003E-06, 19.9993, 0.048600000000000004, 1.4355, 25, 0.033855799373040757
DataValue, -4.3E-06, 19.99996, 0.0538, 1.6175, 25, 0.033261205564142193
DataValue, -2.4000000000000003E-06, 20, 0.062, 1.852, 25, 0.033477321814254855
DataValue, -2.3E-06, 20.000040000000002, 0.068100000000000008, 2.0485, 25, 0.033243836953868684
DataValue, -2.3E-06, 20.00018, 0.075400000000000009, 2.2840000000000003, 25, 0.0330122591943958
DataValue, -3.6000000000000003E-06, 19.9998, 0.08270000000000001, 2.454, 25, 0.033700081499592506
DataValue, -6.1000000000000009E-06, 19.9999, 0.0884, 2.7025, 25, 0.0327104532839963
DataValue, -8.0000000000000007E-07, 20.00018, 0.096800000000000011, 2.87, 25, 0.033728222996515685
DataValue, -4.6E-06, 20.000140000000002, 0.10200000000000001, 3.098, 25, 0.0329244673983215
DataValue, -2.6E-06, 20, 0.1092, 3.286, 25, 0.0332318928788801
DataValue, -1.4000000000000002E-06, 20.00016, 0.1163, 3.5165, 25, 0.0330726574719181
DataValue, -3.1000000000000004E-06, 20.00018, 0.12380000000000001, 3.685, 25, 0.033595658073270016
DataValue, -1.9000000000000002E-06, 19.9995, 0.1296, 3.907, 25, 0.033171231123624259
DataValue, -2.0000000000000003E-06, 19.999940000000002, 0.13570000000000002, 4.0935, 25, 0.033150116037620622
DataValue, -3.6000000000000003E-06, 20.000320000000002, 0.14120000000000002, 4.3215, 25, 0.0326738401018165
DataValue, -3.2000000000000003E-06, 20.000320000000002, 0.15130000000000002, 4.5005, 25, 0.033618486834796138
DataValue, -4.4E-06, 19.999820000000003, 0.156, 4.712, 25, 0.033106960950764007
DataValue, -5.3E-06, 20.000420000000002, 0.1638, 4.9115, 25, 0.033350300315585869
DataValue, -5.5000000000000007E-06, 20.00008, 0.1698, 5.1145000000000005, 25, 0.03319972626845244
DataValue, -4.4E-06, 19.9994, 0.17750000000000002, 5.332, 25, 0.03328957239309828
DataValue, -4.9000000000000005E-06, 20.00062, 0.18330000000000002, 5.496, 25, 0.033351528384279475
DataValue, -4.2000000000000004E-06, 20.00018, 0.1907, 5.7245, 25, 0.033312953096340296
DataValue, -3.1000000000000004E-06, 20.00036, 0.1953, 5.898, 25, 0.033112919633774163
DataValue, -3.3E-06, 20.00044, 0.2018, 6.1095, 25, 0.033030526229642365
DataValue, -2.0000000000000003E-06, 19.99986, 0.2086, 6.306, 25, 0.033079606723755157
DataValue, -4.2000000000000004E-06, 19.99934, 0.2155, 6.4835, 25, 0.033238220097169736
DataValue, -4.9000000000000005E-06, 19.99924, 0.22130000000000002, 6.676, 25, 0.033148591971240267
DataValue, -4.1000000000000006E-06, 20, 0.2268, 6.839, 25, 0.033162743091095188
DataValue, -2.5E-06, 20.000120000000003, 0.232, 6.978, 25, 0.033247348810547438
DataValue, -2.6E-06, 20.000400000000003, 0.23600000000000002, 7.1160000000000005, 25, 0.03316469926925239
DataValue, -5.7000000000000005E-06, 19.999460000000003, 0.2374, 7.2145, 25, 0.032905953288516185
DataValue, -3.4000000000000005E-06, 19.99988, 0.2401, 7.2645, 25, 0.033051139101108129
DataValue, -2.8000000000000003E-06, 20.000140000000002, 0.2406, 7.317, 25, 0.032882328823288232
DataValue, -4.6E-06, 19.999660000000002, 0.2432, 7.377, 25, 0.032967330893317069
DataValue, -6.0000000000000008E-07, 20.00028, 0.2436, 7.378, 25, 0.033017077798861483
DataValue, -3.7E-06, 20.000220000000002, 0.2437, 7.3875, 25, 0.032988155668358714
DataValue, -2.4000000000000003E-06, 19.9999, 0.2451, 7.409, 25, 0.03308138750168714
DataValue, -3.4000000000000005E-06, 20.000120000000003, 0.2456, 7.413, 25, 0.033130986105490354
DataValue, -3.8000000000000005E-06, 20.00026, 0.2446, 7.4325, 25, 0.032909519004372688
DataValue, -4.1000000000000006E-06, 20.000220000000002, 0.2447, 7.4270000000000005, 25, 0.032947354248014
DataValue, -2.2E-06, 20.00044, 0.2452, 7.434, 25, 0.032983588915792304
DataValue, -2.8000000000000003E-06, 19.99988, 0.2457, 7.453, 25, 0.032966590634643765
DataValue, -2.2E-06, 19.99996, 0.2449, 7.434, 25, 0.032943233790691417
DataValue, -2.7000000000000004E-06, 20.000780000000002, 0.2442, 7.4225, 25, 0.032899966318625795
DataValue, -3.8000000000000005E-06, 19.99998, 0.2461, 7.44, 25, 0.033077956989247315
DataValue, -2.8000000000000003E-06, 19.999820000000003, 0.2466, 7.4605000000000006, 25, 0.033054084846860128
DataValue, -2.5E-06, 19.9999, 0.24550000000000002, 7.4525000000000006, 25, 0.0329419657832942
DataValue, -4.9000000000000005E-06, 19.99884, 0.24650000000000003, 7.452, 25, 0.033078368223295761
DataValue, -1.7000000000000002E-06, 20.000140000000002, 0.24580000000000002, 7.4375, 25, 0.03304873949579832
DataValue, -2.1000000000000002E-06, 20.000480000000003, 0.24600000000000002, 7.4435, 25, 0.033048968899039431
DataValue, -3.4000000000000005E-06, 19.9998, 0.24710000000000001, 7.4295, 25, 0.033259304125445859
DataValue, -4.0000000000000007E-06, 19.99986, 0.2459, 7.45, 25, 0.033006711409395977
DataValue, -3.5000000000000004E-06, 19.999840000000003, 0.24710000000000001, 7.4430000000000005, 25, 0.033198978906354967
DataValue, -1.6000000000000001E-06, 19.999480000000002, 0.2444, 7.4575000000000005, 25, 0.032772376801877307
DataValue, -5.1E-06, 19.99856, 0.24530000000000002, 7.4510000000000005, 25, 0.032921755469064555
DataValue, -4.2000000000000004E-06, 19.9998, 0.24650000000000003, 7.438, 25, 0.033140629201398229
DataValue, -4.3E-06, 20.000020000000003, 0.24600000000000002, 7.4575000000000005, 25, 0.032986925913509893
DataValue, -2.1000000000000002E-06, 20.000300000000003, 0.2454, 7.4345, 25, 0.0330082722442666
DataValue, -3.1000000000000004E-06, 19.99942, 0.24430000000000002, 7.4375, 25, 0.032847058823529417
DataValue, -5.2E-06, 20.000120000000003, 0.24680000000000002, 7.447, 25, 0.033140862092117633
DataValue, -8.0000000000000007E-07, 20.000300000000003, 0.2452, 7.453, 25, 0.032899503555615189
DataValue, -1.6000000000000001E-06, 20.00018, 0.24530000000000002, 7.463, 25, 0.0328688195095806
DataValue, -4.4E-06, 19.999840000000003, 0.24400000000000002, 7.46, 25, 0.03270777479892762
DataValue, -3.7E-06, 20.00056, 0.2451, 7.452, 25, 0.032890499194847024
DataValue, -2.0000000000000002E-07, 20.00044, 0.2461, 7.4435, 25, 0.033062403439242292
DataValue, -3.5000000000000004E-06, 19.9994, 0.24500000000000002, 7.4425, 25, 0.032919046019482708
DataValue, -4.0000000000000007E-06, 20.00024, 0.24550000000000002, 7.4465, 25, 0.032968508695360235
DataValue, -1.6000000000000001E-06, 19.99952, 0.24600000000000002, 7.4495000000000005, 25, 0.0330223504933217
DataValue, -4.6E-06, 19.99996, 0.2462, 7.45, 25, 0.033046979865771813
DataValue, -4.7000000000000007E-06, 19.9996, 0.24600000000000002, 7.4655000000000005, 25, 0.032951577255374724
DataValue, -6.5000000000000004E-06, 19.999200000000002, 0.2467, 7.474, 25, 0.033007760235483005
DataValue, -3.1000000000000004E-06, 19.99934, 0.24550000000000002, 7.453, 25, 0.032939755803032336
DataValue, -2.0000000000000003E-06, 19.9997, 0.2452, 7.436, 25, 0.032974717590102204
DataValue, -2.7000000000000004E-06, 19.99998, 0.2467, 7.4525000000000006, 25, 0.033102985575310294
DataValue, -1.9000000000000002E-06, 20.001, 0.24330000000000002, 7.4525000000000006, 25, 0.032646762831264678
DataValue, -3.4000000000000005E-06, 19.999840000000003, 0.2449, 7.44, 25, 0.032916666666666664
DataValue, -1.4000000000000002E-06, 20.000200000000003, 0.24450000000000002, 7.43, 25, 0.032907133243607
DataValue, -8.0000000000000007E-07, 20.00054, 0.24500000000000002, 7.453, 25, 0.03287266872400376
DataValue, -4.8000000000000006E-06, 19.9998, 0.2441, 7.458, 25, 0.032729954411370339
DataValue, -4.7000000000000007E-06, 20.00036, 0.2456, 7.4485, 25, 0.032973081828556086
DataValue, -2.4000000000000003E-06, 19.99998, 0.24700000000000003, 7.4755, 25, 0.03304126814259916
DataValue, -1.1E-06, 20.000580000000003, 0.24600000000000002, 7.465, 25, 0.032953784326858679
DataValue, -1.3E-06, 20.00036, 0.24650000000000003, 7.476, 25, 0.032972177635098986
DataValue, -5.8E-06, 19.9997, 0.2459, 7.4485, 25, 0.033013358394307579
DataValue, -1.2000000000000002E-06, 19.99996, 0.24630000000000002, 7.457, 25, 0.033029368378704578
DataValue, -1.2000000000000002E-06, 19.99996, 0.2441, 7.4555, 25, 0.032740929515123064
DataValue, -5.4000000000000008E-06, 20.000120000000003, 0.2461, 7.4455, 25, 0.033053522261768858
DataValue, -1.7000000000000002E-06, 20.000680000000003, 0.2461, 7.4405, 25, 0.033075734157650694
DataValue, -3.4000000000000005E-06, 19.999360000000003, 0.24680000000000002, 7.454, 25, 0.033109739737053938
DataValue, -3.8000000000000005E-06, 19.999460000000003, 0.2449, 7.457, 25, 0.03284162531849269
DataValue, -4.1000000000000006E-06, 19.99996, 0.2456, 7.4445000000000006, 25, 0.032990798576130027
DataValue, -5.8E-06, 19.999540000000003, 0.24580000000000002, 7.468, 25, 0.032913765399035892
DataValue, -2.1000000000000002E-06, 20.00028, 0.24580000000000002, 7.4645, 25, 0.032929198204836224
DataValue, -4.4E-06, 19.9995, 0.24580000000000002, 7.4430000000000005, 25, 0.033024318151283087
DataValue, -6.0000000000000008E-07, 19.99996, 0.2461, 7.444, 25, 0.033060182697474481
DataValue, -4.2000000000000004E-06, 20.00008, 0.2451, 7.4585, 25, 0.03286183548970973
DataValue, -1.2000000000000002E-06, 19.999660000000002, 0.2464, 7.47, 25, 0.032985274431057567
DataValue, 1.2000000000000002E-06, 20.000420000000002, 0.2454, 7.4725, 25, 0.032840414854466378
DataValue, -3.9E-06, 19.99972, 0.2442, 7.4725, 25, 0.032679826028772167
DataValue, -5.2E-06, 19.99968, 0.2461, 7.4665, 25, 0.032960557155293647
DataValue, -2.0000000000000003E-06, 19.99988, 0.24630000000000002, 7.4655000000000005, 25, 0.032991762105686155
DataValue, -4.7000000000000007E-06, 19.999760000000002, 0.24580000000000002, 7.4465, 25, 0.03300879607869469
DataValue, -2.8000000000000003E-06, 20.00006, 0.24650000000000003, 7.444, 25, 0.033113917248790974
DataValue, -1.9000000000000002E-06, 20.00024, 0.24580000000000002, 7.4605000000000006, 25, 0.032946853428054416
DataValue, -3.8000000000000005E-06, 20.00034, 0.24650000000000003, 7.4505, 25, 0.033085027850479835
DataValue, -5.2E-06, 20.000300000000003, 0.24630000000000002, 7.458, 25, 0.0330249396621078
DataValue, -1.5E-06, 19.99978, 0.2459, 7.47, 25, 0.032918340026773761
DataValue, -2.2E-06, 20.00036, 0.24580000000000002, 7.472, 25, 0.032896145610278371
DataValue, -5.8E-06, 20.000040000000002, 0.2469, 7.469, 25, 0.033056634087561924
DataValue, -3.6000000000000003E-06, 20.00044, 0.2466, 7.4635, 25, 0.033040798552957731
DataValue, -4.8000000000000006E-06, 19.99962, 0.24750000000000003, 7.468, 25, 0.033141403320835566
DataValue, -6E-06, 19.99968, 0.2469, 7.4755, 25, 0.033027891110962479
DataValue, -4.0000000000000003E-07, 20.000300000000003, 0.2454, 7.4625, 25, 0.032884422110552765
DataValue, -4.6E-06, 20.000200000000003, 0.2454, 7.481, 25, 0.032803101189680522
DataValue, -2.5E-06, 20.000220000000002, 0.24810000000000002, 7.47, 25, 0.033212851405622495
DataValue, -2.8000000000000003E-06, 20.000600000000002, 0.2439, 7.469, 25, 0.0326549738920873
DataValue, -4.0000000000000007E-06, 20.00024, 0.2461, 7.456, 25, 0.03300697424892704
DataValue, -3.4000000000000005E-06, 20.00018, 0.2457, 7.4545, 25, 0.032959957072908982
DataValue, -3.3E-06, 20.000140000000002, 0.24680000000000002, 7.4405, 25, 0.033169813856595662
DataValue, -4.9000000000000005E-06, 19.9996, 0.2457, 7.4405, 25, 0.033021974329682145
DataValue, -1.3E-06, 20.00024, 0.2464, 7.436, 25, 0.033136094674556214
DataValue, -2.6E-06, 19.999180000000003, 0.2449, 7.458, 25, 0.032837221775274872
DataValue, -3.8000000000000005E-06, 19.99968, 0.2464, 7.454, 25, 0.033056077273946875
DataValue, -2.9E-06, 20.00028, 0.2457, 7.4595, 25, 0.032937864468127888
DataValue, -2.4000000000000003E-06, 19.999540000000003, 0.2454, 7.4665, 25, 0.032866805062613004
DataValue, -4.3E-06, 19.9996, 0.24550000000000002, 7.4575000000000005, 25, 0.032919879316124709
DataValue, -1.8000000000000001E-06, 20.00084, 0.24630000000000002, 7.4235, 25, 0.033178419882804608
DataValue, -4.6E-06, 19.9996, 0.2446, 7.46, 25, 0.03278820375335121
DataValue, -3.9E-06, 19.999640000000003, 0.24550000000000002, 7.4655000000000005, 25, 0.03288460250485567
DataValue, -1.8000000000000001E-06, 19.99968, 0.2462, 7.4715, 25, 0.032951883825202435
DataValue, -9.0000000000000007E-07, 20.00036, 0.2457, 7.458, 25, 0.032944489139179405
DataValue, -3.7E-06, 19.999940000000002, 0.2457, 7.458, 25, 0.032944489139179405
DataValue, -2.2E-06, 20.00034, 0.24680000000000002, 7.46, 25, 0.033083109919571051
DataValue, -3.1000000000000004E-06, 20.000100000000003, 0.2452, 7.453, 25, 0.032899503555615189
DataValue, -3.3E-06, 19.999940000000002, 0.2461, 7.457, 25, 0.03300254794153145
DataValue, -3.0000000000000004E-07, 20.000140000000002, 0.24550000000000002, 7.453, 25, 0.032939755803032336
DataValue, -5.3E-06, 19.999160000000003, 0.2469, 7.4495000000000005, 25, 0.033143163970736293
DataValue, -1.1E-06, 20.000960000000003, 0.2454, 7.457, 25, 0.03290867641142551
DataValue, -2.4000000000000003E-06, 19.999640000000003, 0.2461, 7.4515, 25, 0.033026907334093809
DataValue, -4.4E-06, 19.99958, 0.24580000000000002, 7.453, 25, 0.032980008050449483
DataValue, -1.1E-06, 20.00024, 0.24760000000000002, 7.4445000000000006, 25, 0.033259453287662034
DataValue, -3.6000000000000003E-06, 19.9997, 0.24530000000000002, 7.4585, 25, 0.032888650532948989
DataValue, -2.6E-06, 18.99952, 0.003, 0.093, 25, 0.032258064516129031
DataValue, -1.0000000000000002E-06, 18.999760000000002, 0.0086, 0.278, 25, 0.030935251798561148
DataValue, -3.7E-06, 19.00016, 0.0179, 0.50750000000000006, 25, 0.035270935960591124
DataValue, -3.3E-06, 19.00024, 0.0256, 0.7425, 25, 0.034478114478114476
DataValue, -3.4000000000000005E-06, 19.000140000000002, 0.032600000000000004, 0.984, 25, 0.033130081300813012
DataValue, -3.7E-06, 18.9997, 0.041600000000000005, 1.2195, 25, 0.034112341123411237
DataValue, -3.5000000000000004E-06, 18.999920000000003, 0.0499, 1.422, 25, 0.03509142053445851
DataValue, -2.9E-06, 19.00064, 0.0553, 1.6465, 25, 0.03358639538414819
DataValue, -3.7E-06, 19, 0.0625, 1.858, 25, 0.03363832077502691
DataValue, -4.2000000000000004E-06, 19.000420000000002, 0.0699, 2.0605, 25, 0.033923804901722879
DataValue, -4.0000000000000007E-06, 18.99934, 0.0756, 2.2825, 25, 0.033121577217962758
DataValue, -2.9E-06, 18.99952, 0.084, 2.485, 25, 0.033802816901408454
DataValue, -2.9E-06, 19.000220000000002, 0.092, 2.6885, 25, 0.034219825181327879
DataValue, -3.7E-06, 18.999560000000002, 0.0976, 2.903, 25, 0.033620392697209782
DataValue, -2.6E-06, 18.9999, 0.10500000000000001, 3.0935, 25, 0.03394213673832229
DataValue, -3.5000000000000004E-06, 18.9997, 0.111, 3.3045, 25, 0.033590558329550615
DataValue, -3.2000000000000003E-06, 18.999360000000003, 0.1174, 3.5180000000000002, 25, 0.033371233655486068
DataValue, -2.6E-06, 18.999640000000003, 0.12560000000000002, 3.716, 25, 0.033799784714747046
DataValue, -5.1E-06, 18.99968, 0.13290000000000002, 3.9325, 25, 0.033795295613477438
DataValue, -3.8000000000000005E-06, 18.99986, 0.1386, 4.109, 25, 0.033730834752981262
DataValue, -1.7000000000000002E-06, 18.999540000000003, 0.14730000000000001, 4.2985, 25, 0.034267767825985812
DataValue, -2.5E-06, 19.00018, 0.1521, 4.5040000000000004, 25, 0.033769982238010657
DataValue, -3E-06, 19.00036, 0.1592, 4.6985, 25, 0.033883154198148344
DataValue, -2.8000000000000003E-06, 19.00044, 0.1661, 4.904, 25, 0.033870309951060357
DataValue, -3.1000000000000004E-06, 18.99958, 0.1719, 5.1005, 25, 0.033702578178609936
DataValue, -4.5E-06, 18.99922, 0.17950000000000002, 5.3015, 25, 0.033858341978685286
DataValue, -3.9E-06, 19.000500000000002, 0.1859, 5.501, 25, 0.0337938556626068
DataValue, -2.2E-06, 18.99988, 0.19340000000000002, 5.7250000000000005, 25, 0.033781659388646287
DataValue, -3.1000000000000004E-06, 18.999840000000003, 0.2016, 5.9265, 25, 0.0340167046317388
DataValue, -3.1000000000000004E-06, 18.999740000000003, 0.2058, 6.1175, 25, 0.033641193297915817
DataValue, -2.3E-06, 18.99968, 0.2127, 6.2995, 25, 0.033764584490832604
DataValue, -3.4000000000000005E-06, 19.00036, 0.2192, 6.4895000000000005, 25, 0.0337776408043763
DataValue, -4.1000000000000006E-06, 19.000120000000003, 0.2255, 6.6425, 25, 0.03394806172374859
DataValue, -3.7E-06, 18.99972, 0.2318, 6.825, 25, 0.03396336996336996
DataValue, -6.2000000000000008E-06, 18.9998, 0.23650000000000002, 6.9995, 25, 0.033788127723408813
DataValue, -2.1000000000000002E-06, 19.00024, 0.2399, 7.105, 25, 0.033764954257565094
DataValue, -5.9E-06, 19.000020000000003, 0.2429, 7.2005, 25, 0.033733768488299426
DataValue, -3.1000000000000004E-06, 19.000100000000003, 0.2452, 7.247, 25, 0.033834690216641372
DataValue, -2.7000000000000004E-06, 19.00016, 0.2449, 7.2885, 25, 0.0336008780956301
DataValue, -3.7E-06, 18.99986, 0.24830000000000002, 7.337, 25, 0.033842169824178821
DataValue, -4.8000000000000006E-06, 18.999100000000002, 0.2469, 7.3805000000000005, 25, 0.0334530180882054
DataValue, -5.9E-06, 19, 0.24880000000000002, 7.3895, 25, 0.033669395764260104
DataValue, -3.4000000000000005E-06, 18.999480000000002, 0.24760000000000002, 7.386, 25, 0.033522881126455455
DataValue, 2.0000000000000002E-07, 18.99944, 0.24860000000000002, 7.3900000000000006, 25, 0.033640054127198914
DataValue, -1.7000000000000002E-06, 19.000220000000002, 0.2487, 7.4030000000000005, 25, 0.033594488720788865
DataValue, -6.800000000000001E-06, 18.999080000000003, 0.2482, 7.4140000000000006, 25, 0.033477205287294309
DataValue, -3.3E-06, 18.99958, 0.2495, 7.4135, 25, 0.033654818911445339
DataValue, -4.2000000000000004E-06, 18.99998, 0.2495, 7.4270000000000005, 25, 0.033593644809478927
DataValue, -3.2000000000000003E-06, 18.99986, 0.2508, 7.4155, 25, 0.033821050502326214
DataValue, -4.8000000000000006E-06, 19.000020000000003, 0.24910000000000002, 7.43, 25, 0.033526244952893677
DataValue, -3.5000000000000004E-06, 19.000680000000003, 0.2479, 7.4325, 25, 0.033353514968045749
DataValue, -4.2000000000000004E-06, 18.9994, 0.249, 7.4345, 25, 0.03349250117694532
DataValue, -3.9E-06, 19.00016, 0.24860000000000002, 7.4365000000000006, 25, 0.033429704834263427
DataValue, -2.1000000000000002E-06, 19.000040000000002, 0.2494, 7.432, 25, 0.033557588805166849
DataValue, -1.3E-06, 18.99986, 0.2503, 7.4205000000000005, 25, 0.033730880668418568
DataValue, -4.7000000000000007E-06, 18.99986, 0.2506, 7.4465, 25, 0.033653394212045926
DataValue, -2.1000000000000002E-06, 19.00006, 0.2492, 7.444, 25, 0.033476625470177324
DataValue, -2.7000000000000004E-06, 18.999820000000003, 0.2482, 7.4265, 25, 0.033420857739177273
