
SetupTitle, ID-VDS-3rd
PrimitiveTest, Multi Channel I/V Sweep
TestParameter, Channel.UnitType, SMU, SMU
TestParameter, Channel.Unit, SMU2:MC, SMU3:UHC500
TestParameter, Channel.IName, IG, ID
TestParameter, Channel.VName, VGS, VDS
TestParameter, Channel.Mode, VPULSE, VPULSE
TestParameter, Channel.Func, VAR2, VAR1
TestParameter, Channel.Index, 
TestParameter, Channel.Time, 
TestParameter, Measurement.Port.Unit, SMU2:MC, SMU3:UHC500
TestParameter, Measurement.Port.SeriesResistor, NONE, NONE
TestParameter, Measurement.Port.Filter, OFF, OFF
TestParameter, Measurement.Port.OutputVoltageComparison, 0, 0
TestParameter, Measurement.Primary.Start, -5
TestParameter, Measurement.Primary.Stop, 0
TestParameter, Measurement.Primary.Compliance, 10
TestParameter, Measurement.Primary.PowerCompliance, 0
TestParameter, Measurement.Primary.Locus, Single
TestParameter, Measurement.Primary.Scale, LINEAR
TestParameter, Measurement.Primary.Count, 21
TestParameter, Measurement.Aborting.Condition, CONTINUE AT ANY
TestParameter, Measurement.PostOutput.Value, START
TestParameter, Measurement.PostOutput.Retention, OFF
TestParameter, Measurement.Secondary.Start, 15.000000000000002
TestParameter, Measurement.Secondary.Count, 5
TestParameter, Measurement.Secondary.Step, 1.25
TestParameter, Measurement.Secondary.Compliance, 0.099999999999999992
TestParameter, Measurement.Secondary.PowerCompliance, 0
TestParameter, Measurement.Bias.Source, 0, 0
TestParameter, Measurement.Bias.Compliance, 0.099999999999999992, 0
TestParameter, Measurement.Pulse.Delay, 0, 9.9999999999999991E-05
TestParameter, Measurement.Pulse.Duration, 0.001, 0.00019999999999999998
TestParameter, Measurement.Pulse.Base, 0, 0
TestParameter, Measurement.Pulse.Period, 0
TestParameter, Measurement.Pulse.MeasurementDelay, 0
TestParameter, Measurement.Pulse.AveragingCount, 1
TestParameter, Measurement.Monitor.Unit, SMU2:MC, SMU3:UHC500
TestParameter, Measurement.Monitor.Adc, HS ADC, HS ADC
TestParameter, Measurement.Monitor.Measurement, Force and Compliance Sides, Force and Compliance Sides
TestParameter, Measurement.Timing.Hold, 0
TestParameter, Measurement.Timing.Delay, 0
TestParameter, Measurement.Adc.HighSpeed.Mode, TIME
TestParameter, Measurement.Adc.HighSpeed.Coeff, 9.9999999999999991E-06
TestParameter, Measurement.Adc.HighResolution.AutoZero, OFF
TestParameter, Measurement.Adc.HighResolution.Mode, AUTO
TestParameter, Measurement.Adc.HighResolution.Coeff, 6
TestParameter, Measurement.WaitTime.Source.Coeff, 1
TestParameter, Measurement.WaitTime.Source.Offset, 0
TestParameter, Measurement.WaitTime.Monitor.Coeff, 1
TestParameter, Measurement.WaitTime.Monitor.Offset, 0
TestParameter, Output.Graph.Enabled, true
TestParameter, Output.Graph.AutoScaling, false
TestParameter, Output.Graph.XAxis.Data, VDS
TestParameter, Output.Graph.XAxis.Scale, Linear
TestParameter, Output.Graph.XAxis.Left, -4.8
TestParameter, Output.Graph.XAxis.Right, 1.2
TestParameter, Output.Graph.XAxis.RunTimeAutoScale, false
TestParameter, Output.Graph.YAxis.Data, ID
TestParameter, Output.Graph.YAxis.Scale, Linear
TestParameter, Output.Graph.YAxis.Bottom, -15
TestParameter, Output.Graph.YAxis.Top, 1
TestParameter, Output.Graph.YAxis.Group, 
TestParameter, Output.Graph.YAxis.RunTimeAutoScale, false
TestParameter, Output.List.Data, VDS, ID
TestParameter, AutoAnalysis.Interpolation, false
TestParameter, AutoAnalysis.Line1.Enabled, false
TestParameter, AutoAnalysis.Line1.Type, 1
TestParameter, AutoAnalysis.Line1.Fix, True
TestParameter, AutoAnalysis.Line1.YAxis, 0
TestParameter, AutoAnalysis.Line1.Point1.Type, 0
TestParameter, AutoAnalysis.Line1.Point1.XY.X, 
TestParameter, AutoAnalysis.Line1.Point1.XY.Y, 
TestParameter, AutoAnalysis.Line1.Point1.Data.Var, 
TestParameter, AutoAnalysis.Line1.Point1.Data.Condition, 
TestParameter, AutoAnalysis.Line1.Point1.Data.Start, false
TestParameter, AutoAnalysis.Line1.Point1.Data.StartVar, 
TestParameter, AutoAnalysis.Line1.Point1.Data.StartCondition, 
TestParameter, AutoAnalysis.Line1.Point2.Type, 0
TestParameter, AutoAnalysis.Line1.Point2.XY.X, 
TestParameter, AutoAnalysis.Line1.Point2.XY.Y, 
TestParameter, AutoAnalysis.Line1.Point2.Data.Var, 
TestParameter, AutoAnalysis.Line1.Point2.Data.Condition, 
TestParameter, AutoAnalysis.Line1.Point2.Data.Start, false
TestParameter, AutoAnalysis.Line1.Point2.Data.StartVar, 
TestParameter, AutoAnalysis.Line1.Point2.Data.StartCondition, 
TestParameter, AutoAnalysis.Line1.GradientExpr, 0
TestParameter, AutoAnalysis.Line2.Enabled, false
TestParameter, AutoAnalysis.Line2.Type, 1
TestParameter, AutoAnalysis.Line2.Fix, True
TestParameter, AutoAnalysis.Line2.YAxis, 0
TestParameter, AutoAnalysis.Line2.Point1.Type, 0
TestParameter, AutoAnalysis.Line2.Point1.XY.X, 
TestParameter, AutoAnalysis.Line2.Point1.XY.Y, 
TestParameter, AutoAnalysis.Line2.Point1.Data.Var, 
TestParameter, AutoAnalysis.Line2.Point1.Data.Condition, 
TestParameter, AutoAnalysis.Line2.Point1.Data.Start, false
TestParameter, AutoAnalysis.Line2.Point1.Data.StartVar, 
TestParameter, AutoAnalysis.Line2.Point1.Data.StartCondition, 
TestParameter, AutoAnalysis.Line2.Point2.Type, 0
TestParameter, AutoAnalysis.Line2.Point2.XY.X, 
TestParameter, AutoAnalysis.Line2.Point2.XY.Y, 
TestParameter, AutoAnalysis.Line2.Point2.Data.Var, 
TestParameter, AutoAnalysis.Line2.Point2.Data.Condition, 
TestParameter, AutoAnalysis.Line2.Point2.Data.Start, false
TestParameter, AutoAnalysis.Line2.Point2.Data.StartVar, 
TestParameter, AutoAnalysis.Line2.Point2.Data.StartCondition, 
TestParameter, AutoAnalysis.Line2.GradientExpr, 0
TestParameter, AutoAnalysis.Marker.Enabled, false
TestParameter, AutoAnalysis.Marker.Data.Var, 
TestParameter, AutoAnalysis.Marker.Data.Condition, 
TestParameter, AutoAnalysis.Marker.Data.Start, false
TestParameter, AutoAnalysis.Marker.Data.StartVar, 
TestParameter, AutoAnalysis.Marker.Data.StartCondition, 
MetaData, TestRecord.EntryPoint, true
MetaData, TestRecord.RecordTime, 04/17/2021 10:16:41
MetaData, TestRecord.TestTarget, 
MetaData, TestRecord.IterationIndex, 1
MetaData, TestRecord.Preservation, true
MetaData, TestRecord.Flag, 
MetaData, TestRecord.Remarks, 
MetaData, TestRecord.LinkKey, fe4cc528-f575-4ff7-8730-7cf37ad3f893
Dimension1, 21, 21
Dimension2, 5, 5
DataName, ID, VDS
DataValue, -19.2395, -0.5221
DataValue, -18.2605, -0.4978
DataValue, -17.283, -0.4703
DataValue, -16.3175, -0.44770000000000004
DataValue, -15.3655, -0.4212
DataValue, -14.400500000000001, -0.39330000000000004
DataValue, -13.436, -0.3683
DataValue, -12.4845, -0.3415
DataValue, -11.509, -0.3149
DataValue, -10.533, -0.2889
DataValue, -9.603, -0.264
DataValue, -8.6115, -0.2364
DataValue, -7.6565, -0.2111
DataValue, -6.724, -0.1832
DataValue, -5.7250000000000005, -0.15810000000000002
DataValue, -4.7985, -0.1318
DataValue, -3.8255, -0.1053
DataValue, -2.8525, -0.0786
DataValue, -1.9085, -0.0505
DataValue, -0.931, -0.0252
DataValue, 0.02, 0.0028
DataValue, -19.328, -0.50150000000000006
DataValue, -18.3165, -0.4787
DataValue, -17.363, -0.45270000000000005
DataValue, -16.415, -0.4289
DataValue, -15.444, -0.4041
DataValue, -14.480500000000001, -0.3786
DataValue, -13.527000000000001, -0.3533
DataValue, -12.528500000000001, -0.32830000000000004
DataValue, -11.558, -0.3022
DataValue, -10.605500000000001, -0.27740000000000004
DataValue, -9.6335, -0.2525
DataValue, -8.666, -0.2255
DataValue, -7.698, -0.2025
DataValue, -6.728, -0.1759
DataValue, -5.769, -0.151
DataValue, -4.808, -0.125
DataValue, -3.8285, -0.10070000000000001
DataValue, -2.8615, -0.0748
DataValue, -1.907, -0.049
DataValue, -0.95400000000000007, -0.024900000000000002
DataValue, 0.039, 0.0034000000000000002
DataValue, -19.375, -0.4858
DataValue, -18.395, -0.46040000000000003
DataValue, -17.4415, -0.4368
DataValue, -16.47, -0.4131
DataValue, -15.493500000000001, -0.3901
DataValue, -14.5245, -0.36510000000000004
DataValue, -13.57, -0.3415
DataValue, -12.5955, -0.3154
DataValue, -11.608, -0.2912
DataValue, -10.663, -0.2676
DataValue, -9.689, -0.2432
DataValue, -8.71, -0.21910000000000002
DataValue, -7.7375, -0.195
DataValue, -6.7615, -0.1699
DataValue, -5.785, -0.1448
DataValue, -4.8245000000000005, -0.1221
DataValue, -3.854, -0.0966
DataValue, -2.9055, -0.0722
DataValue, -1.9095, -0.046700000000000005
DataValue, -0.9345, -0.0233
DataValue, 0.022, 0.0016
DataValue, -19.439, -0.47290000000000004
DataValue, -18.4455, -0.44970000000000004
DataValue, -17.472, -0.42660000000000003
DataValue, -16.514, -0.4041
DataValue, -15.545, -0.3771
DataValue, -14.5545, -0.3552
DataValue, -13.578, -0.3326
DataValue, -12.644, -0.3083
DataValue, -11.6475, -0.2833
DataValue, -10.6685, -0.2596
DataValue, -9.7195, -0.23600000000000002
DataValue, -8.7575, -0.2122
DataValue, -7.748, -0.1905
DataValue, -6.7795000000000005, -0.1646
DataValue, -5.8255, -0.14120000000000002
DataValue, -4.8405000000000005, -0.11800000000000001
DataValue, -3.8645, -0.093900000000000011
DataValue, -2.9005, -0.0697
DataValue, -1.921, -0.046
DataValue, -0.972, -0.0238
DataValue, 0.0145, 0.0028
DataValue, -19.488500000000002, -0.46180000000000004
DataValue, -18.508, -0.43970000000000004
DataValue, -17.525000000000002, -0.41750000000000004
DataValue, -16.5455, -0.3941
DataValue, -15.575000000000001, -0.3703
DataValue, -14.621500000000001, -0.34690000000000004
DataValue, -13.6495, -0.3251
DataValue, -12.661, -0.3
DataValue, -11.6615, -0.278
DataValue, -10.700000000000001, -0.2555
DataValue, -9.744, -0.23140000000000002
DataValue, -8.7575, -0.2082
DataValue, -7.766, -0.184
DataValue, -6.819, -0.16190000000000002
DataValue, -5.833, -0.1365
DataValue, -4.845, -0.11420000000000001
DataValue, -3.8875, -0.0903
DataValue, -2.896, -0.0674
DataValue, -1.936, -0.045700000000000005
DataValue, -0.94900000000000007, -0.020800000000000003
DataValue, 0.012, 0.0029000000000000002