
SetupTitle, IG-VGS-VDS_0
PrimitiveTest, Multi Channel I/V Sweep
TestParameter, Channel.UnitType, SMU, SMU
TestParameter, Channel.Unit, SMU2:MC, SMU5:HC
TestParameter, Channel.IName, IG, ID
TestParameter, Channel.VName, VGS, VDS
TestParameter, Channel.Mode, VPULSE, VPULSE
TestParameter, Channel.Func, VAR1, CONST
TestParameter, Channel.Index, 
TestParameter, Channel.Time, 
TestParameter, Measurement.Port.Unit, SMU2:MC, SMU5:HC
TestParameter, Measurement.Port.SeriesResistor, NONE, NONE
TestParameter, Measurement.Port.Filter, OFF, OFF
TestParameter, Measurement.Port.OutputVoltageComparison, 0, 0
TestParameter, Measurement.Primary.Start, -5
TestParameter, Measurement.Primary.Stop, 20
TestParameter, Measurement.Primary.Compliance, 0.099999999999999992
TestParameter, Measurement.Primary.PowerCompliance, 0
TestParameter, Measurement.Primary.Locus, Single
TestParameter, Measurement.Primary.Scale, LINEAR
TestParameter, Measurement.Primary.Count, 101
TestParameter, Measurement.Aborting.Condition, CONTINUE AT ANY
TestParameter, Measurement.PostOutput.Value, START
TestParameter, Measurement.PostOutput.Retention, OFF
TestParameter, Measurement.Bias.Source, 0, 0
TestParameter, Measurement.Bias.Compliance, 0.099999999999999992, 20
TestParameter, Measurement.Pulse.Delay, 0, 0
TestParameter, Measurement.Pulse.Duration, 0.001, 0.00019999999999999998
TestParameter, Measurement.Pulse.Base, 0, 0
TestParameter, Measurement.Pulse.Period, 0
TestParameter, Measurement.Pulse.MeasurementDelay, 0
TestParameter, Measurement.Pulse.AveragingCount, 1
TestParameter, Measurement.Monitor.Unit, SMU2:MC, SMU5:HC
TestParameter, Measurement.Monitor.Adc, HS ADC, HS ADC
TestParameter, Measurement.Monitor.Measurement, Force and Compliance Sides, Force and Compliance Sides
TestParameter, Measurement.Timing.Hold, 0
TestParameter, Measurement.Timing.Delay, 0
TestParameter, Measurement.Adc.HighSpeed.Mode, TIME
TestParameter, Measurement.Adc.HighSpeed.Coeff, 4.9999999999999996E-05
TestParameter, Measurement.Adc.HighResolution.AutoZero, OFF
TestParameter, Measurement.Adc.HighResolution.Mode, AUTO
TestParameter, Measurement.Adc.HighResolution.Coeff, 6
TestParameter, Measurement.WaitTime.Source.Coeff, 1
TestParameter, Measurement.WaitTime.Source.Offset, 0
TestParameter, Measurement.WaitTime.Monitor.Coeff, 1
TestParameter, Measurement.WaitTime.Monitor.Offset, 0
TestParameter, Output.Graph.Enabled, true
TestParameter, Output.Graph.AutoScaling, false
TestParameter, Output.Graph.XAxis.Data, VGS
TestParameter, Output.Graph.XAxis.Scale, Linear
TestParameter, Output.Graph.XAxis.Left, -5
TestParameter, Output.Graph.XAxis.Right, 20
TestParameter, Output.Graph.XAxis.RunTimeAutoScale, false
TestParameter, Output.Graph.YAxis.Data, IG
TestParameter, Output.Graph.YAxis.Scale, Linear
TestParameter, Output.Graph.YAxis.Bottom, -2E-06
TestParameter, Output.Graph.YAxis.Top, 2E-06
TestParameter, Output.Graph.YAxis.Group, 
TestParameter, Output.Graph.YAxis.RunTimeAutoScale, false
TestParameter, Output.List.Data, VGS, IG
TestParameter, AutoAnalysis.Interpolation, false
TestParameter, AutoAnalysis.Line1.Enabled, false
TestParameter, AutoAnalysis.Line1.Type, 1
TestParameter, AutoAnalysis.Line1.Fix, True
TestParameter, AutoAnalysis.Line1.YAxis, 0
TestParameter, AutoAnalysis.Line1.Point1.Type, 0
TestParameter, AutoAnalysis.Line1.Point1.XY.X, 
TestParameter, AutoAnalysis.Line1.Point1.XY.Y, 
TestParameter, AutoAnalysis.Line1.Point1.Data.Var, 
TestParameter, AutoAnalysis.Line1.Point1.Data.Condition, 
TestParameter, AutoAnalysis.Line1.Point1.Data.Start, false
TestParameter, AutoAnalysis.Line1.Point1.Data.StartVar, 
TestParameter, AutoAnalysis.Line1.Point1.Data.StartCondition, 
TestParameter, AutoAnalysis.Line1.Point2.Type, 0
TestParameter, AutoAnalysis.Line1.Point2.XY.X, 
TestParameter, AutoAnalysis.Line1.Point2.XY.Y, 
TestParameter, AutoAnalysis.Line1.Point2.Data.Var, 
TestParameter, AutoAnalysis.Line1.Point2.Data.Condition, 
TestParameter, AutoAnalysis.Line1.Point2.Data.Start, false
TestParameter, AutoAnalysis.Line1.Point2.Data.StartVar, 
TestParameter, AutoAnalysis.Line1.Point2.Data.StartCondition, 
TestParameter, AutoAnalysis.Line1.GradientExpr, 0
TestParameter, AutoAnalysis.Line2.Enabled, false
TestParameter, AutoAnalysis.Line2.Type, 1
TestParameter, AutoAnalysis.Line2.Fix, True
TestParameter, AutoAnalysis.Line2.YAxis, 0
TestParameter, AutoAnalysis.Line2.Point1.Type, 0
TestParameter, AutoAnalysis.Line2.Point1.XY.X, 
TestParameter, AutoAnalysis.Line2.Point1.XY.Y, 
TestParameter, AutoAnalysis.Line2.Point1.Data.Var, 
TestParameter, AutoAnalysis.Line2.Point1.Data.Condition, 
TestParameter, AutoAnalysis.Line2.Point1.Data.Start, false
TestParameter, AutoAnalysis.Line2.Point1.Data.StartVar, 
TestParameter, AutoAnalysis.Line2.Point1.Data.StartCondition, 
TestParameter, AutoAnalysis.Line2.Point2.Type, 0
TestParameter, AutoAnalysis.Line2.Point2.XY.X, 
TestParameter, AutoAnalysis.Line2.Point2.XY.Y, 
TestParameter, AutoAnalysis.Line2.Point2.Data.Var, 
TestParameter, AutoAnalysis.Line2.Point2.Data.Condition, 
TestParameter, AutoAnalysis.Line2.Point2.Data.Start, false
TestParameter, AutoAnalysis.Line2.Point2.Data.StartVar, 
TestParameter, AutoAnalysis.Line2.Point2.Data.StartCondition, 
TestParameter, AutoAnalysis.Line2.GradientExpr, 0
TestParameter, AutoAnalysis.Marker.Enabled, false
TestParameter, AutoAnalysis.Marker.Data.Var, 
TestParameter, AutoAnalysis.Marker.Data.Condition, 
TestParameter, AutoAnalysis.Marker.Data.Start, false
TestParameter, AutoAnalysis.Marker.Data.StartVar, 
TestParameter, AutoAnalysis.Marker.Data.StartCondition, 
MetaData, TestRecord.EntryPoint, true
MetaData, TestRecord.RecordTime, 04/17/2021 10:50:15
MetaData, TestRecord.TestTarget, 
MetaData, TestRecord.IterationIndex, 1
MetaData, TestRecord.Preservation, true
MetaData, TestRecord.Flag, 
MetaData, TestRecord.Remarks, 
MetaData, TestRecord.LinkKey, ccc5e397-2adf-41fb-b0a5-bee1b6d70209
Dimension1, 101, 101
Dimension2, 1, 1
DataName, IG, VGS
DataValue, 1.4000000000000002E-06, -4.9999600000000006
DataValue, 1.4000000000000002E-06, -4.7499600000000006
DataValue, 6.0000000000000008E-07, -4.5000800000000005
DataValue, 9.0000000000000007E-07, -4.25002
DataValue, 1.2000000000000002E-06, -4.00006
DataValue, 9.0000000000000007E-07, -3.75002
DataValue, 1.1E-06, -3.5001200000000003
DataValue, 7.0000000000000007E-07, -3.25002
DataValue, 1.1E-06, -2.9999800000000003
DataValue, 8.0000000000000007E-07, -2.75008
DataValue, 6.0000000000000008E-07, -2.4999000000000002
DataValue, 8.0000000000000007E-07, -2.25014
DataValue, 7.0000000000000007E-07, -1.9999000000000002
DataValue, 5.0000000000000008E-07, -1.7500200000000001
DataValue, 6.0000000000000008E-07, -1.50004
DataValue, 4.0000000000000003E-07, -1.25
DataValue, 2.0000000000000002E-07, -0.99994
DataValue, 5.0000000000000008E-07, -0.75002
DataValue, -2.0000000000000002E-07, -0.50004
DataValue, -2.0000000000000002E-07, -0.24998
DataValue, -2.0000000000000002E-07, -0.00012000000000000002
DataValue, -2.0000000000000002E-07, 0.25016
DataValue, -4.0000000000000003E-07, 0.5
DataValue, -6.0000000000000008E-07, 0.75004
DataValue, 1.0000000000000001E-07, 1.0001
DataValue, 7.0000000000000007E-07, 1.24998
DataValue, 5.3E-06, 1.5000600000000002
DataValue, -6.0000000000000008E-07, 1.74998
DataValue, -4.0000000000000003E-07, 1.9999000000000002
DataValue, -5.0000000000000008E-07, 2.2499000000000002
DataValue, -1.1E-06, 2.49988
DataValue, -6.0000000000000008E-07, 2.75002
DataValue, -1.1E-06, 2.9999200000000004
DataValue, -1.0000000000000001E-07, 3.25008
DataValue, -1.1E-06, 3.5001
DataValue, -8.0000000000000007E-07, 3.7500400000000003
DataValue, -7.0000000000000007E-07, 4.00012
DataValue, -1.0000000000000002E-06, 4.25004
DataValue, -1.7000000000000002E-06, 4.4998200000000006
DataValue, -1.1E-06, 4.75002
DataValue, -1.9000000000000002E-06, 4.9999400000000005
DataValue, -9.0000000000000007E-07, 5.2499600000000006
DataValue, -1.5E-06, 5.50006
DataValue, -2.3E-06, 5.7499800000000008
DataValue, -1.9000000000000002E-06, 5.9999600000000006
DataValue, -1.9000000000000002E-06, 6.25004
DataValue, -2.0000000000000003E-06, 6.50004
DataValue, -2.4000000000000003E-06, 6.7499800000000008
DataValue, -2.2E-06, 6.99992
DataValue, -2.3E-06, 7.2499400000000005
DataValue, -2.6E-06, 7.4999600000000006
DataValue, -2.3E-06, 7.7499600000000006
DataValue, -2.0000000000000003E-06, 8.0000600000000013
DataValue, -1.7000000000000002E-06, 8.24998
DataValue, -2.4000000000000003E-06, 8.4999
DataValue, -2.2E-06, 8.75004
DataValue, -2.7000000000000004E-06, 9.00008
DataValue, -2.1000000000000002E-06, 9.2501000000000015
DataValue, -2.2E-06, 9.50004
DataValue, -2.5E-06, 9.7499
DataValue, -2.6E-06, 10
DataValue, -2.7000000000000004E-06, 10.250020000000001
DataValue, -2.4000000000000003E-06, 10.500060000000001
DataValue, -3.4000000000000005E-06, 10.749920000000001
DataValue, -2.5E-06, 11.000160000000001
DataValue, -3E-06, 11.249920000000001
DataValue, -2.6E-06, 11.49994
DataValue, -3.6000000000000003E-06, 11.75004
DataValue, -3.7E-06, 12.000020000000001
DataValue, -2.7000000000000004E-06, 12.250100000000002
DataValue, -3.6000000000000003E-06, 12.500020000000001
DataValue, -3.6000000000000003E-06, 12.750060000000001
DataValue, -3.8000000000000005E-06, 12.99998
DataValue, -3.8000000000000005E-06, 13.249880000000001
DataValue, -3.6000000000000003E-06, 13.499920000000001
DataValue, -4.0000000000000007E-06, 13.750000000000002
DataValue, -3.2000000000000003E-06, 14.00012
DataValue, -4.3E-06, 14.250020000000001
DataValue, -3.4000000000000005E-06, 14.500040000000002
DataValue, -3.8000000000000005E-06, 14.749820000000002
DataValue, -4.0000000000000007E-06, 14.999960000000002
DataValue, -4.1000000000000006E-06, 15.249880000000001
DataValue, -4.3E-06, 15.500100000000002
DataValue, -3.8000000000000005E-06, 15.74994
DataValue, -4.0000000000000007E-06, 15.999900000000002
DataValue, -4.2000000000000004E-06, 16.25006
DataValue, -4.5E-06, 16.5
DataValue, -4.4E-06, 16.75006
DataValue, -4.2000000000000004E-06, 16.99998
DataValue, -4.5E-06, 17.24998
DataValue, -5E-06, 17.4999
DataValue, -4.9000000000000005E-06, 17.74988
DataValue, -4.7000000000000007E-06, 17.999940000000002
DataValue, -5.2E-06, 18.249940000000002
DataValue, -4.8000000000000006E-06, 18.49998
DataValue, -4.7000000000000007E-06, 18.74988
DataValue, -4.8000000000000006E-06, 19.000020000000003
DataValue, -5.5000000000000007E-06, 19.24996
DataValue, -5E-06, 19.49986
DataValue, -5.5000000000000007E-06, 19.7499
DataValue, -5.2E-06, 20.00008