
SetupTitle, Rds-Id
ApplicationTest, Rds-Id, Public
TestParameter, Name, Memo, Scale, HoldTime, PulseBase, PulseAvgCnt, Gate, VgStart, VgStop, VgStep, IgLimit, Source, MeasurementTime, Drain, IdStart, IdStop, IdLinearStep, VdLimit, VdStop, PulsePeriodMode, ManualPulsePeriod, PulseWidth
TestParameter, Value, , LINEAR, 0, 0, 1, SMU2:MC	MCSMU, 20, 5, 1, 0.1, GNDU:GND	GNDU, 1E-05, SMU3:UHC500	UHCU500A, 0.5, 30, 0.2, 2, 0, 0, 0.05, 0.0002
DutParameter, Name, Polarity, Temp, YAxisRdsMin, YAxisRdsMax
DutParameter, Value, 1, 25, 0.001, 1
MetaData, TestRecord.EntryPoint, true
MetaData, TestRecord.RecordTime, 04/17/2021 10:05:54
MetaData, TestRecord.TestTarget, 
MetaData, TestRecord.IterationIndex, 1
MetaData, TestRecord.Preservation, true
MetaData, TestRecord.Flag, 
MetaData, TestRecord.Remarks, 
MetaData, TestRecord.LinkKey, bd8830f6-5753-434d-aded-f5ae2a28ca00
Dimension1, 148, 148, 148, 148, 148, 148
Dimension2, 16, 16, 16, 16, 16, 16
DataName, Igate, Vgate, Vdrain, Idrain, Ta, Rds
DataValue, -3.4000000000000005E-06, 20.00034, 0.0031000000000000003, 0.0965, 25, 0.032124352331606223
DataValue, -2.2E-06, 20.000200000000003, 0.0108, 0.2795, 25, 0.038640429338103757
DataValue, -4.7000000000000007E-06, 20.000120000000003, 0.0253, 0.523, 25, 0.048374760994263862
DataValue, -4.7000000000000007E-06, 19.9993, 0.034, 0.742, 25, 0.045822102425876012
DataValue, -2.9E-06, 19.99998, 0.0429, 1.0025, 25, 0.042793017456359106
DataValue, -3.3E-06, 19.999660000000002, 0.0533, 1.197, 25, 0.044527986633249791
DataValue, -2.5E-06, 20.00028, 0.0635, 1.409, 25, 0.045067423704755145
DataValue, -5.3E-06, 19.99952, 0.0733, 1.631, 25, 0.044941753525444515
DataValue, -5.1E-06, 19.999460000000003, 0.0804, 1.852, 25, 0.043412526997840171
DataValue, -4.4E-06, 20.000100000000003, 0.08950000000000001, 2.0435, 25, 0.04379740641057011
DataValue, -3.9E-06, 19.99958, 0.0985, 2.2640000000000002, 25, 0.043507067137809184
DataValue, -4.4E-06, 19.999180000000003, 0.10880000000000001, 2.489, 25, 0.043712334270791485
DataValue, -5.1E-06, 20.00028, 0.11660000000000001, 2.6710000000000003, 25, 0.043654062149007862
DataValue, -4.4E-06, 20, 0.126, 2.8770000000000002, 25, 0.0437956204379562
DataValue, -5.6000000000000006E-06, 19.999920000000003, 0.13620000000000002, 3.0985, 25, 0.043956753267710189
DataValue, -5E-06, 19.999380000000002, 0.1419, 3.286, 25, 0.043183201460742546
DataValue, -5.5000000000000007E-06, 19.999380000000002, 0.1514, 3.492, 25, 0.043356242840778922
DataValue, -5.8E-06, 19.999480000000002, 0.1613, 3.706, 25, 0.043524015110631406
DataValue, -3.5000000000000004E-06, 20.000380000000003, 0.16920000000000002, 3.8935, 25, 0.043457043790933611
DataValue, -5.2E-06, 19.99962, 0.1784, 4.082, 25, 0.04370406663400294
DataValue, -2.2E-06, 20.000120000000003, 0.18680000000000002, 4.309, 25, 0.043351125551171966
DataValue, -4.1000000000000006E-06, 19.999820000000003, 0.1951, 4.506, 25, 0.043297825122059472
DataValue, -3.2000000000000003E-06, 20.000700000000002, 0.20450000000000002, 4.697, 25, 0.043538428784330424
DataValue, -4.8000000000000006E-06, 19.99968, 0.2136, 4.9115, 25, 0.043489768909701722
DataValue, -4.4E-06, 20.00006, 0.2214, 5.121, 25, 0.043233743409490336
DataValue, -6.1000000000000009E-06, 19.99972, 0.2298, 5.305, 25, 0.043317624882186621
DataValue, -4.1000000000000006E-06, 20.000420000000002, 0.23950000000000002, 5.4975000000000005, 25, 0.043565256934970438
DataValue, -2.0000000000000003E-06, 20.00102, 0.2485, 5.695, 25, 0.04363476733977173
DataValue, -4.0000000000000007E-06, 20.000120000000003, 0.2556, 5.907, 25, 0.043270695784662264
DataValue, -4.2000000000000004E-06, 19.999640000000003, 0.2671, 6.1345, 25, 0.043540630858260654
DataValue, -4.0000000000000007E-06, 19.999640000000003, 0.2752, 6.29, 25, 0.043751987281399049
DataValue, -3.8000000000000005E-06, 20.00016, 0.28200000000000003, 6.4590000000000005, 25, 0.043660009289363678
DataValue, -5.2E-06, 19.99962, 0.2891, 6.6370000000000005, 25, 0.043558836823866208
DataValue, -3.9E-06, 20.00034, 0.29700000000000004, 6.832, 25, 0.04347189695550352
DataValue, -3.8000000000000005E-06, 19.9998, 0.3025, 6.9565, 25, 0.04348451088909653
DataValue, -4.8000000000000006E-06, 19.99988, 0.3062, 7.0735, 25, 0.043288329681204496
DataValue, -3.2000000000000003E-06, 19.99944, 0.3095, 7.128, 25, 0.043420314253647584
DataValue, -4.1000000000000006E-06, 20, 0.312, 7.178, 25, 0.043466146558930066
DataValue, -3.7E-06, 20.000140000000002, 0.3136, 7.24, 25, 0.04331491712707182
DataValue, -3.1000000000000004E-06, 20.000220000000002, 0.3135, 7.2705, 25, 0.043119455333195791
DataValue, -4.4E-06, 19.999280000000002, 0.3143, 7.299, 25, 0.043060693245650088
DataValue, -4.5E-06, 19.999660000000002, 0.316, 7.2815, 25, 0.043397651582778272
DataValue, -3.3E-06, 19.999940000000002, 0.3165, 7.307, 25, 0.043314629807034349
DataValue, -4.5E-06, 19.99962, 0.3165, 7.304, 25, 0.043332420591456734
DataValue, -3.0000000000000004E-07, 20.00054, 0.3173, 7.328, 25, 0.043299672489082973
DataValue, -4.8000000000000006E-06, 19.9997, 0.31720000000000004, 7.329, 25, 0.043280120070951021
DataValue, -3.4000000000000005E-06, 20.000780000000002, 0.3149, 7.3415, 25, 0.042893141728529594
DataValue, -3.3E-06, 20.00008, 0.3161, 7.345, 25, 0.043036078965282505
DataValue, -4.0000000000000007E-06, 20.000040000000002, 0.3168, 7.3405000000000005, 25, 0.043157823036577891
DataValue, -4.2000000000000004E-06, 19.99978, 0.3161, 7.324, 25, 0.0431594756963408
DataValue, -5.3E-06, 19.99958, 0.316, 7.3340000000000005, 25, 0.043086992091628029
DataValue, -3.5000000000000004E-06, 20.000100000000003, 0.31720000000000004, 7.323, 25, 0.043315581046019395
DataValue, -2.6E-06, 20.000220000000002, 0.3179, 7.325, 25, 0.043399317406143348
DataValue, -4.7000000000000007E-06, 20.000040000000002, 0.31880000000000003, 7.344, 25, 0.043409586056644883
DataValue, -3.3E-06, 19.99998, 0.3171, 7.3405000000000005, 25, 0.043198692187180705
DataValue, -5E-06, 19.9994, 0.3166, 7.3355000000000006, 25, 0.043159975461795376
DataValue, -5.4000000000000008E-06, 20.000380000000003, 0.3183, 7.3580000000000005, 25, 0.043259037782005981
DataValue, -3.6000000000000003E-06, 20.00064, 0.31720000000000004, 7.369, 25, 0.043045189306554495
DataValue, -4.0000000000000007E-06, 19.99942, 0.31720000000000004, 7.354, 25, 0.043132988849605661
DataValue, -3.0000000000000004E-07, 20.00094, 0.318, 7.3415, 25, 0.043315398760471295
DataValue, -4.3E-06, 19.99972, 0.3178, 7.3485000000000005, 25, 0.043246921140368787
DataValue, -2.3E-06, 20.000320000000002, 0.3175, 7.345, 25, 0.043226684819605177
DataValue, -3.4000000000000005E-06, 20.000140000000002, 0.3171, 7.3675, 25, 0.04304038004750594
DataValue, -2.7000000000000004E-06, 20.000220000000002, 0.3159, 7.3675, 25, 0.042877502544960984
DataValue, -4.5E-06, 19.999740000000003, 0.3178, 7.3585, 25, 0.043188149758782365
DataValue, -3.6000000000000003E-06, 19.999640000000003, 0.3201, 7.363, 25, 0.04347412739372538
DataValue, -2.9E-06, 19.999840000000003, 0.318, 7.3575, 25, 0.043221202854230381
DataValue, -5.5000000000000007E-06, 20.00044, 0.3186, 7.34, 25, 0.043405994550408722
DataValue, -2.9E-06, 20.00026, 0.31770000000000004, 7.336, 25, 0.043306979280261726
DataValue, -4.4E-06, 20.00028, 0.3183, 7.354, 25, 0.043282567310307316
DataValue, -2.5E-06, 19.999540000000003, 0.31820000000000004, 7.363, 25, 0.043216080402010054
DataValue, -2.8000000000000003E-06, 19.99996, 0.318, 7.345, 25, 0.043294758339006131
DataValue, -2.5E-06, 20.00036, 0.3171, 7.354, 25, 0.043119390807723687
DataValue, -4.1000000000000006E-06, 20.000020000000003, 0.31820000000000004, 7.3565000000000005, 25, 0.043254264935771086
DataValue, -1.2000000000000002E-06, 20.00008, 0.3189, 7.3515000000000006, 25, 0.043378902264843908
DataValue, -3.3E-06, 20.00046, 0.3178, 7.354, 25, 0.043214577100897475
DataValue, -2.9E-06, 19.99988, 0.3171, 7.338, 25, 0.04321340964840556
DataValue, -5.4000000000000008E-06, 19.99996, 0.31820000000000004, 7.346, 25, 0.04331609038932753
DataValue, -5.9E-06, 20.000420000000002, 0.3183, 7.33, 25, 0.04342428376534789
DataValue, -4.1000000000000006E-06, 20.000220000000002, 0.3178, 7.3555, 25, 0.043205764393990896
DataValue, -5.3E-06, 19.9999, 0.3171, 7.3635, 25, 0.043063760440008148
DataValue, -4.0000000000000007E-06, 19.99962, 0.3178, 7.3555, 25, 0.043205764393990896
DataValue, -4.6E-06, 20.00018, 0.3171, 7.367, 25, 0.043043301208090128
DataValue, -4.5E-06, 19.999840000000003, 0.3168, 7.357, 25, 0.043061030311268185
DataValue, -4.4E-06, 20.000320000000002, 0.31770000000000004, 7.3635, 25, 0.043145243430433904
DataValue, -4.1000000000000006E-06, 20.00056, 0.317, 7.369, 25, 0.043018048581897138
DataValue, -6.1000000000000009E-06, 20.00056, 0.31820000000000004, 7.3455, 25, 0.043319038867333744
DataValue, -4.2000000000000004E-06, 19.999360000000003, 0.3178, 7.3485000000000005, 25, 0.043246921140368787
DataValue, -5.4000000000000008E-06, 19.9999, 0.3179, 7.3545, 25, 0.043225236249915019
DataValue, -5.2E-06, 20.000120000000003, 0.3181, 7.368, 25, 0.04317318132464712
DataValue, -4.5E-06, 20.00006, 0.3165, 7.3695, 25, 0.042947282719316096
DataValue, -5.2E-06, 20.000220000000002, 0.318, 7.346, 25, 0.043288864688265725
DataValue, -2.6E-06, 19.9995, 0.3183, 7.3425, 25, 0.043350357507660878
DataValue, -5.5000000000000007E-06, 19.999380000000002, 0.31670000000000004, 7.3675, 25, 0.042986087546657621
DataValue, -4.0000000000000007E-06, 19.999940000000002, 0.31870000000000004, 7.3625, 25, 0.043286926994906626
DataValue, -4.9000000000000005E-06, 20.00016, 0.3181, 7.341, 25, 0.043331971121100668
DataValue, -2.9E-06, 20.000220000000002, 0.3175, 7.3455, 25, 0.04322374242733646
DataValue, -4.0000000000000007E-06, 20.00034, 0.3174, 7.3575, 25, 0.043139653414882774
DataValue, -3.6000000000000003E-06, 20.00044, 0.3168, 7.3695, 25, 0.042987991044168533
DataValue, -2.6E-06, 20.00056, 0.3174, 7.367, 25, 0.043084023347359848
DataValue, -3.6000000000000003E-06, 20.00054, 0.3189, 7.356, 25, 0.04335236541598695
DataValue, -3.4000000000000005E-06, 20.00036, 0.31670000000000004, 7.3455, 25, 0.04311483221019672
DataValue, -4.8000000000000006E-06, 19.9995, 0.3171, 7.3455, 25, 0.04316928731876659
DataValue, -4.0000000000000007E-06, 20.00016, 0.3184, 7.3725000000000005, 25, 0.043187521193624956
DataValue, -3.8000000000000005E-06, 20.00036, 0.3168, 7.3695, 25, 0.042987991044168533
DataValue, -3.3E-06, 19.999740000000003, 0.31820000000000004, 7.344, 25, 0.043327886710239655
DataValue, -3.6000000000000003E-06, 20.00062, 0.316, 7.357, 25, 0.042952290335734673
DataValue, -3.2000000000000003E-06, 20.000780000000002, 0.3166, 7.353, 25, 0.043057255541955664
DataValue, -3.9E-06, 20.00016, 0.3171, 7.3665, 25, 0.04304622276522093
DataValue, -3.8000000000000005E-06, 19.99942, 0.317, 7.3325000000000005, 25, 0.043232185475622228
DataValue, -3.2000000000000003E-06, 20.000300000000003, 0.3189, 7.343, 25, 0.043429116165055154
DataValue, -2.3E-06, 19.999740000000003, 0.31720000000000004, 7.3495, 25, 0.043159398598544126
DataValue, -4.7000000000000007E-06, 20.000480000000003, 0.3169, 7.3515000000000006, 25, 0.043106848942392709
DataValue, -3.6000000000000003E-06, 19.99996, 0.3183, 7.363, 25, 0.04322966182262665
DataValue, -5.1E-06, 19.999760000000002, 0.317, 7.348, 25, 0.043140990745781163
DataValue, -5.3E-06, 20.000100000000003, 0.3181, 7.346, 25, 0.043302477538796624
DataValue, -4.8000000000000006E-06, 20.000020000000003, 0.3155, 7.3465, 25, 0.042945620363438373
DataValue, -3.6000000000000003E-06, 19.999660000000002, 0.3184, 7.364, 25, 0.043237370994024991
DataValue, -2.9E-06, 19.99942, 0.31720000000000004, 7.359, 25, 0.04310368256556598
DataValue, -2.3E-06, 19.999940000000002, 0.318, 7.36, 25, 0.043206521739130435
DataValue, -3.6000000000000003E-06, 20.000020000000003, 0.3178, 7.3685, 25, 0.04312953789780824
DataValue, -2.6E-06, 19.9995, 0.3183, 7.3685, 25, 0.043197394313632356
DataValue, -3.1000000000000004E-06, 19.999540000000003, 0.3175, 7.354, 25, 0.043173782975251561
DataValue, -4.5E-06, 19.99958, 0.319, 7.3420000000000005, 25, 0.043448651593571232
DataValue, -2.7000000000000004E-06, 20, 0.3189, 7.3465, 25, 0.043408425780984146
DataValue, -4.8000000000000006E-06, 19.998700000000003, 0.3184, 7.3635, 25, 0.043240306919263935
DataValue, -5.9E-06, 19.9998, 0.31870000000000004, 7.3500000000000005, 25, 0.043360544217687078
DataValue, -3.9E-06, 20.00016, 0.3184, 7.355, 25, 0.043290278721957849
DataValue, -4.1000000000000006E-06, 20.000480000000003, 0.31720000000000004, 7.3485000000000005, 25, 0.043165271824181811
DataValue, -4.5E-06, 19.999660000000002, 0.31920000000000004, 7.3500000000000005, 25, 0.043428571428571427
DataValue, -2.2E-06, 19.99968, 0.31980000000000003, 7.3435000000000006, 25, 0.043548716552052835
DataValue, -3.2000000000000003E-06, 19.9997, 0.31720000000000004, 7.3575, 25, 0.043112470268433574
DataValue, -2.4000000000000003E-06, 19.999560000000002, 0.31930000000000003, 7.3555, 25, 0.043409693426687518
DataValue, -4.8000000000000006E-06, 19.999760000000002, 0.3173, 7.3625, 25, 0.04309677419354839
DataValue, -3.9E-06, 19.9997, 0.31770000000000004, 7.365, 25, 0.043136456211812634
DataValue, -5.4000000000000008E-06, 19.999560000000002, 0.31720000000000004, 7.378, 25, 0.042992680943345081
DataValue, -3.9E-06, 20.000500000000002, 0.31870000000000004, 7.3745, 25, 0.043216489253508718
DataValue, -3.9E-06, 19.99986, 0.3163, 7.361, 25, 0.042969705203097411
DataValue, -5.4000000000000008E-06, 19.9993, 0.3164, 7.357, 25, 0.043006660323501429
DataValue, -3.7E-06, 19.999920000000003, 0.3165, 7.3445, 25, 0.043093471305058209
DataValue, -2.6E-06, 20.001, 0.31820000000000004, 7.3485000000000005, 25, 0.043301354017826768
DataValue, -5.2E-06, 19.99978, 0.3175, 7.3555, 25, 0.043164978587451566
DataValue, -2.1000000000000002E-06, 20.001160000000002, 0.31820000000000004, 7.36, 25, 0.043233695652173915
DataValue, -4.2000000000000004E-06, 20, 0.3183, 7.3585, 25, 0.043256098389617449
DataValue, -3.5000000000000004E-06, 19.99996, 0.3183, 7.3745, 25, 0.043162248288019532
DataValue, -5.6000000000000006E-06, 20.00034, 0.3164, 7.37, 25, 0.042930800542740843
DataValue, -2.6E-06, 20.00008, 0.3184, 7.3615, 25, 0.043252054608435779
DataValue, -5.5000000000000007E-06, 19.99944, 0.31880000000000003, 7.364, 25, 0.043291689299293869
DataValue, -4.7000000000000007E-06, 19.00056, 0.0033, 0.074, 25, 0.0445945945945946
DataValue, -5.3E-06, 19.00018, 0.0129, 0.2755, 25, 0.046823956442831209
DataValue, -4.6E-06, 18.9996, 0.0241, 0.50550000000000006, 25, 0.047675568743817995
DataValue, -3.3E-06, 18.999760000000002, 0.034300000000000004, 0.76050000000000006, 25, 0.045101906640368179
DataValue, -4.3E-06, 18.99972, 0.0451, 0.9645, 25, 0.046759979263867289
DataValue, -3.4000000000000005E-06, 19.000120000000003, 0.056100000000000004, 1.205, 25, 0.046556016597510373
DataValue, -3.2000000000000003E-06, 18.99986, 0.064200000000000007, 1.4245, 25, 0.045068445068445068
DataValue, -4.5E-06, 19.00108, 0.0771, 1.6365, 25, 0.047112740604949584
DataValue, -4.3E-06, 18.9995, 0.0848, 1.828, 25, 0.046389496717724285
DataValue, -4.4E-06, 19.000780000000002, 0.0927, 2.0345, 25, 0.045564020643892852
DataValue, -4.0000000000000007E-06, 19.000780000000002, 0.10450000000000001, 2.2785, 25, 0.045863506692999781
DataValue, -3.9E-06, 19.000420000000002, 0.11120000000000001, 2.481, 25, 0.044820636839983885
DataValue, -2.9E-06, 18.9999, 0.1197, 2.6545, 25, 0.045093237897909207
DataValue, -5E-06, 19.000580000000003, 0.12990000000000002, 2.8765, 25, 0.045159047453502528
DataValue, -4.5E-06, 19.000200000000003, 0.1385, 3.073, 25, 0.045069964204360567
DataValue, -5.4000000000000008E-06, 18.99996, 0.1502, 3.2840000000000003, 25, 0.045736906211936657
DataValue, -2.6E-06, 18.99986, 0.1578, 3.501, 25, 0.045072836332476433
DataValue, -4.1000000000000006E-06, 19.000020000000003, 0.16790000000000002, 3.6950000000000003, 25, 0.045439783491204332
DataValue, -3.5000000000000004E-06, 18.99978, 0.1754, 3.8985000000000003, 25, 0.04499166346030524
DataValue, -3.7E-06, 19.000480000000003, 0.1847, 4.0985000000000005, 25, 0.045065267780895445
DataValue, -3.8000000000000005E-06, 18.99958, 0.19440000000000002, 4.2860000000000005, 25, 0.04535697620158656
DataValue, -5.9E-06, 19.00006, 0.2023, 4.5025, 25, 0.0449305941143809
DataValue, -5.2E-06, 18.9996, 0.2127, 4.6885, 25, 0.045366321851338376
DataValue, -4.2000000000000004E-06, 19.00064, 0.22080000000000002, 4.902, 25, 0.045042839657282743
DataValue, -4.4E-06, 18.999760000000002, 0.2301, 5.121, 25, 0.044932630345635612
DataValue, -4.3E-06, 18.999940000000002, 0.24050000000000002, 5.3, 25, 0.045377358490566046
DataValue, -4.7000000000000007E-06, 18.99924, 0.2489, 5.498, 25, 0.045271007639141506
DataValue, -3.4000000000000005E-06, 18.99978, 0.2586, 5.692, 25, 0.045432185523541814
DataValue, -3.8000000000000005E-06, 18.99972, 0.2651, 5.888, 25, 0.045023777173913045
DataValue, -5.2E-06, 19.00016, 0.2763, 6.1175, 25, 0.045165508786268904
DataValue, -2.3E-06, 19.00028, 0.2843, 6.292, 25, 0.045184361093452
DataValue, -1.8000000000000001E-06, 18.99988, 0.2931, 6.4735000000000005, 25, 0.045276898123117325
DataValue, -3.4000000000000005E-06, 18.99932, 0.3004, 6.636, 25, 0.04526823387582881
DataValue, -2.6E-06, 19.00054, 0.30710000000000004, 6.793, 25, 0.045208302664507587
DataValue, -4.2000000000000004E-06, 18.99988, 0.3129, 6.9535, 25, 0.044998921406485946
DataValue, -5.8E-06, 18.999540000000003, 0.316, 7.0445, 25, 0.044857690396763433
DataValue, -4.7000000000000007E-06, 19.000100000000003, 0.3205, 7.112, 25, 0.045064679415073118
DataValue, -3.9E-06, 18.999540000000003, 0.32230000000000003, 7.1480000000000006, 25, 0.04508953553441522
DataValue, -4.8000000000000006E-06, 19.00024, 0.32330000000000003, 7.207, 25, 0.044859164700985159
DataValue, -3.3E-06, 18.9997, 0.3244, 7.239, 25, 0.044812819450200304
DataValue, -5.4000000000000008E-06, 18.99996, 0.32630000000000003, 7.2615, 25, 0.0449356193623907
DataValue, -5.1E-06, 18.999920000000003, 0.3262, 7.2635000000000005, 25, 0.04490947890135609
DataValue, -4.6E-06, 18.9999, 0.3256, 7.266, 25, 0.044811450591797412
DataValue, -4.2000000000000004E-06, 18.999840000000003, 0.3262, 7.2675, 25, 0.044884760921912625
DataValue, -4.3E-06, 19.00026, 0.3276, 7.293, 25, 0.044919786096256686
DataValue, -2.6E-06, 18.999200000000002, 0.3282, 7.2825, 25, 0.045066941297631308
DataValue, -2.7000000000000004E-06, 18.99968, 0.3281, 7.3125, 25, 0.04486837606837607
DataValue, -2.3E-06, 19.00062, 0.32630000000000003, 7.3045, 25, 0.044671093161749609
DataValue, -5.3E-06, 18.99932, 0.3264, 7.3125, 25, 0.044635897435897437
DataValue, -3.7E-06, 18.99978, 0.328, 7.293, 25, 0.044974633209927325
DataValue, -3.9E-06, 19.00038, 0.3274, 7.292, 25, 0.044898518924849154
DataValue, -5.9E-06, 18.9993, 0.3269, 7.297, 25, 0.044799232561326577
DataValue, -4.6E-06, 18.9998, 0.32780000000000004, 7.3005, 25, 0.044901034175741393
DataValue, -3.3E-06, 19.00052, 0.3284, 7.3145, 25, 0.04489712215462438
DataValue, -6E-06, 18.999380000000002, 0.3285, 7.3165000000000004, 25, 0.044898517050502289
DataValue, -4.1000000000000006E-06, 19.00034, 0.3272, 7.313, 25, 0.044742239846848081
DataValue, -5.2E-06, 19.00038, 0.3281, 7.3085, 25, 0.044892932886365186
DataValue, -5E-06, 18.99988, 0.32730000000000004, 7.307, 25, 0.044792664568222257
DataValue, -2.5E-06, 18.99958, 0.3274, 7.3020000000000005, 25, 0.044837030950424545
DataValue, -2.7000000000000004E-06, 19.00044, 0.3282, 7.301, 25, 0.0449527461991508
DataValue, -2.8000000000000003E-06, 19.00072, 0.32830000000000004, 7.2975, 25, 0.044988009592326142
DataValue, -2.8000000000000003E-06, 19.000200000000003, 0.3285, 7.319, 25, 0.044883180762399236
DataValue, -5E-06, 18.99998, 0.3274, 7.3275000000000006, 25, 0.044680996247014673
DataValue, -4.5E-06, 18.99968, 0.3289, 7.3395, 25, 0.044812316915321213
DataValue, -4.2000000000000004E-06, 18.9999, 0.328, 7.3135, 25, 0.044848567717235249
