
SetupTitle, Rds-Id
ApplicationTest, Rds-Id, Public
TestParameter, Name, Memo, Scale, HoldTime, PulseBase, PulseAvgCnt, Gate, VgStart, VgStop, VgStep, IgLimit, Source, MeasurementTime, Drain, IdStart, IdStop, IdLinearStep, VdLimit, VdStop, PulsePeriodMode, ManualPulsePeriod, PulseWidth
TestParameter, Value, , LINEAR, 0, 0, 1, SMU2:MC	MCSMU, 20, 5, 1, 0.1, GNDU:GND	GNDU, 1E-05, SMU3:UHC500	UHCU500A, 0.5, 5, 0.2, 2, 0, 0, 0.05, 0.0002
DutParameter, Name, Polarity, Temp, YAxisRdsMin, YAxisRdsMax
DutParameter, Value, 1, 25, 0.001, 1
MetaData, TestRecord.EntryPoint, true
MetaData, TestRecord.RecordTime, 04/20/2021 11:24:05
MetaData, TestRecord.TestTarget, 
MetaData, TestRecord.IterationIndex, 1
MetaData, TestRecord.Preservation, true
MetaData, TestRecord.Flag, 
MetaData, TestRecord.Remarks, 
MetaData, TestRecord.LinkKey, b4d7f4ab-092a-4af3-a02d-ebefd52157ee
Dimension1, 23, 23, 23, 23, 23, 23
Dimension2, 16, 16, 16, 16, 16, 16
DataName, Igate, Vgate, Vdrain, Idrain, Ta, Rds
DataValue, -1.6000000000000001E-06, 20, 0.1067, 0.0555, 25, 1.9225225225225227
DataValue, -1.0000000000000002E-06, 20.000380000000003, 0.2028, 0.10200000000000001, 25, 1.9882352941176471
DataValue, -1.5E-06, 19.999740000000003, 0.32980000000000004, 0.1675, 25, 1.9689552238805972
DataValue, -1.1E-06, 20, 0.4635, 0.2485, 25, 1.8651911468812878
DataValue, -1.1E-06, 20.000300000000003, 0.5903, 0.318, 25, 1.8562893081761007
DataValue, -2.0000000000000002E-07, 19.99988, 0.73620000000000008, 0.3855, 25, 1.9097276264591441
DataValue, -1.9000000000000002E-06, 19.999840000000003, 0.87740000000000007, 0.4495, 25, 1.9519466073414906
DataValue, -8.0000000000000007E-07, 19.99972, 1.0091, 0.5155, 25, 1.9575169738118337
DataValue, -1.4000000000000002E-06, 20.000040000000002, 1.1737, 0.603, 25, 1.9464344941956882
DataValue, -7.0000000000000007E-07, 20.00026, 1.2977, 0.6515, 25, 1.991864927091328
DataValue, -1.2000000000000002E-06, 19.99962, 1.4464000000000001, 0.721, 25, 2.0061026352288489
DataValue, -1.5E-06, 19.99998, 1.5810000000000002, 0.8005, 25, 1.975015615240475
DataValue, -2.2E-06, 20.00016, 1.6851, 0.8415, 25, 2.0024955436720142
DataValue, -3.0000000000000004E-07, 20.000300000000003, 1.7347000000000001, 0.8715, 25, 1.9904761904761905
DataValue, -1.7000000000000002E-06, 20.000140000000002, 1.75, 0.8475, 25, 2.0648967551622417
DataValue, -2.0000000000000002E-07, 20.000400000000003, 1.7575, 0.87950000000000006, 25, 1.9982944855031266
DataValue, -1.8000000000000001E-06, 19.999740000000003, 1.7581, 0.895, 25, 1.9643575418994412
DataValue, -1.6000000000000001E-06, 19.999360000000003, 1.7607000000000002, 0.9, 25, 1.9563333333333335
DataValue, -5.0000000000000008E-07, 20.000580000000003, 1.7616, 0.895, 25, 1.968268156424581
DataValue, -3.0000000000000004E-07, 19.999920000000003, 1.7595, 0.89250000000000007, 25, 1.9714285714285713
DataValue, -5.0000000000000008E-07, 19.9995, 1.7618, 0.89150000000000007, 25, 1.9762198541783509
DataValue, -1.1E-06, 20.00034, 1.7619, 0.89550000000000007, 25, 1.96750418760469
DataValue, -9.0000000000000007E-07, 20, 1.7629000000000001, 0.88, 25, 2.0032954545454547
DataValue, -1.3E-06, 18.999940000000002, 0.0966, 0.0535, 25, 1.8056074766355141
DataValue, -7.0000000000000007E-07, 18.9997, 0.198, 0.101, 25, 1.9603960396039604
DataValue, -1.3E-06, 18.9998, 0.32830000000000004, 0.1495, 25, 2.1959866220735789
DataValue, 0, 19.00028, 0.45830000000000004, 0.2255, 25, 2.0323725055432376
DataValue, -8.0000000000000007E-07, 18.999460000000003, 0.6028, 0.3165, 25, 1.9045813586097946
DataValue, -9.0000000000000007E-07, 18.99934, 0.7304, 0.382, 25, 1.912041884816754
DataValue, -6.0000000000000008E-07, 18.999820000000003, 0.8768, 0.454, 25, 1.9312775330396477
DataValue, -1.3E-06, 18.99972, 1.0235, 0.5265, 25, 1.9439696106362776
DataValue, -1.4000000000000002E-06, 19.00036, 1.1703000000000001, 0.5935, 25, 1.9718618365627634
DataValue, -9.0000000000000007E-07, 18.999920000000003, 1.2981, 0.673, 25, 1.9288261515601783
DataValue, -1.4000000000000002E-06, 19.000300000000003, 1.4451, 0.7305, 25, 1.9782340862422998
DataValue, -3.0000000000000004E-07, 19.000200000000003, 1.5745, 0.777, 25, 2.0263835263835261
DataValue, -4.0000000000000003E-07, 19.000220000000002, 1.6938, 0.843, 25, 2.0092526690391459
DataValue, -3.0000000000000004E-07, 18.999540000000003, 1.7394, 0.88750000000000007, 25, 1.9598873239436618
DataValue, -2.0000000000000002E-07, 19.00034, 1.7507000000000001, 0.875, 25, 2.0008000000000004
DataValue, -4.0000000000000003E-07, 19.00054, 1.7590000000000001, 0.865, 25, 2.0335260115606939
DataValue, 5.0000000000000008E-07, 18.999940000000002, 1.7610000000000001, 0.8745, 25, 2.0137221269296739
DataValue, 0, 18.999940000000002, 1.7616, 0.88750000000000007, 25, 1.9849014084507042
DataValue, -1.0000000000000001E-07, 18.99924, 1.7631000000000001, 0.9015, 25, 1.9557404326123129
DataValue, 7.0000000000000007E-07, 18.999740000000003, 1.7644000000000002, 0.878, 25, 2.0095671981776766
DataValue, -1.0000000000000001E-07, 19.00016, 1.7643, 0.884, 25, 1.9958144796380091
DataValue, -1.8000000000000001E-06, 19.00028, 1.7636, 0.8995, 25, 1.9606448026681491
DataValue, -1.0000000000000001E-07, 19.000120000000003, 1.7650000000000001, 0.88650000000000007, 25, 1.9909757473209251
DataValue, -1.0000000000000001E-07, 18.000320000000002, 0.1042, 0.051000000000000004, 25, 2.0431372549019606
DataValue, -1.0000000000000002E-06, 18.000420000000002, 0.2162, 0.1145, 25, 1.8882096069868994
DataValue, -2.0000000000000002E-07, 18.00028, 0.3282, 0.1485, 25, 2.21010101010101
DataValue, 1.0000000000000001E-07, 17.99982, 0.4701, 0.2205, 25, 2.1319727891156464
DataValue, -1.8000000000000001E-06, 18, 0.59610000000000007, 0.2985, 25, 1.9969849246231159
DataValue, -5.0000000000000008E-07, 18.00008, 0.7416, 0.387, 25, 1.9162790697674419
DataValue, 1.0000000000000002E-06, 17.9996, 0.8708, 0.4295, 25, 2.0274738067520373
DataValue, 2.0000000000000002E-07, 18.00006, 1.0199, 0.5, 25, 2.0398
DataValue, -4.0000000000000003E-07, 17.999760000000002, 1.1643000000000001, 0.5885, 25, 1.9784197111299917
DataValue, -6.0000000000000008E-07, 17.99988, 1.3134000000000001, 0.6775, 25, 1.93859778597786
DataValue, -1.3E-06, 18.000580000000003, 1.4442000000000002, 0.7105, 25, 2.0326530612244897
DataValue, 0, 17.99982, 1.5869, 0.782, 25, 2.0292838874680306
DataValue, 1.0000000000000001E-07, 18.00008, 1.6969, 0.8415, 25, 2.0165181224004756
DataValue, -1.4000000000000002E-06, 17.9995, 1.7413, 0.8735, 25, 1.9934745277618775
DataValue, -3.0000000000000004E-07, 17.99972, 1.7554, 0.8595, 25, 2.0423502036067482
DataValue, -1.7000000000000002E-06, 18.000300000000003, 1.7603, 0.8685, 25, 2.0268278641335633
DataValue, -7.0000000000000007E-07, 17.99912, 1.7621, 0.87950000000000006, 25, 2.0035247299602044
DataValue, -1.0000000000000001E-07, 18, 1.7638, 0.876, 25, 2.013470319634703
DataValue, -1.5E-06, 17.9999, 1.7648000000000002, 0.8575, 25, 2.0580758017492711
DataValue, -4.0000000000000003E-07, 17.99996, 1.7663, 0.8745, 25, 2.01978273299028
DataValue, -1.3E-06, 17.99996, 1.7654, 0.87950000000000006, 25, 2.0072768618533257
DataValue, -1.0000000000000002E-06, 18.00016, 1.7669000000000001, 0.865, 25, 2.0426589595375724
DataValue, -6.0000000000000008E-07, 17.9999, 1.7659, 0.886, 25, 1.9931151241534988
DataValue, -5.0000000000000008E-07, 17.00034, 0.1042, 0.0635, 25, 1.6409448818897638
DataValue, -2.0000000000000002E-07, 17.00034, 0.2043, 0.11800000000000001, 25, 1.7313559322033898
DataValue, -1.0000000000000001E-07, 17.00024, 0.3296, 0.1525, 25, 2.1613114754098359
DataValue, 0, 17.00028, 0.46790000000000004, 0.2255, 25, 2.0749445676274947
DataValue, -9.0000000000000007E-07, 16.99968, 0.6109, 0.292, 25, 2.092123287671233
DataValue, -1.2000000000000002E-06, 16.999740000000003, 0.7416, 0.368, 25, 2.0152173913043478
DataValue, -6.0000000000000008E-07, 17.000200000000003, 0.8818, 0.441, 25, 1.9995464852607709
DataValue, -1.8000000000000001E-06, 16.99988, 1.0315, 0.514, 25, 2.0068093385214008
DataValue, -9.0000000000000007E-07, 16.998980000000003, 1.1631, 0.584, 25, 1.9916095890410961
DataValue, -1.3E-06, 17.00008, 1.308, 0.648, 25, 2.0185185185185186
DataValue, -9.0000000000000007E-07, 17.00066, 1.4554, 0.706, 25, 2.0614730878186971
DataValue, -2.5E-06, 17.000320000000002, 1.5866, 0.7755, 25, 2.045905867182463
DataValue, -2.0000000000000002E-07, 17.00052, 1.7023000000000002, 0.8455, 25, 2.0133648728562981
DataValue, 2.0000000000000002E-07, 17.001, 1.7431, 0.8585, 25, 2.0304018637157832
DataValue, -6.0000000000000008E-07, 17.000320000000002, 1.7570000000000001, 0.8625, 25, 2.0371014492753625
DataValue, 1.0000000000000001E-07, 17.000500000000002, 1.7651000000000001, 0.87950000000000006, 25, 2.0069357589539512
DataValue, -1.6000000000000001E-06, 16.99952, 1.7669000000000001, 0.8515, 25, 2.0750440399295362
DataValue, -1.4000000000000002E-06, 17.00036, 1.7683, 0.846, 25, 2.0901891252955083
DataValue, 6.0000000000000008E-07, 17.00076, 1.7692, 0.867, 25, 2.0405997693194928
DataValue, 0, 16.99982, 1.7698, 0.854, 25, 2.0723653395784543
DataValue, -7.0000000000000007E-07, 16.999920000000003, 1.7699, 0.8425, 25, 2.1007715133531155
DataValue, -1.0000000000000001E-07, 16.9998, 1.7670000000000001, 0.87950000000000006, 25, 2.0090960773166571
DataValue, -8.0000000000000007E-07, 16.9999, 1.7701, 0.8505, 25, 2.08124632569077
DataValue, -6.0000000000000008E-07, 16.00046, 0.093800000000000008, 0.0445, 25, 2.1078651685393259
DataValue, -8.0000000000000007E-07, 15.999920000000001, 0.2039, 0.095, 25, 2.1463157894736842
DataValue, -8.0000000000000007E-07, 15.999900000000002, 0.331, 0.154, 25, 2.1493506493506493
DataValue, -4.0000000000000003E-07, 16.00006, 0.4707, 0.23550000000000002, 25, 1.9987261146496815
DataValue, -1.8000000000000001E-06, 15.9997, 0.5948, 0.301, 25, 1.9760797342192691
DataValue, 3.0000000000000004E-07, 16.000040000000002, 0.7447, 0.354, 25, 2.1036723163841811
DataValue, -1.3E-06, 15.99984, 0.8862, 0.438, 25, 2.0232876712328767
DataValue, -4.0000000000000003E-07, 15.9998, 1.0388, 0.509, 25, 2.0408644400785851
DataValue, -1.2000000000000002E-06, 16.00016, 1.1884000000000001, 0.5785, 25, 2.0542783059636993
DataValue, -5.0000000000000008E-07, 15.9998, 1.3051000000000002, 0.621, 25, 2.1016103059581321
DataValue, -9.0000000000000007E-07, 15.9997, 1.456, 0.6995, 25, 2.0814867762687634
DataValue, -1.0000000000000001E-07, 15.999520000000002, 1.6013000000000002, 0.7795, 25, 2.0542655548428481
DataValue, -7.0000000000000007E-07, 16.000020000000003, 1.7084000000000001, 0.82900000000000007, 25, 2.0607961399276236
DataValue, -6.0000000000000008E-07, 16.00052, 1.7459, 0.83200000000000007, 25, 2.0984374999999997
DataValue, -9.0000000000000007E-07, 16.00008, 1.76, 0.85, 25, 2.0705882352941178
DataValue, -4.0000000000000003E-07, 16.000120000000003, 1.7668000000000002, 0.8675, 25, 2.0366570605187322
DataValue, -1.1E-06, 15.999880000000001, 1.7696, 0.8415, 25, 2.10291146761735
DataValue, 4.0000000000000003E-07, 16.00026, 1.7709000000000001, 0.8545, 25, 2.0724400234055005
DataValue, -4.0000000000000003E-07, 16.000020000000003, 1.7705000000000002, 0.856, 25, 2.0683411214953273
DataValue, -1.6000000000000001E-06, 16.000320000000002, 1.7713, 0.8615, 25, 2.0560650029019154
DataValue, -3.0000000000000004E-07, 15.999380000000002, 1.7713, 0.8465, 25, 2.0924985233313644
DataValue, -1.0000000000000001E-07, 15.999900000000002, 1.7713, 0.8615, 25, 2.0560650029019154
DataValue, -1.7000000000000002E-06, 16.000040000000002, 1.772, 0.8375, 25, 2.1158208955223881
DataValue, -8.0000000000000007E-07, 15.000020000000001, 0.1073, 0.052000000000000005, 25, 2.0634615384615382
DataValue, -1.5E-06, 15.00012, 0.2063, 0.10400000000000001, 25, 1.983653846153846
DataValue, -1.0000000000000002E-06, 14.999920000000001, 0.3331, 0.151, 25, 2.2059602649006624
DataValue, 2.0000000000000002E-07, 14.999680000000002, 0.47350000000000003, 0.23700000000000002, 25, 1.9978902953586497
DataValue, 4.0000000000000003E-07, 15.000800000000002, 0.6, 0.274, 25, 2.1897810218978098
DataValue, -1.1E-06, 15.000140000000002, 0.74420000000000008, 0.3585, 25, 2.0758716875871692
DataValue, -9.0000000000000007E-07, 15.000160000000001, 0.8919, 0.444, 25, 2.0087837837837839
DataValue, -8.0000000000000007E-07, 14.999780000000001, 1.0404, 0.50250000000000006, 25, 2.0704477611940297
DataValue, -1.1E-06, 14.999580000000002, 1.1843000000000001, 0.56900000000000006, 25, 2.081370826010545
DataValue, -1.6000000000000001E-06, 14.9998, 1.3143, 0.62950000000000006, 25, 2.0878474980142969
DataValue, -9.0000000000000007E-07, 15.00008, 1.4617, 0.70000000000000007, 25, 2.0881428571428571
DataValue, -3.0000000000000004E-07, 14.999460000000001, 1.6057000000000001, 0.76750000000000007, 25, 2.0921172638436483
DataValue, -3.0000000000000004E-07, 14.999600000000001, 1.7128, 0.81300000000000006, 25, 2.1067650676506764
DataValue, -1.1E-06, 15.000200000000001, 1.7529000000000001, 0.8365, 25, 2.0955170352659893
DataValue, -2.0000000000000002E-07, 14.99966, 1.7649000000000001, 0.8245, 25, 2.1405700424499696
DataValue, -1.3E-06, 14.999780000000001, 1.7710000000000001, 0.845, 25, 2.0958579881656805
DataValue, -7.0000000000000007E-07, 14.99942, 1.7739, 0.811, 25, 2.1872996300863132
DataValue, -9.0000000000000007E-07, 14.99998, 1.7730000000000001, 0.847, 25, 2.0932703659976388
DataValue, -8.0000000000000007E-07, 14.999780000000001, 1.774, 0.8235, 25, 2.1542197935640557
DataValue, -1.1E-06, 14.99998, 1.7747000000000002, 0.8565, 25, 2.072037361354349
DataValue, -7.0000000000000007E-07, 14.999620000000002, 1.7756, 0.839, 25, 2.1163289630512518
DataValue, -2.0000000000000003E-06, 15.000380000000002, 1.7738, 0.834, 25, 2.1268585131894486
DataValue, -8.0000000000000007E-07, 15.00008, 1.7750000000000001, 0.82500000000000007, 25, 2.1515151515151514
DataValue, -1.2000000000000002E-06, 14.000720000000001, 0.1082, 0.0675, 25, 1.6029629629629629
DataValue, -1.5E-06, 13.999820000000002, 0.20800000000000002, 0.071500000000000008, 25, 2.9090909090909092
DataValue, -2.0000000000000002E-07, 13.999540000000001, 0.3367, 0.157, 25, 2.1445859872611464
DataValue, -3.0000000000000004E-07, 13.999880000000001, 0.4627, 0.2125, 25, 2.1774117647058824
DataValue, 1.0000000000000001E-07, 13.999360000000001, 0.62230000000000008, 0.28300000000000003, 25, 2.1989399293286218
DataValue, -1.0000000000000002E-06, 14.00022, 0.7496, 0.3755, 25, 1.9962716378162451
DataValue, -1.5E-06, 13.999080000000001, 0.89840000000000009, 0.436, 25, 2.0605504587155967
DataValue, -2.0000000000000002E-07, 14.000100000000002, 1.0428, 0.4825, 25, 2.1612435233160623
DataValue, -1.6000000000000001E-06, 14.000160000000001, 1.1931, 0.5425, 25, 2.1992626728110602
DataValue, -2.8000000000000003E-06, 14.0005, 1.3208, 0.6135, 25, 2.1528932355338219
DataValue, -1.6000000000000001E-06, 13.999620000000002, 1.4738, 0.6905, 25, 2.1343953656770456
DataValue, -2.3E-06, 13.9997, 1.6151, 0.7405, 25, 2.1810938555030384
DataValue, -9.0000000000000007E-07, 13.999960000000002, 1.7133, 0.799, 25, 2.1443053817271589
DataValue, -3.0000000000000004E-07, 13.999920000000001, 1.7574, 0.82100000000000006, 25, 2.1405602923264313
DataValue, -5.0000000000000008E-07, 13.99896, 1.7693, 0.8215, 25, 2.1537431527693247
DataValue, -3.0000000000000004E-07, 14.000380000000002, 1.7733, 0.8185, 25, 2.1665241295051927
DataValue, -6.0000000000000008E-07, 14.000020000000001, 1.7777, 0.8365, 25, 2.1251643753735805
DataValue, 4.0000000000000003E-07, 14.000620000000001, 1.7783, 0.82200000000000006, 25, 2.1633819951338196
DataValue, 0, 14.000100000000002, 1.7790000000000001, 0.836, 25, 2.1279904306220097
DataValue, -2.1000000000000002E-06, 14.000020000000001, 1.7791000000000001, 0.812, 25, 2.1910098522167489
DataValue, 3.0000000000000004E-07, 14.000020000000001, 1.7802, 0.8255, 25, 2.1565112053301028
DataValue, -1.4000000000000002E-06, 13.99956, 1.7805000000000002, 0.8265, 25, 2.1542649727767698
DataValue, -1.0000000000000002E-06, 13.999880000000001, 1.7811000000000001, 0.795, 25, 2.2403773584905662
DataValue, -1.3E-06, 12.99966, 0.1038, 0.058, 25, 1.789655172413793
DataValue, -4.0000000000000003E-07, 13.00008, 0.2165, 0.10200000000000001, 25, 2.1225490196078431
DataValue, -1.3E-06, 12.999360000000001, 0.3437, 0.14150000000000002, 25, 2.4289752650176677
DataValue, -5.0000000000000008E-07, 13.00026, 0.4702, 0.224, 25, 2.0991071428571431
DataValue, -4.0000000000000003E-07, 12.99984, 0.6158, 0.28300000000000003, 25, 2.175971731448763
DataValue, -1.7000000000000002E-06, 12.999920000000001, 0.75330000000000008, 0.34650000000000003, 25, 2.174025974025974
DataValue, -3.2000000000000003E-06, 12.999400000000001, 0.9028, 0.4235, 25, 2.1317591499409683
DataValue, -2.3E-06, 12.999740000000001, 1.054, 0.499, 25, 2.1122244488977957
DataValue, -8.0000000000000007E-07, 13.000060000000001, 1.1929, 0.524, 25, 2.2765267175572519
DataValue, -8.0000000000000007E-07, 12.999960000000002, 1.3387, 0.6225, 25, 2.1505220883534135
DataValue, -1.2000000000000002E-06, 13.000800000000002, 1.4762000000000002, 0.6635, 25, 2.2248681235870387
DataValue, -1.4000000000000002E-06, 13.00004, 1.6184, 0.745, 25, 2.1723489932885909
DataValue, -1.2000000000000002E-06, 12.99998, 1.7234, 0.7705, 25, 2.236729396495782
DataValue, 1.0000000000000001E-07, 12.999200000000002, 1.7636, 0.7935, 25, 2.2225582860743542
DataValue, -1.1E-06, 12.999440000000002, 1.7754, 0.81600000000000006, 25, 2.1757352941176471
DataValue, 5.0000000000000008E-07, 13.00054, 1.78, 0.7935, 25, 2.2432262129804665
DataValue, 4.0000000000000003E-07, 13.00022, 1.7832000000000001, 0.7985, 25, 2.2331872260488419
DataValue, -8.0000000000000007E-07, 13.00032, 1.7854, 0.7975, 25, 2.2387460815047024
DataValue, -7.0000000000000007E-07, 12.99994, 1.7846000000000002, 0.788, 25, 2.2647208121827411
DataValue, -1.3E-06, 12.999960000000002, 1.7826000000000002, 0.7885, 25, 2.2607482561826253
DataValue, -3.0000000000000004E-07, 13.000060000000001, 1.7847000000000002, 0.8005, 25, 2.22948157401624
DataValue, -4.0000000000000003E-07, 13.000100000000002, 1.7843, 0.8045, 25, 2.2178993163455565
DataValue, -1.0000000000000001E-07, 13.000280000000002, 1.7858, 0.8195, 25, 2.1791336180597924
DataValue, -5.0000000000000008E-07, 11.999880000000001, 0.10060000000000001, 0.036000000000000004, 25, 2.7944444444444443
DataValue, -2.0000000000000002E-07, 12.00078, 0.21330000000000002, 0.10200000000000001, 25, 2.0911764705882354
DataValue, -9.0000000000000007E-07, 11.999960000000002, 0.3448, 0.14150000000000002, 25, 2.4367491166077735
DataValue, -9.0000000000000007E-07, 11.99976, 0.46990000000000004, 0.20700000000000002, 25, 2.270048309178744
DataValue, -1.3E-06, 12.000300000000001, 0.6178, 0.2585, 25, 2.3899419729206963
DataValue, -1.3E-06, 12.000000000000002, 0.759, 0.35000000000000003, 25, 2.1685714285714286
DataValue, -1.3E-06, 11.9997, 0.90770000000000006, 0.3995, 25, 2.2720901126408011
DataValue, 1.0000000000000001E-07, 12.00054, 1.0624, 0.4855, 25, 2.1882595262615863
DataValue, -4.0000000000000003E-07, 11.99966, 1.1977, 0.523, 25, 2.290057361376673
DataValue, -1.4000000000000002E-06, 11.99942, 1.3428, 0.5985, 25, 2.2436090225563907
DataValue, -1.0000000000000001E-07, 12.000100000000002, 1.5005000000000002, 0.649, 25, 2.3120184899845917
DataValue, -6.0000000000000008E-07, 11.999720000000002, 1.6448, 0.736, 25, 2.2347826086956522
DataValue, -1.1E-06, 12.000240000000002, 1.7414, 0.747, 25, 2.3311914323962517
DataValue, -6.0000000000000008E-07, 12.00078, 1.7703, 0.779, 25, 2.2725288831835684
DataValue, -1.1E-06, 12.00012, 1.7828000000000002, 0.7695, 25, 2.3168291098115663
DataValue, -1.4000000000000002E-06, 12.000140000000002, 1.7876, 0.777, 25, 2.3006435006435009
DataValue, -2.0000000000000002E-07, 12.000060000000001, 1.7883, 0.75150000000000006, 25, 2.3796407185628743
DataValue, -4.0000000000000003E-07, 12.00004, 1.7891000000000001, 0.7945, 25, 2.2518565135305226
