
SetupTitle, ID-VGS
PrimitiveTest, Multi Channel I/V Sweep
TestParameter, Channel.UnitType, SMU, SMU
TestParameter, Channel.Unit, SMU2:MC, SMU3:UHC500
TestParameter, Channel.IName, IG, ID
TestParameter, Channel.VName, VGS, VDS
TestParameter, Channel.Mode, VPULSE, VPULSE
TestParameter, Channel.Func, VAR1, CONST
TestParameter, Channel.Index, 
TestParameter, Channel.Time, 
TestParameter, Measurement.Port.Unit, SMU2:MC, SMU3:UHC500
TestParameter, Measurement.Port.SeriesResistor, NONE, NONE
TestParameter, Measurement.Port.Filter, OFF, OFF
TestParameter, Measurement.Port.OutputVoltageComparison, 0, 0
TestParameter, Measurement.Primary.Start, 0
TestParameter, Measurement.Primary.Stop, 10
TestParameter, Measurement.Primary.Compliance, 0.099999999999999992
TestParameter, Measurement.Primary.PowerCompliance, 0
TestParameter, Measurement.Primary.Locus, Single
TestParameter, Measurement.Primary.Scale, LINEAR
TestParameter, Measurement.Primary.Count, 2001
TestParameter, Measurement.Aborting.Condition, CONTINUE AT ANY
TestParameter, Measurement.PostOutput.Value, START
TestParameter, Measurement.PostOutput.Retention, OFF
TestParameter, Measurement.Bias.Source, 0, 3
TestParameter, Measurement.Bias.Compliance, 0.099999999999999992, 5
TestParameter, Measurement.Pulse.Delay, 0, 9.9999999999999991E-05
TestParameter, Measurement.Pulse.Duration, 0.001, 4.9999999999999996E-05
TestParameter, Measurement.Pulse.Base, 0, 0
TestParameter, Measurement.Pulse.Period, 0
TestParameter, Measurement.Pulse.MeasurementDelay, 0
TestParameter, Measurement.Pulse.AveragingCount, 1
TestParameter, Measurement.Monitor.Unit, SMU2:MC, SMU3:UHC500
TestParameter, Measurement.Monitor.Adc, HS ADC, HS ADC
TestParameter, Measurement.Monitor.Measurement, Force and Compliance Sides, Force and Compliance Sides
TestParameter, Measurement.Timing.Hold, 0
TestParameter, Measurement.Timing.Delay, 0
TestParameter, Measurement.Adc.HighSpeed.Mode, TIME
TestParameter, Measurement.Adc.HighSpeed.Coeff, 9.9999999999999991E-06
TestParameter, Measurement.Adc.HighResolution.AutoZero, OFF
TestParameter, Measurement.Adc.HighResolution.Mode, AUTO
TestParameter, Measurement.Adc.HighResolution.Coeff, 6
TestParameter, Measurement.WaitTime.Source.Coeff, 1
TestParameter, Measurement.WaitTime.Source.Offset, 0
TestParameter, Measurement.WaitTime.Monitor.Coeff, 1
TestParameter, Measurement.WaitTime.Monitor.Offset, 0
TestParameter, Output.Graph.Enabled, true
TestParameter, Output.Graph.AutoScaling, false
TestParameter, Output.Graph.XAxis.Data, VGS
TestParameter, Output.Graph.XAxis.Scale, Linear
TestParameter, Output.Graph.XAxis.Left, -5.4
TestParameter, Output.Graph.XAxis.Right, 12.6
TestParameter, Output.Graph.XAxis.RunTimeAutoScale, false
TestParameter, Output.Graph.YAxis.Data, ID
TestParameter, Output.Graph.YAxis.Scale, Linear
TestParameter, Output.Graph.YAxis.Bottom, 0
TestParameter, Output.Graph.YAxis.Top, 10
TestParameter, Output.Graph.YAxis.Group, 
TestParameter, Output.Graph.YAxis.RunTimeAutoScale, false
TestParameter, Output.List.Data, VGS, ID
TestParameter, AutoAnalysis.Interpolation, false
TestParameter, AutoAnalysis.Line1.Enabled, false
TestParameter, AutoAnalysis.Line1.Type, 1
TestParameter, AutoAnalysis.Line1.Fix, True
TestParameter, AutoAnalysis.Line1.YAxis, 0
TestParameter, AutoAnalysis.Line1.Point1.Type, 0
TestParameter, AutoAnalysis.Line1.Point1.XY.X, 
TestParameter, AutoAnalysis.Line1.Point1.XY.Y, 
TestParameter, AutoAnalysis.Line1.Point1.Data.Var, 
TestParameter, AutoAnalysis.Line1.Point1.Data.Condition, 
TestParameter, AutoAnalysis.Line1.Point1.Data.Start, false
TestParameter, AutoAnalysis.Line1.Point1.Data.StartVar, 
TestParameter, AutoAnalysis.Line1.Point1.Data.StartCondition, 
TestParameter, AutoAnalysis.Line1.Point2.Type, 0
TestParameter, AutoAnalysis.Line1.Point2.XY.X, 
TestParameter, AutoAnalysis.Line1.Point2.XY.Y, 
TestParameter, AutoAnalysis.Line1.Point2.Data.Var, 
TestParameter, AutoAnalysis.Line1.Point2.Data.Condition, 
TestParameter, AutoAnalysis.Line1.Point2.Data.Start, false
TestParameter, AutoAnalysis.Line1.Point2.Data.StartVar, 
TestParameter, AutoAnalysis.Line1.Point2.Data.StartCondition, 
TestParameter, AutoAnalysis.Line1.GradientExpr, 0
TestParameter, AutoAnalysis.Line2.Enabled, false
TestParameter, AutoAnalysis.Line2.Type, 1
TestParameter, AutoAnalysis.Line2.Fix, True
TestParameter, AutoAnalysis.Line2.YAxis, 0
TestParameter, AutoAnalysis.Line2.Point1.Type, 0
TestParameter, AutoAnalysis.Line2.Point1.XY.X, 
TestParameter, AutoAnalysis.Line2.Point1.XY.Y, 
TestParameter, AutoAnalysis.Line2.Point1.Data.Var, 
TestParameter, AutoAnalysis.Line2.Point1.Data.Condition, 
TestParameter, AutoAnalysis.Line2.Point1.Data.Start, false
TestParameter, AutoAnalysis.Line2.Point1.Data.StartVar, 
TestParameter, AutoAnalysis.Line2.Point1.Data.StartCondition, 
TestParameter, AutoAnalysis.Line2.Point2.Type, 0
TestParameter, AutoAnalysis.Line2.Point2.XY.X, 
TestParameter, AutoAnalysis.Line2.Point2.XY.Y, 
TestParameter, AutoAnalysis.Line2.Point2.Data.Var, 
TestParameter, AutoAnalysis.Line2.Point2.Data.Condition, 
TestParameter, AutoAnalysis.Line2.Point2.Data.Start, false
TestParameter, AutoAnalysis.Line2.Point2.Data.StartVar, 
TestParameter, AutoAnalysis.Line2.Point2.Data.StartCondition, 
TestParameter, AutoAnalysis.Line2.GradientExpr, 0
TestParameter, AutoAnalysis.Marker.Enabled, false
TestParameter, AutoAnalysis.Marker.Data.Var, 
TestParameter, AutoAnalysis.Marker.Data.Condition, 
TestParameter, AutoAnalysis.Marker.Data.Start, false
TestParameter, AutoAnalysis.Marker.Data.StartVar, 
TestParameter, AutoAnalysis.Marker.Data.StartCondition, 
MetaData, TestRecord.EntryPoint, true
MetaData, TestRecord.RecordTime, 04/16/2021 15:11:03
MetaData, TestRecord.TestTarget, 
MetaData, TestRecord.IterationIndex, 1
MetaData, TestRecord.Preservation, true
MetaData, TestRecord.Flag, 
MetaData, TestRecord.Remarks, 
MetaData, TestRecord.LinkKey, 74c96f98-1961-424c-9720-b5cd2a0932fb
Dimension1, 2001, 2001
Dimension2, 1, 1
DataName, VGS, ID
DataValue, -0.00082000000000000009, -0.0185
DataValue, 0.0049200000000000008, -0.0245
DataValue, 0.00978, -0.0415
DataValue, 0.015240000000000002, -0.0115
DataValue, 0.020460000000000002, -0.03
DataValue, 0.02484, -0.043500000000000004
DataValue, 0.03002, -0.0265
DataValue, 0.034420000000000006, -0.023
DataValue, 0.03982, -0.025
DataValue, 0.0446, -0.0090000000000000011
DataValue, 0.05036, -0.0395
DataValue, 0.055080000000000004, -0.0265
DataValue, 0.060480000000000006, -0.028
DataValue, 0.06542, -0.043500000000000004
DataValue, 0.069200000000000012, -0.0235
DataValue, 0.07502, -0.0175
DataValue, 0.08018, -0.046
DataValue, 0.085280000000000009, -0.025
DataValue, 0.089960000000000012, -0.0195
DataValue, 0.095160000000000008, -0.04
DataValue, 0.10034000000000001, -0.0235
DataValue, 0.10490000000000001, -0.0275
DataValue, 0.11008000000000001, -0.039
DataValue, 0.11436, -0.035
DataValue, 0.11944, -0.01
DataValue, 0.12476000000000001, -0.0395
DataValue, 0.12986, -0.028
DataValue, 0.13482000000000002, -0.0085
DataValue, 0.14044, -0.0415
DataValue, 0.1448, -0.0365
DataValue, 0.1502, -0.019
DataValue, 0.15526, -0.044
DataValue, 0.15962, -0.031
DataValue, 0.16524000000000003, -0.017
DataValue, 0.17056000000000002, -0.0505
DataValue, 0.17504, -0.0345
DataValue, 0.17964000000000002, -0.0205
DataValue, 0.18460000000000001, -0.0345
DataValue, 0.19062, -0.015
DataValue, 0.19562000000000002, -0.02
DataValue, 0.19960000000000003, -0.029500000000000002
DataValue, 0.20506000000000002, -0.0425
DataValue, 0.21030000000000002, -0.0185
DataValue, 0.21498, -0.027
DataValue, 0.21960000000000002, -0.0325
DataValue, 0.22536, -0.028
DataValue, 0.22994, -0.022
DataValue, 0.23410000000000003, -0.0445
DataValue, 0.24038, -0.025
DataValue, 0.24466000000000002, -0.0365
DataValue, 0.25056, -0.042
DataValue, 0.2549, -0.0235
DataValue, 0.2601, -0.015
DataValue, 0.26480000000000004, -0.041
DataValue, 0.27036000000000004, -0.0415
DataValue, 0.27536000000000005, -0.025
DataValue, 0.27990000000000004, -0.025
DataValue, 0.28478000000000003, -0.051500000000000004
DataValue, 0.29016000000000003, -0.034
DataValue, 0.29598, -0.0115
DataValue, 0.29932000000000003, -0.044
DataValue, 0.3047, -0.019
DataValue, 0.30974, -0.0185
DataValue, 0.3144, -0.035500000000000004
DataValue, 0.31988000000000005, -0.048
DataValue, 0.3256, -0.011
DataValue, 0.32992000000000005, -0.038
DataValue, 0.33474000000000004, -0.036000000000000004
DataValue, 0.33942000000000006, -0.0205
DataValue, 0.34572, -0.0245
DataValue, 0.34936, -0.0275
DataValue, 0.35556000000000004, -0.0265
DataValue, 0.35928000000000004, -0.023
DataValue, 0.3648, -0.043000000000000003
DataValue, 0.36958, -0.039
DataValue, 0.37548000000000004, -0.0155
DataValue, 0.38042000000000004, -0.025500000000000002
DataValue, 0.38476000000000005, -0.0375
DataValue, 0.3899, -0.008
DataValue, 0.39536000000000004, -0.02
DataValue, 0.4006, -0.0415
DataValue, 0.40486000000000005, -0.005
DataValue, 0.40924000000000005, -0.021500000000000002
DataValue, 0.41418000000000005, -0.037
DataValue, 0.41950000000000004, -0.024
DataValue, 0.42498, -0.006
DataValue, 0.42998000000000003, -0.0465
DataValue, 0.43522000000000005, -0.0345
DataValue, 0.43976000000000004, -0.017
DataValue, 0.44530000000000003, -0.038
DataValue, 0.44988000000000006, -0.0495
DataValue, 0.45512, -0.034
DataValue, 0.46066, -0.0315
DataValue, 0.46496000000000004, -0.025
DataValue, 0.47026, -0.0345
DataValue, 0.47516, -0.015
DataValue, 0.48030000000000006, -0.0485
DataValue, 0.48504, -0.0465
DataValue, 0.48938000000000004, -0.0205
DataValue, 0.49460000000000004, -0.0165
DataValue, 0.49976000000000004, -0.056
DataValue, 0.50508000000000008, -0.031
DataValue, 0.51036, -0.0235
DataValue, 0.51452000000000009, -0.029500000000000002
DataValue, 0.52, -0.0445
DataValue, 0.52508, -0.03
DataValue, 0.52906000000000009, 0
DataValue, 0.53478, -0.0305
DataValue, 0.54, -0.046
DataValue, 0.54458000000000006, -0.0105
DataValue, 0.54966, -0.0195
DataValue, 0.5549400000000001, -0.032
DataValue, 0.56026000000000009, -0.0315
DataValue, 0.56558000000000008, -0.0115
DataValue, 0.57018, -0.0285
DataValue, 0.5744, -0.037
DataValue, 0.58064, -0.015
DataValue, 0.58486, -0.02
DataValue, 0.59012000000000009, -0.045
DataValue, 0.59464000000000006, -0.0245
DataValue, 0.60088000000000008, -0.017
DataValue, 0.60528, -0.046
DataValue, 0.61036, -0.034
DataValue, 0.61468, -0.0075
DataValue, 0.62046, -0.0165
DataValue, 0.6245400000000001, -0.043000000000000003
DataValue, 0.63018000000000007, -0.012
DataValue, 0.63506000000000007, -0.0245
DataValue, 0.64008000000000009, -0.029500000000000002
DataValue, 0.64538000000000006, -0.0305
DataValue, 0.64988, -0.016
DataValue, 0.65532, -0.029
DataValue, 0.65982000000000007, -0.026000000000000002
DataValue, 0.66456, -0.025
DataValue, 0.66996, -0.025500000000000002
DataValue, 0.67532, -0.041
DataValue, 0.67984000000000011, -0.011
DataValue, 0.68488, -0.029500000000000002
DataValue, 0.6898200000000001, -0.043000000000000003
DataValue, 0.69480000000000008, -0.028
DataValue, 0.69980000000000009, -0.0315
DataValue, 0.70486, -0.05
DataValue, 0.70956000000000008, -0.0205
DataValue, 0.71516, -0.016
DataValue, 0.72016, -0.032
DataValue, 0.7245, -0.0285
DataValue, 0.72964000000000007, -0.025
DataValue, 0.73476000000000008, -0.042
DataValue, 0.74016, -0.0405
DataValue, 0.74528, -0.013000000000000001
DataValue, 0.75034, -0.025
DataValue, 0.75526, -0.034
DataValue, 0.76036, -0.0165
DataValue, 0.76496000000000008, -0.022
DataValue, 0.7703000000000001, -0.04
DataValue, 0.77496000000000009, -0.026000000000000002
DataValue, 0.78002, -0.012
DataValue, 0.78482000000000007, -0.0445
DataValue, 0.78980000000000006, -0.0285
DataValue, 0.79508000000000012, -0.017
DataValue, 0.80022, -0.037
DataValue, 0.80546000000000006, -0.032
DataValue, 0.81006000000000011, -0.0045000000000000005
DataValue, 0.81570000000000009, -0.036000000000000004
DataValue, 0.81944000000000006, -0.036000000000000004
DataValue, 0.82494000000000012, -0.0145
DataValue, 0.82982000000000011, -0.0285
DataValue, 0.83542, -0.0335
DataValue, 0.84076000000000006, -0.0315
DataValue, 0.8450200000000001, -0.0145
DataValue, 0.85008000000000006, -0.0365
DataValue, 0.85548, -0.029500000000000002
DataValue, 0.85994, -0.008
DataValue, 0.8647800000000001, -0.0225
DataValue, 0.86962000000000006, -0.0365
DataValue, 0.87476000000000009, -0.0085
DataValue, 0.88034000000000012, -0.0165
DataValue, 0.88578000000000012, -0.0365
DataValue, 0.88940000000000008, -0.033
DataValue, 0.8953000000000001, -0.0185
DataValue, 0.89984000000000008, -0.0395
DataValue, 0.90546, -0.034
DataValue, 0.90992000000000006, -0.017
DataValue, 0.91520000000000012, -0.0395
DataValue, 0.91992000000000007, -0.04
DataValue, 0.92512, -0.028
DataValue, 0.92974000000000012, -0.036000000000000004
DataValue, 0.93468000000000007, -0.036000000000000004
DataValue, 0.94022000000000006, -0.029
DataValue, 0.9450400000000001, -0.022
DataValue, 0.94932, -0.032
DataValue, 0.95538000000000012, -0.021500000000000002
DataValue, 0.9598000000000001, -0.021
DataValue, 0.96510000000000007, -0.043500000000000004
DataValue, 0.97042000000000006, -0.022
DataValue, 0.97474, -0.031
DataValue, 0.97992000000000012, -0.04
DataValue, 0.98482, -0.026000000000000002
DataValue, 0.9897800000000001, -0.015
DataValue, 0.9946, -0.0285
DataValue, 0.99972, -0.0415
DataValue, 1.0051400000000001, -0.0185
DataValue, 1.01042, -0.029
DataValue, 1.01516, -0.045
DataValue, 1.0194, -0.0185
DataValue, 1.0244600000000002, -0.0205
DataValue, 1.0299, -0.043500000000000004
DataValue, 1.03546, -0.035
DataValue, 1.0401600000000002, -0.015
DataValue, 1.0447000000000002, -0.034
DataValue, 1.05, -0.041
DataValue, 1.05546, -0.0175
DataValue, 1.06048, -0.046
DataValue, 1.0657, -0.0225
DataValue, 1.06982, -0.025
DataValue, 1.07492, -0.042
DataValue, 1.08044, -0.0275
DataValue, 1.08502, -0.0275
DataValue, 1.09054, -0.035500000000000004
DataValue, 1.09556, -0.0405
DataValue, 1.1002200000000002, -0.022
DataValue, 1.10538, -0.0225
DataValue, 1.11056, -0.0315
DataValue, 1.1148, -0.012
DataValue, 1.1198400000000002, -0.037
DataValue, 1.12474, -0.0245
DataValue, 1.1301800000000002, -0.0175
DataValue, 1.1355600000000001, -0.0325
DataValue, 1.13986, -0.03
DataValue, 1.14534, -0.0090000000000000011
DataValue, 1.14934, -0.032
DataValue, 1.15504, -0.0425
DataValue, 1.1604, -0.025
DataValue, 1.1651600000000002, -0.031
DataValue, 1.1698000000000002, -0.0365
DataValue, 1.17466, -0.01
DataValue, 1.1802000000000001, -0.03
DataValue, 1.18428, -0.0425
DataValue, 1.1903000000000001, -0.027
DataValue, 1.19452, -0.024
DataValue, 1.20042, -0.0305
DataValue, 1.2050400000000001, -0.0345
DataValue, 1.21004, -0.02
DataValue, 1.21516, -0.0315
DataValue, 1.21994, -0.0225
DataValue, 1.22524, -0.0055
DataValue, 1.2298200000000001, -0.029
DataValue, 1.23458, -0.017
DataValue, 1.24062, -0.0205
DataValue, 1.2455800000000001, -0.0275
DataValue, 1.24998, -0.0455
DataValue, 1.25488, -0.022
DataValue, 1.26018, -0.03
DataValue, 1.26476, -0.0345
DataValue, 1.2694, -0.0175
DataValue, 1.2748400000000002, -0.017
DataValue, 1.2797800000000001, -0.031
DataValue, 1.2840600000000002, -0.032
DataValue, 1.2898, -0.013000000000000001
DataValue, 1.29482, -0.036000000000000004
DataValue, 1.2992800000000002, -0.025500000000000002
DataValue, 1.30482, -0.0085
DataValue, 1.3101, -0.042
DataValue, 1.31498, -0.031
DataValue, 1.3202800000000001, -0.029
DataValue, 1.3243, -0.0395
DataValue, 1.3303, -0.0345
DataValue, 1.33502, -0.0195
DataValue, 1.3405600000000002, -0.032
DataValue, 1.34538, -0.0405
DataValue, 1.3495000000000001, -0.028
DataValue, 1.3549000000000002, -0.047
DataValue, 1.3599, -0.0315
DataValue, 1.36494, -0.022
DataValue, 1.3697000000000001, -0.033
DataValue, 1.37566, -0.0385
DataValue, 1.379, -0.0425
DataValue, 1.3856600000000001, -0.02
DataValue, 1.38996, -0.0585
DataValue, 1.3949600000000002, -0.021500000000000002
DataValue, 1.40032, -0.036000000000000004
DataValue, 1.40432, -0.0385
DataValue, 1.4104, -0.0305
DataValue, 1.4150200000000002, -0.007
DataValue, 1.4198600000000001, -0.046
DataValue, 1.4250200000000002, -0.0335
DataValue, 1.42958, -0.0115
DataValue, 1.43504, -0.0375
DataValue, 1.4398000000000002, -0.02
DataValue, 1.44554, -0.017
DataValue, 1.44934, -0.0405
DataValue, 1.4553, -0.037
DataValue, 1.4604000000000001, -0.0195
DataValue, 1.4650400000000001, -0.02
DataValue, 1.4701000000000002, -0.043500000000000004
DataValue, 1.4746400000000002, -0.0285
DataValue, 1.47978, -0.0245
DataValue, 1.4847800000000002, -0.0475
DataValue, 1.4898, -0.029
DataValue, 1.4949400000000002, -0.022
DataValue, 1.4997600000000002, -0.0385
DataValue, 1.50462, -0.0405
DataValue, 1.5092200000000002, -0.019
DataValue, 1.51506, -0.031
DataValue, 1.52024, -0.0425
DataValue, 1.5248800000000002, -0.0245
DataValue, 1.52964, -0.026000000000000002
DataValue, 1.5343000000000002, -0.0485
DataValue, 1.5395, -0.0325
DataValue, 1.5457200000000002, -0.0205
DataValue, 1.54936, -0.0305
DataValue, 1.5547600000000001, -0.029
DataValue, 1.5602, -0.0185
DataValue, 1.5654400000000002, -0.0335
DataValue, 1.5697400000000001, -0.0485
DataValue, 1.57488, -0.006
DataValue, 1.5798, -0.0235
DataValue, 1.5850600000000001, -0.039
DataValue, 1.58952, -0.0265
DataValue, 1.5953000000000002, -0.0195
DataValue, 1.6003, -0.046
DataValue, 1.6053400000000002, -0.026000000000000002
DataValue, 1.6105600000000002, -0.0125
DataValue, 1.61494, -0.029
DataValue, 1.6194000000000002, -0.0305
DataValue, 1.6253600000000001, -0.021500000000000002
DataValue, 1.63074, -0.0235
DataValue, 1.6345, -0.0305
DataValue, 1.6403200000000002, -0.015
DataValue, 1.6451000000000002, -0.0345
DataValue, 1.6502200000000002, -0.036000000000000004
DataValue, 1.655, -0.014
DataValue, 1.6603, -0.02
DataValue, 1.66538, -0.05
DataValue, 1.6700400000000002, -0.015
DataValue, 1.6747200000000002, -0.0235
DataValue, 1.6798400000000002, -0.0475
DataValue, 1.68598, -0.0185
DataValue, 1.6901800000000002, -0.0275
DataValue, 1.6947400000000001, -0.0505
DataValue, 1.7004000000000001, -0.02
DataValue, 1.7053600000000002, -0.025
DataValue, 1.7099600000000002, -0.0425
DataValue, 1.715, -0.022
DataValue, 1.72022, -0.021
DataValue, 1.72412, -0.036000000000000004
DataValue, 1.7301600000000001, -0.022
DataValue, 1.7344600000000001, -0.002
DataValue, 1.7401400000000002, -0.048
DataValue, 1.74544, -0.032
DataValue, 1.7505000000000002, -0.021500000000000002
DataValue, 1.7553200000000002, -0.033
DataValue, 1.7595800000000001, -0.049
DataValue, 1.7649400000000002, -0.0145
DataValue, 1.77028, -0.0235
DataValue, 1.77502, -0.053
DataValue, 1.7800000000000003, -0.0205
DataValue, 1.7847800000000003, -0.039
DataValue, 1.79004, -0.035
DataValue, 1.7950000000000002, -0.006
DataValue, 1.7999, -0.0455
DataValue, 1.8045400000000003, -0.0315
DataValue, 1.8100600000000002, -0.0090000000000000011
DataValue, 1.8153800000000002, -0.034
DataValue, 1.8199, -0.0455
DataValue, 1.82532, -0.026000000000000002
DataValue, 1.8300800000000002, -0.016
DataValue, 1.8341600000000002, -0.048
DataValue, 1.84064, -0.0105
DataValue, 1.84552, -0.0275
DataValue, 1.84918, -0.043000000000000003
DataValue, 1.85546, -0.0195
DataValue, 1.8601400000000001, -0.0285
DataValue, 1.8646200000000002, -0.0305
DataValue, 1.86942, -0.0195
DataValue, 1.8753600000000001, -0.026000000000000002
DataValue, 1.8804600000000002, -0.0305
DataValue, 1.8851200000000001, -0.0175
DataValue, 1.89026, -0.0195
DataValue, 1.89538, -0.042
DataValue, 1.89996, -0.036000000000000004
DataValue, 1.90538, -0.012
DataValue, 1.91026, -0.0315
DataValue, 1.91474, -0.036000000000000004
