
SetupTitle, ID-VGS
PrimitiveTest, Multi Channel I/V Sweep
TestParameter, Channel.UnitType, SMU, SMU
TestParameter, Channel.Unit, SMU2:MC, SMU3:UHC500
TestParameter, Channel.IName, IG, ID
TestParameter, Channel.VName, VGS, VDS
TestParameter, Channel.Mode, VPULSE, VPULSE
TestParameter, Channel.Func, VAR1, CONST
TestParameter, Channel.Index, 
TestParameter, Channel.Time, 
TestParameter, Measurement.Port.Unit, SMU2:MC, SMU3:UHC500
TestParameter, Measurement.Port.SeriesResistor, NONE, NONE
TestParameter, Measurement.Port.Filter, OFF, OFF
TestParameter, Measurement.Port.OutputVoltageComparison, 0, 0
TestParameter, Measurement.Primary.Start, 0
TestParameter, Measurement.Primary.Stop, 10
TestParameter, Measurement.Primary.Compliance, 0.099999999999999992
TestParameter, Measurement.Primary.PowerCompliance, 0
TestParameter, Measurement.Primary.Locus, Single
TestParameter, Measurement.Primary.Scale, LINEAR
TestParameter, Measurement.Primary.Count, 2001
TestParameter, Measurement.Aborting.Condition, CONTINUE AT ANY
TestParameter, Measurement.PostOutput.Value, START
TestParameter, Measurement.PostOutput.Retention, OFF
TestParameter, Measurement.Bias.Source, 0, 3
TestParameter, Measurement.Bias.Compliance, 0.099999999999999992, 5
TestParameter, Measurement.Pulse.Delay, 0, 9.9999999999999991E-05
TestParameter, Measurement.Pulse.Duration, 0.001, 4.9999999999999996E-05
TestParameter, Measurement.Pulse.Base, 0, 0
TestParameter, Measurement.Pulse.Period, 0
TestParameter, Measurement.Pulse.MeasurementDelay, 0
TestParameter, Measurement.Pulse.AveragingCount, 1
TestParameter, Measurement.Monitor.Unit, SMU2:MC, SMU3:UHC500
TestParameter, Measurement.Monitor.Adc, HS ADC, HS ADC
TestParameter, Measurement.Monitor.Measurement, Force and Compliance Sides, Force and Compliance Sides
TestParameter, Measurement.Timing.Hold, 0
TestParameter, Measurement.Timing.Delay, 0
TestParameter, Measurement.Adc.HighSpeed.Mode, TIME
TestParameter, Measurement.Adc.HighSpeed.Coeff, 9.9999999999999991E-06
TestParameter, Measurement.Adc.HighResolution.AutoZero, OFF
TestParameter, Measurement.Adc.HighResolution.Mode, AUTO
TestParameter, Measurement.Adc.HighResolution.Coeff, 6
TestParameter, Measurement.WaitTime.Source.Coeff, 1
TestParameter, Measurement.WaitTime.Source.Offset, 0
TestParameter, Measurement.WaitTime.Monitor.Coeff, 1
TestParameter, Measurement.WaitTime.Monitor.Offset, 0
TestParameter, Output.Graph.Enabled, true
TestParameter, Output.Graph.AutoScaling, false
TestParameter, Output.Graph.XAxis.Data, VGS
TestParameter, Output.Graph.XAxis.Scale, Linear
TestParameter, Output.Graph.XAxis.Left, -5.4
TestParameter, Output.Graph.XAxis.Right, 12.6
TestParameter, Output.Graph.XAxis.RunTimeAutoScale, false
TestParameter, Output.Graph.YAxis.Data, ID
TestParameter, Output.Graph.YAxis.Scale, Linear
TestParameter, Output.Graph.YAxis.Bottom, 0
TestParameter, Output.Graph.YAxis.Top, 10
TestParameter, Output.Graph.YAxis.Group, 
TestParameter, Output.Graph.YAxis.RunTimeAutoScale, false
TestParameter, Output.List.Data, VGS, ID
TestParameter, AutoAnalysis.Interpolation, false
TestParameter, AutoAnalysis.Line1.Enabled, false
TestParameter, AutoAnalysis.Line1.Type, 1
TestParameter, AutoAnalysis.Line1.Fix, True
TestParameter, AutoAnalysis.Line1.YAxis, 0
TestParameter, AutoAnalysis.Line1.Point1.Type, 0
TestParameter, AutoAnalysis.Line1.Point1.XY.X, 
TestParameter, AutoAnalysis.Line1.Point1.XY.Y, 
TestParameter, AutoAnalysis.Line1.Point1.Data.Var, 
TestParameter, AutoAnalysis.Line1.Point1.Data.Condition, 
TestParameter, AutoAnalysis.Line1.Point1.Data.Start, false
TestParameter, AutoAnalysis.Line1.Point1.Data.StartVar, 
TestParameter, AutoAnalysis.Line1.Point1.Data.StartCondition, 
TestParameter, AutoAnalysis.Line1.Point2.Type, 0
TestParameter, AutoAnalysis.Line1.Point2.XY.X, 
TestParameter, AutoAnalysis.Line1.Point2.XY.Y, 
TestParameter, AutoAnalysis.Line1.Point2.Data.Var, 
TestParameter, AutoAnalysis.Line1.Point2.Data.Condition, 
TestParameter, AutoAnalysis.Line1.Point2.Data.Start, false
TestParameter, AutoAnalysis.Line1.Point2.Data.StartVar, 
TestParameter, AutoAnalysis.Line1.Point2.Data.StartCondition, 
TestParameter, AutoAnalysis.Line1.GradientExpr, 0
TestParameter, AutoAnalysis.Line2.Enabled, false
TestParameter, AutoAnalysis.Line2.Type, 1
TestParameter, AutoAnalysis.Line2.Fix, True
TestParameter, AutoAnalysis.Line2.YAxis, 0
TestParameter, AutoAnalysis.Line2.Point1.Type, 0
TestParameter, AutoAnalysis.Line2.Point1.XY.X, 
TestParameter, AutoAnalysis.Line2.Point1.XY.Y, 
TestParameter, AutoAnalysis.Line2.Point1.Data.Var, 
TestParameter, AutoAnalysis.Line2.Point1.Data.Condition, 
TestParameter, AutoAnalysis.Line2.Point1.Data.Start, false
TestParameter, AutoAnalysis.Line2.Point1.Data.StartVar, 
TestParameter, AutoAnalysis.Line2.Point1.Data.StartCondition, 
TestParameter, AutoAnalysis.Line2.Point2.Type, 0
TestParameter, AutoAnalysis.Line2.Point2.XY.X, 
TestParameter, AutoAnalysis.Line2.Point2.XY.Y, 
TestParameter, AutoAnalysis.Line2.Point2.Data.Var, 
TestParameter, AutoAnalysis.Line2.Point2.Data.Condition, 
TestParameter, AutoAnalysis.Line2.Point2.Data.Start, false
TestParameter, AutoAnalysis.Line2.Point2.Data.StartVar, 
TestParameter, AutoAnalysis.Line2.Point2.Data.StartCondition, 
TestParameter, AutoAnalysis.Line2.GradientExpr, 0
TestParameter, AutoAnalysis.Marker.Enabled, false
TestParameter, AutoAnalysis.Marker.Data.Var, 
TestParameter, AutoAnalysis.Marker.Data.Condition, 
TestParameter, AutoAnalysis.Marker.Data.Start, false
TestParameter, AutoAnalysis.Marker.Data.StartVar, 
TestParameter, AutoAnalysis.Marker.Data.StartCondition, 
MetaData, TestRecord.EntryPoint, true
MetaData, TestRecord.RecordTime, 04/17/2021 11:25:15
MetaData, TestRecord.TestTarget, 
MetaData, TestRecord.IterationIndex, 1
MetaData, TestRecord.Preservation, true
MetaData, TestRecord.Flag, 
MetaData, TestRecord.Remarks, 
MetaData, TestRecord.LinkKey, 614fafac-0d06-4db8-a07d-d135a262e108
Dimension1, 2001, 2001
Dimension2, 1, 1
DataName, VGS, ID
DataValue, 0.00024000000000000003, -0.034
DataValue, 0.0051600000000000005, -0.0335
DataValue, 0.01016, -0.0235
DataValue, 0.015200000000000002, -0.0195
DataValue, 0.019760000000000003, -0.0115
DataValue, 0.02466, -0.002
DataValue, 0.030500000000000003, -0.0305
DataValue, 0.034940000000000006, -0.0235
DataValue, 0.040580000000000005, -0.0265
DataValue, 0.044500000000000005, -0.0425
DataValue, 0.050320000000000004, -0.043500000000000004
DataValue, 0.054580000000000004, -0.036000000000000004
DataValue, 0.060160000000000005, -0.025500000000000002
DataValue, 0.064840000000000009, -0.0365
DataValue, 0.06954, -0.024
DataValue, 0.074960000000000013, -0.0225
DataValue, 0.08014, -0.0055
DataValue, 0.084920000000000009, -0.015
DataValue, 0.090220000000000009, -0.033
DataValue, 0.094680000000000014, -0.0365
DataValue, 0.10004, -0.0275
DataValue, 0.10514000000000001, -0.029
DataValue, 0.11008000000000001, -0.0405
DataValue, 0.11482, -0.0265
DataValue, 0.12038000000000002, -0.015
DataValue, 0.12492000000000002, -0.024
DataValue, 0.12990000000000002, -0.014
DataValue, 0.13486, -0.029500000000000002
DataValue, 0.14052, -0.028
DataValue, 0.14450000000000002, -0.045
DataValue, 0.1501, -0.032
DataValue, 0.15498, -0.022
DataValue, 0.15936, -0.0225
DataValue, 0.16602, -0.008
DataValue, 0.17034000000000002, -0.014
DataValue, 0.17470000000000002, -0.0325
DataValue, 0.18068, -0.022
DataValue, 0.18438000000000002, -0.043500000000000004
DataValue, 0.19088000000000002, -0.0315
DataValue, 0.1947, -0.025500000000000002
DataValue, 0.19956000000000002, -0.0225
DataValue, 0.20476000000000003, -0.0135
DataValue, 0.21058000000000002, -0.031
DataValue, 0.21502000000000002, -0.0315
DataValue, 0.21964000000000003, -0.039
DataValue, 0.22512000000000002, -0.0425
DataValue, 0.23024000000000003, -0.051000000000000004
DataValue, 0.23498000000000002, -0.032
DataValue, 0.23994000000000001, -0.033
DataValue, 0.24528000000000003, -0.0135
DataValue, 0.25010000000000004, -0.0375
DataValue, 0.25544, -0.035
DataValue, 0.25972, -0.05
DataValue, 0.26536000000000004, -0.033
DataValue, 0.26990000000000003, -0.032
DataValue, 0.27452000000000004, -0.0235
DataValue, 0.28058, -0.0265
DataValue, 0.28548, -0.0205
DataValue, 0.29002, -0.043500000000000004
DataValue, 0.29526, -0.041
DataValue, 0.29986, -0.036000000000000004
DataValue, 0.30500000000000005, -0.036000000000000004
DataValue, 0.31028, -0.015
DataValue, 0.31518, -0.021500000000000002
DataValue, 0.31994, -0.0395
DataValue, 0.3246, -0.026000000000000002
DataValue, 0.3306, -0.0485
DataValue, 0.33536000000000005, -0.037
DataValue, 0.33974000000000004, -0.0405
DataValue, 0.3452, -0.032
DataValue, 0.3501, -0.019
DataValue, 0.35496000000000005, -0.0225
DataValue, 0.36000000000000004, -0.0305
DataValue, 0.36488000000000004, -0.037
DataValue, 0.37026000000000003, -0.039
DataValue, 0.37522000000000005, -0.0345
DataValue, 0.37986000000000003, -0.022
DataValue, 0.38504000000000005, -0.025
DataValue, 0.39036000000000004, -0.0345
DataValue, 0.39542000000000005, -0.043000000000000003
DataValue, 0.39972, -0.0505
DataValue, 0.40432, -0.045
DataValue, 0.41036000000000006, -0.036000000000000004
DataValue, 0.41522000000000003, -0.0285
DataValue, 0.41962000000000005, -0.022
DataValue, 0.42538000000000004, -0.013000000000000001
DataValue, 0.42956000000000005, -0.0245
DataValue, 0.43556000000000006, -0.0405
DataValue, 0.44026000000000004, -0.0445
DataValue, 0.44518, -0.0425
DataValue, 0.45036000000000004, -0.027
DataValue, 0.45512, -0.017
DataValue, 0.45982000000000006, -0.026000000000000002
DataValue, 0.46556000000000003, -0.0265
DataValue, 0.47042000000000006, -0.037
DataValue, 0.47486000000000006, -0.043500000000000004
DataValue, 0.47998, -0.0385
DataValue, 0.48544000000000004, -0.047
DataValue, 0.49010000000000004, -0.029
DataValue, 0.49390000000000006, -0.027
DataValue, 0.50006000000000006, -0.028
DataValue, 0.50474000000000008, -0.0365
DataValue, 0.51008000000000009, -0.0445
DataValue, 0.51540000000000008, -0.0365
DataValue, 0.5197, -0.032
DataValue, 0.5251, -0.026000000000000002
DataValue, 0.53002, -0.017
DataValue, 0.535, -0.03
DataValue, 0.54002000000000006, -0.0575
DataValue, 0.54508, -0.049
DataValue, 0.55018, -0.0335
DataValue, 0.55478, -0.0275
DataValue, 0.55942, -0.028
DataValue, 0.56536000000000008, -0.016
DataValue, 0.56964, -0.016
DataValue, 0.57516, -0.0225
DataValue, 0.57952, -0.033
DataValue, 0.58432000000000006, -0.03
DataValue, 0.58954000000000006, -0.0485
DataValue, 0.59502, -0.028
DataValue, 0.60056000000000009, -0.031
DataValue, 0.60508000000000006, -0.016
DataValue, 0.61032000000000008, -0.029500000000000002
DataValue, 0.61546, -0.012
DataValue, 0.62006000000000006, -0.037
DataValue, 0.62472, -0.035
DataValue, 0.62988000000000011, -0.0505
DataValue, 0.63516000000000006, -0.047
DataValue, 0.63992, -0.0375
DataValue, 0.6450800000000001, -0.043000000000000003
DataValue, 0.65114, -0.0175
DataValue, 0.65494000000000008, -0.014
DataValue, 0.66034, -0.0065000000000000006
DataValue, 0.6646200000000001, -0.0245
DataValue, 0.67024000000000006, -0.032
DataValue, 0.67470000000000008, -0.05
DataValue, 0.67996, -0.048
DataValue, 0.6851, -0.033
DataValue, 0.69078000000000006, -0.0245
DataValue, 0.69496, -0.0315
DataValue, 0.69932, -0.0275
DataValue, 0.70502000000000009, -0.0415
DataValue, 0.70994, -0.046
DataValue, 0.71486, -0.0405
DataValue, 0.7194, -0.045
DataValue, 0.72548, -0.0195
DataValue, 0.73018, -0.018000000000000002
DataValue, 0.73464000000000007, -0.023
DataValue, 0.7398, -0.0095
DataValue, 0.74484000000000006, -0.045
DataValue, 0.7498, -0.029500000000000002
DataValue, 0.75456, -0.0425
DataValue, 0.75992, -0.0395
DataValue, 0.7648, -0.0335
DataValue, 0.77044, -0.026000000000000002
DataValue, 0.77512, -0.0175
DataValue, 0.7795200000000001, -0.0145
DataValue, 0.78516000000000008, -0.0265
DataValue, 0.78954, -0.0235
DataValue, 0.79532, -0.05
DataValue, 0.79974000000000012, -0.048
DataValue, 0.805, -0.0065000000000000006
DataValue, 0.81022, -0.034
DataValue, 0.81494000000000011, -0.023
DataValue, 0.81950000000000012, -0.023
DataValue, 0.82516000000000012, -0.0315
DataValue, 0.82984, -0.046
DataValue, 0.83478000000000008, -0.0525
DataValue, 0.83942, -0.033
DataValue, 0.8444600000000001, -0.039
DataValue, 0.84926, -0.0385
DataValue, 0.85514000000000012, -0.018000000000000002
DataValue, 0.85986000000000007, -0.0195
DataValue, 0.86512000000000011, -0.026000000000000002
DataValue, 0.86990000000000012, -0.016
DataValue, 0.8751000000000001, -0.017
DataValue, 0.88006000000000006, -0.045
DataValue, 0.88534000000000013, -0.051000000000000004
DataValue, 0.89018000000000008, -0.0335
DataValue, 0.89512, -0.0305
DataValue, 0.8998600000000001, -0.0285
DataValue, 0.90478, -0.0415
DataValue, 0.90930000000000011, -0.031
DataValue, 0.91512, -0.0225
DataValue, 0.92072000000000009, -0.0205
DataValue, 0.9255000000000001, -0.0225
DataValue, 0.9302, -0.028
DataValue, 0.935, -0.0485
DataValue, 0.93990000000000007, -0.049
DataValue, 0.94550000000000012, -0.045
DataValue, 0.95000000000000007, -0.0475
DataValue, 0.95516000000000012, -0.0385
DataValue, 0.95964, -0.043500000000000004
DataValue, 0.96498000000000006, -0.0285
DataValue, 0.97018, -0.04
DataValue, 0.97492000000000012, -0.0185
DataValue, 0.9801200000000001, -0.028
DataValue, 0.98424000000000011, -0.025
DataValue, 0.98980000000000012, -0.0185
DataValue, 0.99490000000000012, -0.041
DataValue, 1.00018, -0.042
DataValue, 1.0046000000000002, -0.043000000000000003
DataValue, 1.01008, -0.0505
DataValue, 1.01464, -0.0445
DataValue, 1.01976, -0.045
DataValue, 1.0247600000000001, -0.0365
DataValue, 1.0293800000000002, -0.0335
DataValue, 1.0343200000000001, -0.0235
DataValue, 1.0401200000000002, -0.0155
DataValue, 1.04492, -0.035
DataValue, 1.0500200000000002, -0.043000000000000003
DataValue, 1.05482, -0.0415
DataValue, 1.0601200000000002, -0.0455
DataValue, 1.0654000000000001, -0.0325
DataValue, 1.0700200000000002, -0.054
DataValue, 1.07424, -0.034
DataValue, 1.0800800000000002, -0.0175
DataValue, 1.08458, -0.003
DataValue, 1.0902200000000002, -0.028
DataValue, 1.09488, -0.019
DataValue, 1.09968, -0.0335
DataValue, 1.1050600000000002, -0.0495
DataValue, 1.1099, -0.0445
DataValue, 1.1159400000000002, -0.044
DataValue, 1.12046, -0.037
DataValue, 1.12488, -0.034
DataValue, 1.1300800000000002, -0.032
DataValue, 1.13544, -0.036000000000000004
DataValue, 1.1404, -0.029500000000000002
DataValue, 1.1451, -0.026000000000000002
DataValue, 1.14934, -0.0395
DataValue, 1.1551200000000002, -0.0485
DataValue, 1.16008, -0.0345
DataValue, 1.1648800000000001, -0.059500000000000004
DataValue, 1.16974, -0.037
DataValue, 1.17568, -0.029500000000000002
DataValue, 1.17938, -0.025
DataValue, 1.1853600000000002, -0.025
DataValue, 1.19022, -0.019
DataValue, 1.1953200000000002, -0.021
DataValue, 1.1998600000000002, -0.029500000000000002
DataValue, 1.20514, -0.025
DataValue, 1.21082, -0.035500000000000004
DataValue, 1.21514, -0.0485
DataValue, 1.22014, -0.051500000000000004
DataValue, 1.2255800000000001, -0.0495
DataValue, 1.2301000000000002, -0.0345
DataValue, 1.2349, -0.033
DataValue, 1.23984, -0.0165
DataValue, 1.24506, -0.0105
DataValue, 1.2492400000000001, -0.0175
DataValue, 1.25468, -0.0095
DataValue, 1.2600200000000001, -0.031
DataValue, 1.2658800000000001, -0.036000000000000004
DataValue, 1.26976, -0.0395
DataValue, 1.2748400000000002, -0.0425
DataValue, 1.2803000000000002, -0.047
DataValue, 1.2842600000000002, -0.03
DataValue, 1.2901, -0.02
DataValue, 1.2957400000000001, -0.028
DataValue, 1.29994, -0.01
DataValue, 1.30508, -0.026000000000000002
DataValue, 1.3099200000000002, -0.0285
DataValue, 1.31516, -0.036000000000000004
DataValue, 1.3204, -0.0415
DataValue, 1.3247200000000001, -0.0455
DataValue, 1.33026, -0.049
DataValue, 1.3354000000000001, -0.027
DataValue, 1.3398, -0.0245
DataValue, 1.34514, -0.0335
DataValue, 1.3497400000000002, -0.027
DataValue, 1.35548, -0.041
DataValue, 1.3605, -0.0335
DataValue, 1.3646200000000002, -0.0335
DataValue, 1.37, -0.042
DataValue, 1.37524, -0.049
DataValue, 1.3799800000000002, -0.042
DataValue, 1.3849200000000002, -0.043500000000000004
DataValue, 1.3902800000000002, -0.045
DataValue, 1.39514, -0.02
DataValue, 1.39996, -0.019
DataValue, 1.4050200000000002, -0.019
DataValue, 1.4105, -0.03
DataValue, 1.4152600000000002, -0.0365
DataValue, 1.41996, -0.053
DataValue, 1.4249, -0.0395
DataValue, 1.43032, -0.036000000000000004
DataValue, 1.4350800000000001, -0.0225
DataValue, 1.4400000000000002, -0.0185
DataValue, 1.4448, -0.008
DataValue, 1.44982, -0.029500000000000002
DataValue, 1.45476, -0.0315
DataValue, 1.46008, -0.038
DataValue, 1.4654600000000002, -0.044
DataValue, 1.46954, -0.0385
DataValue, 1.47462, -0.0265
DataValue, 1.47968, -0.022
DataValue, 1.48486, -0.0175
DataValue, 1.48954, -0.03
DataValue, 1.49506, -0.032
DataValue, 1.4993, -0.0415
DataValue, 1.5052, -0.0405
DataValue, 1.5098600000000002, -0.0335
DataValue, 1.5150400000000002, -0.0185
DataValue, 1.5201600000000002, -0.0145
DataValue, 1.5252400000000002, -0.026000000000000002
DataValue, 1.53058, -0.0235
DataValue, 1.53496, -0.0345
DataValue, 1.5395800000000002, -0.054
DataValue, 1.5449000000000002, -0.0495
DataValue, 1.5495400000000001, -0.029
DataValue, 1.5552800000000002, -0.01
DataValue, 1.5596, -0.0245
DataValue, 1.56478, -0.03
DataValue, 1.5691400000000002, -0.035
DataValue, 1.5749000000000002, -0.04
DataValue, 1.5799800000000002, -0.034
DataValue, 1.5850600000000001, -0.036000000000000004
DataValue, 1.58972, -0.043000000000000003
DataValue, 1.59596, -0.041
DataValue, 1.5997800000000002, -0.02
DataValue, 1.60542, -0.0090000000000000011
DataValue, 1.6097800000000002, -0.035500000000000004
DataValue, 1.61548, -0.0335
DataValue, 1.6202400000000001, -0.0405
DataValue, 1.6254400000000002, -0.0445
DataValue, 1.6301200000000002, -0.036000000000000004
DataValue, 1.6348600000000002, -0.0275
DataValue, 1.6397000000000002, -0.023
DataValue, 1.6445800000000002, -0.019
DataValue, 1.6502800000000002, -0.017
DataValue, 1.65426, -0.0265
DataValue, 1.65972, -0.0105
DataValue, 1.6649200000000002, -0.031
DataValue, 1.67022, -0.046
DataValue, 1.67524, -0.041
DataValue, 1.67998, -0.0485
DataValue, 1.6853200000000002, -0.02
DataValue, 1.69076, -0.025
DataValue, 1.6945800000000002, -0.0105
DataValue, 1.6995600000000002, -0.0195
DataValue, 1.7050200000000002, -0.0385
DataValue, 1.7104400000000002, -0.0325
DataValue, 1.7147400000000002, -0.0315
DataValue, 1.7194200000000002, -0.0315
DataValue, 1.7253200000000002, -0.037
DataValue, 1.73072, -0.0265
DataValue, 1.7352800000000002, -0.028
DataValue, 1.7399000000000002, -0.017
DataValue, 1.74506, -0.014
DataValue, 1.7493600000000003, -0.0205
DataValue, 1.7552, -0.0285
DataValue, 1.7600000000000002, -0.0305
DataValue, 1.76472, -0.035
DataValue, 1.7700200000000002, -0.0385
DataValue, 1.77492, -0.023
DataValue, 1.7801000000000002, -0.031
DataValue, 1.7847800000000003, -0.019
DataValue, 1.78984, -0.016
DataValue, 1.7950000000000002, -0.0035
DataValue, 1.80062, -0.0035
DataValue, 1.8052000000000001, -0.0315
DataValue, 1.8106000000000002, -0.026000000000000002
DataValue, 1.8146000000000002, -0.043500000000000004
DataValue, 1.8202600000000002, -0.0455
DataValue, 1.8258200000000002, -0.035
DataValue, 1.8298400000000001, -0.0395
DataValue, 1.83502, -0.02
DataValue, 1.8399800000000002, -0.032
DataValue, 1.8452800000000003, -0.0155
DataValue, 1.8502200000000002, -0.0175
DataValue, 1.8556000000000001, -0.012
DataValue, 1.8596400000000002, -0.0035
DataValue, 1.8654400000000002, -0.027
DataValue, 1.8697000000000001, -0.019
DataValue, 1.8748200000000002, -0.027
