
SetupTitle, Rds-Id
ApplicationTest, Rds-Id, Public
TestParameter, Name, Memo, Scale, HoldTime, PulseBase, PulseAvgCnt, Gate, VgStart, VgStop, VgStep, IgLimit, Source, MeasurementTime, Drain, IdStart, IdStop, IdLinearStep, VdLimit, VdStop, PulsePeriodMode, ManualPulsePeriod, PulseWidth
TestParameter, Value, , LINEAR, 0, 0, 1, SMU2:MC	MCSMU, 15, 5, 1, 0.1, GNDU:GND	GNDU, 1E-05, SMU3:UHC500	UHCU500A, 0.5, 15, 0.1, 5, 0, 0, 0.05, 0.0002
DutParameter, Name, Polarity, Temp, YAxisRdsMin, YAxisRdsMax
DutParameter, Value, 1, 25, 0.001, 10
MetaData, TestRecord.EntryPoint, true
MetaData, TestRecord.RecordTime, 12/24/2020 10:03:27
MetaData, TestRecord.TestTarget, 
MetaData, TestRecord.IterationIndex, 1
MetaData, TestRecord.Preservation, true
MetaData, TestRecord.Flag, 
MetaData, TestRecord.Remarks, 
MetaData, TestRecord.LinkKey, 108db0bc-550c-4a95-88ee-7ba8339c9991
Dimension1, 146, 146, 146, 146, 146, 146
Dimension2, 11, 11, 11, 11, 11, 11
DataName, Igate, Vgate, Vdrain, Idrain, Ta, Rds
DataValue, -2.2E-06, 15.000020000000001, 0.0096000000000000009, 0.10250000000000001, 25, 0.093658536585365854
DataValue, -2.5E-06, 14.99994, 0.016900000000000002, 0.186, 25, 0.090860215053763446
DataValue, -8.0000000000000007E-07, 14.999720000000002, 0.024200000000000003, 0.2755, 25, 0.08784029038112523
DataValue, -1.2000000000000002E-06, 14.999960000000002, 0.0322, 0.3695, 25, 0.0871447902571042
DataValue, -1.8000000000000001E-06, 15.000440000000001, 0.040600000000000004, 0.47100000000000003, 25, 0.0861995753715499
DataValue, -1.1E-06, 15.000700000000002, 0.049600000000000005, 0.5795, 25, 0.085591026747195861
DataValue, -1.4000000000000002E-06, 14.99998, 0.0575, 0.683, 25, 0.0841874084919473
DataValue, -2.4000000000000003E-06, 15.000320000000002, 0.0682, 0.798, 25, 0.085463659147869672
DataValue, -1.6000000000000001E-06, 14.999760000000002, 0.076800000000000007, 0.9245, 25, 0.083071930773391034
DataValue, -2.3E-06, 15.000040000000002, 0.0863, 1.014, 25, 0.085108481262327423
DataValue, -2.9E-06, 14.999620000000002, 0.0942, 1.116, 25, 0.084408602150537637
DataValue, -2.2E-06, 15.00012, 0.1024, 1.2025000000000001, 25, 0.085155925155925155
DataValue, -3E-06, 15.000000000000002, 0.1106, 1.3045, 25, 0.084783441931774631
DataValue, -1.7000000000000002E-06, 15.000240000000002, 0.1199, 1.4025, 25, 0.085490196078431377
DataValue, -2.8000000000000003E-06, 14.9997, 0.1267, 1.5025, 25, 0.084326123128119809
DataValue, -5.0000000000000008E-07, 15.000180000000002, 0.1328, 1.5945, 25, 0.0832862966447162
DataValue, -5.0000000000000008E-07, 15.00054, 0.1444, 1.7225000000000001, 25, 0.083831640058055143
DataValue, -1.0000000000000002E-06, 14.999740000000001, 0.1524, 1.82, 25, 0.083736263736263736
DataValue, -2.2E-06, 14.999720000000002, 0.16110000000000002, 1.924, 25, 0.083731808731808743
DataValue, -1.9000000000000002E-06, 14.9997, 0.16870000000000002, 2.0060000000000002, 25, 0.084097706879361911
DataValue, -1.3E-06, 15.00008, 0.1767, 2.1075, 25, 0.083843416370106769
DataValue, -1.5E-06, 15.000280000000002, 0.1852, 2.187, 25, 0.084682213077274818
DataValue, -8.0000000000000007E-07, 14.999600000000001, 0.19360000000000002, 2.303, 25, 0.084064264003473749
DataValue, -2.1000000000000002E-06, 15.000140000000002, 0.2011, 2.428, 25, 0.08282537067545305
DataValue, -2.2E-06, 15.000160000000001, 0.21080000000000002, 2.532, 25, 0.083254344391785154
DataValue, -2.3E-06, 14.999440000000002, 0.21830000000000002, 2.617, 25, 0.083416125334352317
DataValue, -1.6000000000000001E-06, 15.000840000000002, 0.22660000000000002, 2.699, 25, 0.083957021118932954
DataValue, -9.0000000000000007E-07, 14.999960000000002, 0.23570000000000002, 2.802, 25, 0.08411848679514633
DataValue, -1.3E-06, 15.00046, 0.2439, 2.927, 25, 0.083327639221045441
DataValue, -2.1000000000000002E-06, 15.000560000000002, 0.2524, 3.0025, 25, 0.084063280599500426
DataValue, -1.0000000000000002E-06, 14.999760000000002, 0.25930000000000003, 3.1005000000000003, 25, 0.0836316723109176
DataValue, -5.0000000000000008E-07, 14.999900000000002, 0.2672, 3.1935000000000002, 25, 0.083669954595271642
DataValue, -1.5E-06, 15.000000000000002, 0.2761, 3.3155, 25, 0.083275524053687225
DataValue, -7.0000000000000007E-07, 14.999720000000002, 0.2846, 3.4205, 25, 0.083204209910831758
DataValue, -1.8000000000000001E-06, 15.000100000000002, 0.2924, 3.5, 25, 0.083542857142857141
DataValue, -2.0000000000000003E-06, 14.99942, 0.301, 3.61, 25, 0.083379501385041549
DataValue, -1.5E-06, 14.99994, 0.3069, 3.709, 25, 0.082744675114586136
DataValue, -5.0000000000000008E-07, 15.000620000000001, 0.3174, 3.79, 25, 0.0837467018469657
DataValue, -1.0000000000000002E-06, 14.999720000000002, 0.3259, 3.8890000000000002, 25, 0.083800462843918747
DataValue, -2.0000000000000003E-06, 14.9998, 0.33240000000000003, 4.0135000000000005, 25, 0.082820480877039984
DataValue, -2.0000000000000003E-06, 14.99998, 0.3411, 4.0685, 25, 0.08383925279587072
DataValue, -1.8000000000000001E-06, 14.999820000000002, 0.34890000000000004, 4.1785, 25, 0.083498863228431267
DataValue, -2.9E-06, 14.99984, 0.35760000000000003, 4.2875000000000005, 25, 0.083405247813411076
DataValue, -1.8000000000000001E-06, 14.999720000000002, 0.364, 4.3655, 25, 0.0833810560073302
DataValue, -2.2E-06, 15.0006, 0.37520000000000003, 4.4775, 25, 0.083796761585706314
DataValue, -1.3E-06, 14.999760000000002, 0.38180000000000003, 4.5875, 25, 0.083226158038147133
DataValue, -1.3E-06, 15.000280000000002, 0.3896, 4.666, 25, 0.083497642520360044
DataValue, -1.5E-06, 14.999780000000001, 0.39730000000000004, 4.7765, 25, 0.083178059248403644
DataValue, -2.2E-06, 14.999480000000002, 0.40700000000000003, 4.856, 25, 0.083813838550247127
DataValue, -3.0000000000000004E-07, 15.000380000000002, 0.41600000000000004, 4.9625, 25, 0.0838287153652393
DataValue, -3.3E-06, 14.999760000000002, 0.4232, 5.0595, 25, 0.083644628915900784
DataValue, -7.0000000000000007E-07, 14.999600000000001, 0.43170000000000003, 5.158, 25, 0.083695230709577351
DataValue, -1.5E-06, 14.999540000000001, 0.44, 5.2455, 25, 0.083881422171385
DataValue, -9.0000000000000007E-07, 15.000480000000001, 0.4479, 5.364, 25, 0.083501118568232668
DataValue, -1.0000000000000002E-06, 15.00012, 0.4559, 5.4545, 25, 0.083582363186359893
DataValue, -2.0000000000000003E-06, 14.998880000000002, 0.46380000000000005, 5.5485, 25, 0.083590159502568276
DataValue, -3.0000000000000004E-07, 15.000140000000002, 0.4741, 5.6465000000000005, 25, 0.083963517223058531
DataValue, -2.0000000000000003E-06, 15.000240000000002, 0.4811, 5.7505, 25, 0.0836622902356317
DataValue, -1.6000000000000001E-06, 15.000200000000001, 0.48710000000000003, 5.8435, 25, 0.0833575767947292
DataValue, -3E-06, 14.999600000000001, 0.4974, 5.923, 25, 0.083977713996285661
DataValue, -1.2000000000000002E-06, 15.000320000000002, 0.5047, 6.038, 25, 0.083587280556475657
DataValue, -1.2000000000000002E-06, 14.999920000000001, 0.5133, 6.1225000000000005, 25, 0.083838301347488764
DataValue, -1.2000000000000002E-06, 15.00008, 0.5219, 6.2465, 25, 0.08355078844152726
DataValue, -1.7000000000000002E-06, 14.999300000000002, 0.5299, 6.3145, 25, 0.08391796658484442
DataValue, -1.0000000000000002E-06, 15.00054, 0.5363, 6.434, 25, 0.083354056574448235
DataValue, -1.7000000000000002E-06, 14.998980000000001, 0.54780000000000006, 6.5085, 25, 0.084166858723208129
DataValue, -1.0000000000000002E-06, 15.00026, 0.55590000000000006, 6.623, 25, 0.083934772761588408
DataValue, -2.8000000000000003E-06, 14.999820000000002, 0.5633, 6.714, 25, 0.08389931486446231
DataValue, -2.2E-06, 14.999740000000001, 0.57190000000000007, 6.806, 25, 0.084028798119306511
DataValue, -1.1E-06, 15.000240000000002, 0.5795, 6.9195, 25, 0.0837488257822097
DataValue, -1.0000000000000002E-06, 15.00026, 0.5878, 6.9845, 25, 0.08415777793686019
DataValue, -2.2E-06, 14.99942, 0.5978, 7.1135, 25, 0.084037393688057918
DataValue, -1.1E-06, 14.999760000000002, 0.60320000000000007, 7.1875, 25, 0.083923478260869572
DataValue, -2.1000000000000002E-06, 15.000060000000001, 0.61320000000000008, 7.28, 25, 0.084230769230769234
DataValue, -2.4000000000000003E-06, 14.999360000000001, 0.6209, 7.3950000000000005, 25, 0.083962136578769428
DataValue, -1.9000000000000002E-06, 14.999260000000001, 0.6282, 7.4615, 25, 0.084192186557662668
DataValue, 6.0000000000000008E-07, 15.000580000000001, 0.63750000000000007, 7.5765, 25, 0.084141754108097419
DataValue, -1.6000000000000001E-06, 15.000300000000001, 0.6449, 7.6905, 25, 0.083856706325986616
DataValue, -2.2E-06, 14.99994, 0.6543, 7.7695, 25, 0.084213913379239336
DataValue, -1.4000000000000002E-06, 14.99924, 0.6621, 7.8555, 25, 0.084284895932785944
DataValue, -2.3E-06, 14.999760000000002, 0.6715, 7.977, 25, 0.08417951610881283
DataValue, -1.2000000000000002E-06, 14.999580000000002, 0.67980000000000007, 8.0645, 25, 0.084295368590737177
DataValue, -1.6000000000000001E-06, 15.000140000000002, 0.6895, 8.144, 25, 0.084663555992141454
DataValue, -3.2000000000000003E-06, 14.99952, 0.69580000000000009, 8.246, 25, 0.084380305602716477
DataValue, -2.7000000000000004E-06, 14.99928, 0.7038, 8.3605, 25, 0.08418156808803301
DataValue, -1.5E-06, 14.999100000000002, 0.7144, 8.4505, 25, 0.08453937636826224
DataValue, -1.7000000000000002E-06, 15.00036, 0.72010000000000007, 8.536, 25, 0.084360356138706669
DataValue, -1.0000000000000002E-06, 15.00036, 0.7305, 8.656, 25, 0.08439232902033271
DataValue, -5.0000000000000008E-07, 14.9997, 0.7374, 8.754, 25, 0.084235777930089115
DataValue, -1.7000000000000002E-06, 14.999500000000001, 0.7449, 8.811, 25, 0.08454204971058904
DataValue, -1.9000000000000002E-06, 15.000200000000001, 0.7551, 8.939, 25, 0.084472536077861052
DataValue, -1.3E-06, 15.000060000000001, 0.7616, 9.0175, 25, 0.0844579983365678
DataValue, -1.3E-06, 14.999880000000001, 0.7687, 9.105500000000001, 25, 0.084421503486903512
DataValue, -1.7000000000000002E-06, 14.999880000000001, 0.77770000000000006, 9.194, 25, 0.084587774635631927
DataValue, -2.3E-06, 14.99984, 0.7862, 9.293000000000001, 25, 0.084601312816098131
DataValue, -1.7000000000000002E-06, 15.00022, 0.79360000000000008, 9.4075, 25, 0.084358224820621844
DataValue, -1.9000000000000002E-06, 14.999960000000002, 0.80390000000000006, 9.4935000000000009, 25, 0.084678990888502656
DataValue, -1.2000000000000002E-06, 15.00036, 0.81290000000000007, 9.586, 25, 0.08480075109534739
DataValue, -2.4000000000000003E-06, 14.999780000000001, 0.8202, 9.6905, 25, 0.0846395954801094
DataValue, -2.1000000000000002E-06, 15.00026, 0.8292, 9.7785000000000011, 25, 0.0847982819450836
DataValue, -2.4000000000000003E-06, 14.99966, 0.8367, 9.8935, 25, 0.084570677717693443
DataValue, -7.0000000000000007E-07, 14.99994, 0.8447, 9.9855, 25, 0.0845926593560663
DataValue, -1.0000000000000002E-06, 15.00054, 0.8536, 10.0755, 25, 0.084720361272393435
DataValue, -1.0000000000000002E-06, 14.999680000000002, 0.8627, 10.163, 25, 0.084886352454983771
DataValue, -6.0000000000000008E-07, 15.000100000000002, 0.8721, 10.283, 25, 0.084809880385101621
DataValue, -1.4000000000000002E-06, 15.0006, 0.87930000000000008, 10.378, 25, 0.084727307766428991
DataValue, -1.4000000000000002E-06, 14.999960000000002, 0.8877, 10.46, 25, 0.084866156787762909
DataValue, -2.2E-06, 14.99942, 0.8979, 10.5635, 25, 0.085000236663984485
DataValue, -1.9000000000000002E-06, 15.000140000000002, 0.90370000000000006, 10.6515, 25, 0.084842510444538333
DataValue, -9.0000000000000007E-07, 14.999480000000002, 0.91350000000000009, 10.744, 25, 0.085024199553239033
DataValue, -7.0000000000000007E-07, 15.000160000000001, 0.9215000000000001, 10.8625, 25, 0.0848331415420023
DataValue, -6.0000000000000008E-07, 15.000300000000001, 0.9295, 10.964, 25, 0.084777453484129878
DataValue, -1.8000000000000001E-06, 15.000420000000002, 0.9393, 11.028, 25, 0.085174102285092493
DataValue, -1.9000000000000002E-06, 14.99956, 0.9466, 11.1285, 25, 0.085060879723233132
DataValue, -7.0000000000000007E-07, 15.000020000000001, 0.9562, 11.243, 25, 0.085048474606421773
DataValue, -2.6E-06, 14.999640000000001, 0.96290000000000009, 11.307, 25, 0.085159635623949764
DataValue, -2.1000000000000002E-06, 14.999740000000001, 0.9717, 11.4, 25, 0.085236842105263153
DataValue, -2.5E-06, 14.999960000000002, 0.98030000000000006, 11.518, 25, 0.085110262198298314
DataValue, -1.8000000000000001E-06, 15.00036, 0.98830000000000007, 11.6095, 25, 0.085128558508118346
DataValue, -2.3E-06, 15.000060000000001, 0.9949, 11.685500000000001, 25, 0.085139703050789439
DataValue, -9.0000000000000007E-07, 15.000140000000002, 1.0051, 11.8115, 25, 0.085095034500275155
DataValue, -3.0000000000000004E-07, 15.000420000000002, 1.0139, 11.891, 25, 0.085266167689849473
DataValue, -1.7000000000000002E-06, 15.000520000000002, 1.0224, 11.974, 25, 0.0853850008351428
DataValue, -2.1000000000000002E-06, 14.999460000000001, 1.0304, 12.097, 25, 0.0851781433413243
DataValue, -1.4000000000000002E-06, 15.000160000000001, 1.0397, 12.184000000000001, 25, 0.085333223900196972
DataValue, -2.0000000000000003E-06, 14.99994, 1.0482, 12.275500000000001, 25, 0.085389597165084916
DataValue, -3.0000000000000004E-07, 14.999860000000002, 1.0568, 12.3775, 25, 0.085380731165421123
DataValue, -1.0000000000000002E-06, 15.000200000000001, 1.0643, 12.4865, 25, 0.085236054939334491
DataValue, -1.3E-06, 14.999720000000002, 1.0727, 12.576500000000001, 25, 0.085294000715620391
DataValue, -1.7000000000000002E-06, 15.000040000000002, 1.0823, 12.641, 25, 0.085618226406138753
DataValue, -3.2000000000000003E-06, 14.999540000000001, 1.0903, 12.7495, 25, 0.08551707910114123
DataValue, -1.4000000000000002E-06, 15.00008, 1.1002, 12.838000000000001, 25, 0.085698706963701507
DataValue, -2.6E-06, 15.000040000000002, 1.1075000000000002, 12.945, 25, 0.085554268057164942
DataValue, -1.3E-06, 14.999960000000002, 1.1167, 13.053, 25, 0.08555121428024208
DataValue, -2.1000000000000002E-06, 14.999580000000002, 1.1255, 13.134500000000001, 25, 0.085690357455555963
DataValue, -1.7000000000000002E-06, 15.000380000000002, 1.1326, 13.205, 25, 0.0857705414615676
DataValue, -1.9000000000000002E-06, 14.999740000000001, 1.1401000000000001, 13.3035, 25, 0.085699252076521223
DataValue, -1.5E-06, 15.000020000000001, 1.1472, 13.3925, 25, 0.085659884263580358
DataValue, 1.0000000000000001E-07, 15.0006, 1.1546, 13.4585, 25, 0.085789649663781248
DataValue, -9.0000000000000007E-07, 15.000420000000002, 1.1622000000000001, 13.55, 25, 0.08577121771217712
DataValue, -2.5E-06, 14.999740000000001, 1.1692, 13.6275, 25, 0.085797101449275368
DataValue, -1.5E-06, 14.999780000000001, 1.1757, 13.706, 25, 0.085779950386691964
DataValue, -1.7000000000000002E-06, 15.00054, 1.1818, 13.7795, 25, 0.0857650858158859
DataValue, -1.8000000000000001E-06, 15.000180000000002, 1.1849, 13.848, 25, 0.085564702484113228
DataValue, -1.6000000000000001E-06, 14.99952, 1.1915, 13.899000000000001, 25, 0.085725591769192019
DataValue, -1.2000000000000002E-06, 15.000100000000002, 1.1955, 13.9395, 25, 0.0857634778865813
DataValue, -1.0000000000000002E-06, 13.999860000000002, 0.0103, 0.086500000000000007, 25, 0.11907514450867052
DataValue, -1.1E-06, 13.999780000000001, 0.0167, 0.1575, 25, 0.10603174603174603
DataValue, -2.6E-06, 13.999740000000001, 0.024300000000000002, 0.23850000000000002, 25, 0.10188679245283019
DataValue, 0, 14.00074, 0.0332, 0.36, 25, 0.092222222222222233
DataValue, -1.2000000000000002E-06, 14.00018, 0.0425, 0.47650000000000003, 25, 0.089192025183630647
DataValue, -1.0000000000000002E-06, 13.999880000000001, 0.053000000000000005, 0.5875, 25, 0.090212765957446817
DataValue, -1.4000000000000002E-06, 13.999920000000001, 0.0623, 0.6825, 25, 0.091282051282051288
DataValue, -2.4000000000000003E-06, 13.999500000000001, 0.0709, 0.7835, 25, 0.0904913848117422
DataValue, -6.0000000000000008E-07, 13.999900000000002, 0.082, 0.894, 25, 0.091722595078299773
DataValue, -7.0000000000000007E-07, 14.0006, 0.0893, 1.016, 25, 0.08789370078740158
DataValue, -1.7000000000000002E-06, 13.999860000000002, 0.0959, 1.1015, 25, 0.0870630957784839
DataValue, -1.3E-06, 14.00012, 0.10690000000000001, 1.218, 25, 0.087766830870279158
DataValue, -2.1000000000000002E-06, 13.999680000000002, 0.11660000000000001, 1.3205, 25, 0.088299886406664155
DataValue, -1.9000000000000002E-06, 13.999580000000002, 0.12660000000000002, 1.429, 25, 0.088593421973407985
DataValue, -2.2E-06, 14.00008, 0.13340000000000002, 1.5165, 25, 0.087965710517639309
DataValue, -1.9000000000000002E-06, 14.00008, 0.1396, 1.5995000000000001, 25, 0.0872772741481713
DataValue, -2.0000000000000003E-06, 13.999920000000001, 0.152, 1.72, 25, 0.088372093023255813
DataValue, 1.0000000000000001E-07, 13.99984, 0.163, 1.8395000000000001, 25, 0.088611035607502039
DataValue, -1.3E-06, 14.000100000000002, 0.1683, 1.9195, 25, 0.087679083094555882
DataValue, -1.3E-06, 13.999440000000002, 0.1758, 2.0165, 25, 0.087180758740391773
DataValue, -1.2000000000000002E-06, 13.999960000000002, 0.18530000000000002, 2.111, 25, 0.087778304121269538
DataValue, -1.3E-06, 14.000060000000001, 0.1925, 2.208, 25, 0.087182971014492752
DataValue, -3.5000000000000004E-06, 13.999900000000002, 0.20170000000000002, 2.3285, 25, 0.086622289027270788
DataValue, -8.0000000000000007E-07, 13.999600000000001, 0.2112, 2.4055, 25, 0.087798794429432545
DataValue, -1.4000000000000002E-06, 13.999460000000001, 0.22010000000000002, 2.504, 25, 0.087899361022364231
DataValue, -3.0000000000000004E-07, 13.999960000000002, 0.2288, 2.625, 25, 0.08716190476190476
DataValue, -2.1000000000000002E-06, 13.999740000000001, 0.2379, 2.7115, 25, 0.087737414715102338
DataValue, -5.0000000000000008E-07, 13.999820000000002, 0.24580000000000002, 2.8000000000000003, 25, 0.087785714285714286
DataValue, -6.0000000000000008E-07, 14.000300000000001, 0.2549, 2.8850000000000002, 25, 0.088353552859618711
DataValue, -4.0000000000000003E-07, 14.00012, 0.2645, 3.0075000000000003, 25, 0.087946799667497924
DataValue, -9.0000000000000007E-07, 14.00018, 0.2726, 3.112, 25, 0.087596401028277635
DataValue, -1.6000000000000001E-06, 14.00008, 0.28090000000000004, 3.198, 25, 0.087836147592245173
DataValue, -2.5E-06, 13.999200000000002, 0.2883, 3.2905, 25, 0.087615863850478648
DataValue, -1.2000000000000002E-06, 13.99956, 0.2987, 3.3965, 25, 0.087943471220373923
DataValue, -2.1000000000000002E-06, 14.000100000000002, 0.3047, 3.5025, 25, 0.086995003568879375
DataValue, -1.1E-06, 14.000620000000001, 0.31320000000000003, 3.601, 25, 0.086975840044432109
DataValue, -1.5E-06, 13.999640000000001, 0.3242, 3.6745, 25, 0.088229691114437334
DataValue, -1.6000000000000001E-06, 14.000280000000002, 0.33130000000000004, 3.7735000000000003, 25, 0.087796475420696962
DataValue, 0, 14.000380000000002, 0.3396, 3.879, 25, 0.087548337200309356
DataValue, -1.4000000000000002E-06, 14.00012, 0.3488, 3.976, 25, 0.08772635814889336
DataValue, -1.6000000000000001E-06, 14.000160000000001, 0.3579, 4.0715, 25, 0.0879037209873511
DataValue, -1.9000000000000002E-06, 14.000020000000001, 0.3658, 4.142, 25, 0.088314823756639307
DataValue, -1.2000000000000002E-06, 14.0004, 0.37460000000000004, 4.2715000000000005, 25, 0.087697530141636421
DataValue, -1.0000000000000002E-06, 14.000300000000001, 0.384, 4.3705, 25, 0.087861800709301
DataValue, -2.1000000000000002E-06, 13.999680000000002, 0.3911, 4.453, 25, 0.087828430271726918
DataValue, -2.8000000000000003E-06, 14.000160000000001, 0.3995, 4.562, 25, 0.087571240683910562
DataValue, -1.7000000000000002E-06, 13.999900000000002, 0.40800000000000003, 4.6725, 25, 0.087319422150882828
DataValue, -1.7000000000000002E-06, 14.000860000000001, 0.4189, 4.7635000000000005, 25, 0.087939540254014889
DataValue, -2.3E-06, 14.000020000000001, 0.4264, 4.836, 25, 0.088172043010752682
DataValue, -2.4000000000000003E-06, 14.000240000000002, 0.4355, 4.963, 25, 0.087749345154140637
DataValue, -7.0000000000000007E-07, 13.999820000000002, 0.44380000000000003, 5.046, 25, 0.087950852160126838
