
SetupTitle, Rds-Id
ApplicationTest, Rds-Id, Public
TestParameter, Name, Memo, Scale, HoldTime, PulseBase, PulseAvgCnt, Gate, VgStart, VgStop, VgStep, IgLimit, Source, MeasurementTime, Drain, IdStart, IdStop, IdLinearStep, VdLimit, VdStop, PulsePeriodMode, ManualPulsePeriod, PulseWidth
TestParameter, Value, , LINEAR, 0, 0, 1, SMU2:MC	MCSMU, 20, 5, 1, 0.1, GNDU:GND	GNDU, 1E-05, SMU3:UHC500	UHCU500A, 0.5, 5, 0.2, 2, 0, 0, 0.05, 0.0002
DutParameter, Name, Polarity, Temp, YAxisRdsMin, YAxisRdsMax
DutParameter, Value, 1, 25, 0.001, 1
MetaData, TestRecord.EntryPoint, true
MetaData, TestRecord.RecordTime, 04/19/2021 15:10:30
MetaData, TestRecord.TestTarget, 
MetaData, TestRecord.IterationIndex, 1
MetaData, TestRecord.Preservation, true
MetaData, TestRecord.Flag, 
MetaData, TestRecord.Remarks, 
MetaData, TestRecord.LinkKey, 8dd2a89f-9024-42e9-b64e-dd077d2a2eb8
Dimension1, 23, 23, 23, 23, 23, 23
Dimension2, 16, 16, 16, 16, 16, 16
DataName, Igate, Vgate, Vdrain, Idrain, Ta, Rds
DataValue, -1.0000000000000002E-06, 19.99988, 0.0592, 0.0445, 25, 1.3303370786516855
DataValue, -7.0000000000000007E-07, 19.99986, 0.1332, 0.149, 25, 0.89395973154362429
DataValue, -1.5E-06, 20.00026, 0.2291, 0.2475, 25, 0.92565656565656562
DataValue, -1.5E-06, 20.000100000000003, 0.3148, 0.3705, 25, 0.84966261808367083
DataValue, -1.0000000000000002E-06, 20.00034, 0.41850000000000004, 0.4815, 25, 0.869158878504673
DataValue, -2.0000000000000002E-07, 19.99922, 0.528, 0.613, 25, 0.86133768352365425
DataValue, -2.0000000000000002E-07, 19.999760000000002, 0.6205, 0.7095, 25, 0.87455954897815369
DataValue, -1.3E-06, 20.00016, 0.7259, 0.838, 25, 0.8662291169451074
DataValue, -2.0000000000000003E-06, 19.9999, 0.83710000000000007, 0.95600000000000007, 25, 0.87562761506276154
DataValue, -1.2000000000000002E-06, 20.00034, 0.9462, 1.08, 25, 0.87611111111111106
DataValue, -6.0000000000000008E-07, 20.00072, 1.0377, 1.1825, 25, 0.87754756871035944
DataValue, -3.0000000000000004E-07, 19.999660000000002, 1.1461000000000001, 1.305, 25, 0.87823754789272046
DataValue, -5.0000000000000008E-07, 20.000100000000003, 1.2547000000000002, 1.4395, 25, 0.87162209100382082
DataValue, -4.0000000000000003E-07, 19.9996, 1.3508, 1.52, 25, 0.88868421052631574
DataValue, -8.0000000000000007E-07, 19.9996, 1.4427, 1.641, 25, 0.87915904936014633
DataValue, -3.0000000000000004E-07, 19.99968, 1.491, 1.67, 25, 0.89281437125748508
DataValue, 0, 20.000220000000002, 1.5096, 1.6865, 25, 0.89510821227394011
DataValue, 1.0000000000000001E-07, 20.00016, 1.5223, 1.698, 25, 0.8965253239104829
DataValue, -2.0000000000000002E-07, 20.000100000000003, 1.5256, 1.721, 25, 0.88646135967460782
DataValue, -2.0000000000000002E-07, 19.999840000000003, 1.5291000000000001, 1.719, 25, 0.88952879581151834
DataValue, 6.0000000000000008E-07, 20.00018, 1.5286000000000002, 1.723, 25, 0.88717353453279169
DataValue, 6.0000000000000008E-07, 20.00036, 1.5314, 1.718, 25, 0.89138533178114088
DataValue, -3.0000000000000004E-07, 19.999660000000002, 1.5306000000000002, 1.7015, 25, 0.89955921245959458
DataValue, 2.0000000000000002E-07, 18.999740000000003, 0.0609, 0.036000000000000004, 25, 1.6916666666666667
DataValue, 1.1E-06, 18.9997, 0.1422, 0.1455, 25, 0.977319587628866
DataValue, -6.0000000000000008E-07, 19.00036, 0.22890000000000002, 0.2435, 25, 0.94004106776180707
DataValue, -6.0000000000000008E-07, 19.000500000000002, 0.3274, 0.34450000000000003, 25, 0.95036284470246735
DataValue, 0, 19.000040000000002, 0.4324, 0.4615, 25, 0.93694474539544959
DataValue, 6.0000000000000008E-07, 19.000400000000003, 0.5364, 0.5695, 25, 0.94187884108867426
DataValue, 3.0000000000000004E-07, 19.000420000000002, 0.636, 0.70200000000000007, 25, 0.90598290598290587
DataValue, -5.0000000000000008E-07, 19.00036, 0.7509, 0.8235, 25, 0.91183970856102
DataValue, -6.0000000000000008E-07, 19.00006, 0.8619, 0.9415, 25, 0.91545406266595852
DataValue, 3.0000000000000004E-07, 19.000300000000003, 0.9602, 1.024, 25, 0.9376953125
DataValue, -7.0000000000000007E-07, 18.9998, 1.0638, 1.1280000000000001, 25, 0.94308510638297871
DataValue, 6.0000000000000008E-07, 19.00084, 1.1814, 1.252, 25, 0.94361022364217251
DataValue, -1.7000000000000002E-06, 19.000700000000002, 1.2925, 1.377, 25, 0.93863471314451707
DataValue, -6.0000000000000008E-07, 19.00056, 1.3894, 1.5, 25, 0.92626666666666668
DataValue, -8.0000000000000007E-07, 19.00044, 1.4743000000000002, 1.573, 25, 0.93725365543547379
DataValue, 1.3E-06, 19.00036, 1.5203, 1.6135, 25, 0.94223737217229631
DataValue, -6.0000000000000008E-07, 19.000020000000003, 1.5336, 1.605, 25, 0.95551401869158881
DataValue, 8.0000000000000007E-07, 19.000120000000003, 1.5416, 1.5995000000000001, 25, 0.96380118787120972
DataValue, 1.1E-06, 18.9998, 1.5445, 1.618, 25, 0.95457354758961677
DataValue, 3.0000000000000004E-07, 19.000040000000002, 1.5490000000000002, 1.643, 25, 0.942787583688375
DataValue, -9.0000000000000007E-07, 19.00074, 1.5485, 1.6455, 25, 0.941051352172592
DataValue, -1.2000000000000002E-06, 19.00018, 1.5503, 1.6375, 25, 0.94674809160305351
DataValue, 4.0000000000000003E-07, 18.99916, 1.5505, 1.6385, 25, 0.946292340555386
DataValue, 1.0000000000000001E-07, 17.999460000000003, 0.061200000000000004, 0.054, 25, 1.1333333333333335
DataValue, 0, 17.999940000000002, 0.1428, 0.1305, 25, 1.0942528735632184
DataValue, 6.0000000000000008E-07, 17.99998, 0.2396, 0.221, 25, 1.0841628959276017
DataValue, 9.0000000000000007E-07, 17.99996, 0.33590000000000003, 0.317, 25, 1.0596214511041011
DataValue, -7.0000000000000007E-07, 17.99978, 0.44380000000000003, 0.451, 25, 0.98403547671840363
DataValue, -1.0000000000000001E-07, 18.00016, 0.545, 0.5705, 25, 0.95530236634531118
DataValue, -1.5E-06, 18.00052, 0.6528, 0.6775, 25, 0.96354243542435436
DataValue, -3.0000000000000004E-07, 17.99988, 0.7658, 0.76250000000000007, 25, 1.0043278688524591
DataValue, -3.0000000000000004E-07, 17.999460000000003, 0.8767, 0.8735, 25, 1.0036634230108759
DataValue, -7.0000000000000007E-07, 17.99944, 0.98820000000000008, 0.999, 25, 0.9891891891891893
DataValue, 9.0000000000000007E-07, 18.00038, 1.095, 1.102, 25, 0.99364791288566234
DataValue, 4.0000000000000003E-07, 18.00066, 1.2113, 1.2135, 25, 0.99818706221672848
DataValue, -6.0000000000000008E-07, 18, 1.3242, 1.314, 25, 1.0077625570776256
DataValue, 7.0000000000000007E-07, 17.99962, 1.433, 1.4255, 25, 1.0052613118204139
DataValue, 1.1E-06, 18.00016, 1.5088000000000001, 1.508, 25, 1.00053050397878
DataValue, -1.0000000000000001E-07, 17.99988, 1.5457, 1.518, 25, 1.0182476943346508
DataValue, 1.3E-06, 18.0001, 1.5608, 1.5330000000000001, 25, 1.0181343770384865
DataValue, 1.1E-06, 17.99952, 1.5666, 1.539, 25, 1.0179337231968813
DataValue, 2.0000000000000002E-07, 17.999920000000003, 1.5707, 1.5655000000000001, 25, 1.0033216224848292
DataValue, 1.0000000000000001E-07, 17.99952, 1.5705, 1.5585, 25, 1.0076997112608277
DataValue, 7.0000000000000007E-07, 18.00026, 1.5712000000000002, 1.5465, 25, 1.0159715486582608
DataValue, 0, 17.99968, 1.5737, 1.5425, 25, 1.020226904376013
DataValue, 5.0000000000000008E-07, 18.00026, 1.5747, 1.5575, 25, 1.011043338683788
DataValue, 7.0000000000000007E-07, 16.999560000000002, 0.070500000000000007, 0.06, 25, 1.1750000000000003
DataValue, -7.0000000000000007E-07, 16.999940000000002, 0.1544, 0.136, 25, 1.1352941176470588
DataValue, -1.0000000000000001E-07, 16.999660000000002, 0.2446, 0.20600000000000002, 25, 1.1873786407766991
DataValue, 0, 16.9996, 0.35100000000000003, 0.3165, 25, 1.109004739336493
DataValue, 1.0000000000000002E-06, 17.000120000000003, 0.45580000000000004, 0.439, 25, 1.0382687927107062
DataValue, 3.0000000000000004E-07, 17.00034, 0.56690000000000007, 0.5445, 25, 1.0411386593204777
DataValue, 1.0000000000000001E-07, 17.00008, 0.6845, 0.6405, 25, 1.068696330991413
DataValue, 1.0000000000000001E-07, 17.00018, 0.80190000000000006, 0.771, 25, 1.0400778210116732
DataValue, -1.3E-06, 17.00036, 0.9091, 0.871, 25, 1.0437428243398392
DataValue, -7.0000000000000007E-07, 16.99968, 1.024, 0.95600000000000007, 25, 1.0711297071129706
DataValue, -4.0000000000000003E-07, 16.999480000000002, 1.141, 1.0685, 25, 1.0678521291530183
DataValue, -1.0000000000000002E-06, 16.9997, 1.2476, 1.175, 25, 1.0617872340425532
DataValue, -2.0000000000000002E-07, 16.999460000000003, 1.3714000000000002, 1.2605, 25, 1.0879809599365333
DataValue, -2.0000000000000002E-07, 17.000040000000002, 1.478, 1.3745, 25, 1.0753001091305929
DataValue, -4.0000000000000003E-07, 17.00006, 1.5481, 1.416, 25, 1.0932909604519774
DataValue, 5.0000000000000008E-07, 16.99986, 1.5767, 1.4455, 25, 1.0907644413697681
DataValue, 6.0000000000000008E-07, 17.000580000000003, 1.5867, 1.4515, 25, 1.0931450223906303
DataValue, 1.0000000000000001E-07, 16.9997, 1.5954000000000002, 1.456, 25, 1.0957417582417584
DataValue, -8.0000000000000007E-07, 16.99924, 1.5951000000000002, 1.4505000000000001, 25, 1.0996897621509825
DataValue, -1.0000000000000002E-06, 16.999640000000003, 1.5977000000000001, 1.446, 25, 1.1049100968188106
DataValue, 6.0000000000000008E-07, 17.00038, 1.5998, 1.457, 25, 1.098009608785175
DataValue, -3.0000000000000004E-07, 17.00024, 1.5986, 1.4595, 25, 1.0953066118533745
DataValue, 1.0000000000000001E-07, 17.000120000000003, 1.5999, 1.4405000000000001, 25, 1.1106560222145088
DataValue, 0, 16.000220000000002, 0.0703, 0.032, 25, 2.196875
DataValue, -2.0000000000000002E-07, 15.999260000000001, 0.1622, 0.131, 25, 1.2381679389312978
DataValue, 1.4000000000000002E-06, 15.999680000000002, 0.2495, 0.20450000000000002, 25, 1.2200488997555012
DataValue, 4.0000000000000003E-07, 16.00024, 0.3638, 0.318, 25, 1.1440251572327045
DataValue, -1.4000000000000002E-06, 15.999720000000002, 0.4707, 0.4325, 25, 1.0883236994219654
DataValue, 0, 15.999900000000002, 0.5888, 0.51150000000000007, 25, 1.1511241446725316
DataValue, -9.0000000000000007E-07, 15.999880000000001, 0.69580000000000009, 0.6155, 25, 1.1304630381803413
DataValue, 4.0000000000000003E-07, 15.999620000000002, 0.8307, 0.7155, 25, 1.1610062893081761
DataValue, -4.0000000000000003E-07, 15.99994, 0.9394, 0.81600000000000006, 25, 1.1512254901960783
DataValue, -4.0000000000000003E-07, 16.00008, 1.0566, 0.9025, 25, 1.1707479224376731
DataValue, -9.0000000000000007E-07, 16.00074, 1.185, 1.0205, 25, 1.1611954924056835
DataValue, 3.0000000000000004E-07, 15.999920000000001, 1.2994, 1.097, 25, 1.1845031905195991
DataValue, -8.0000000000000007E-07, 15.99932, 1.4255, 1.193, 25, 1.1948868398994132
DataValue, 2.0000000000000002E-07, 15.999380000000002, 1.5318, 1.2705, 25, 1.2056670602125148
DataValue, -1.5E-06, 16.00048, 1.5881, 1.3285, 25, 1.1954083552879187
DataValue, -1.3E-06, 16.000140000000002, 1.6094000000000002, 1.333, 25, 1.20735183795949
DataValue, -1.2000000000000002E-06, 15.9998, 1.619, 1.3345, 25, 1.2131884600974148
DataValue, 4.0000000000000003E-07, 16.00024, 1.6252, 1.3535, 25, 1.2007388252678242
DataValue, -1.0000000000000001E-07, 16.000400000000003, 1.6264, 1.3455, 25, 1.2087699739873654
DataValue, -3.0000000000000004E-07, 16.00054, 1.6269, 1.3465, 25, 1.2082435945042702
DataValue, -3.0000000000000004E-07, 16.000400000000003, 1.6271, 1.36, 25, 1.1963970588235293
DataValue, 7.0000000000000007E-07, 15.99942, 1.6283, 1.343, 25, 1.2124348473566642
DataValue, -7.0000000000000007E-07, 15.99956, 1.6305, 1.35, 25, 1.2077777777777778
DataValue, 6.0000000000000008E-07, 14.99984, 0.0716, 0.046, 25, 1.5565217391304347
DataValue, 2.0000000000000002E-07, 14.999720000000002, 0.164, 0.11, 25, 1.490909090909091
DataValue, 3.0000000000000004E-07, 15.00036, 0.272, 0.196, 25, 1.3877551020408163
DataValue, 1.0000000000000002E-06, 14.9998, 0.3738, 0.3025, 25, 1.2357024793388431
DataValue, -8.0000000000000007E-07, 14.99938, 0.4965, 0.3785, 25, 1.3117569352708058
DataValue, -2.0000000000000002E-07, 14.99998, 0.6168, 0.4875, 25, 1.2652307692307694
DataValue, -1.7000000000000002E-06, 14.99984, 0.73520000000000008, 0.5905, 25, 1.2450465707027942
DataValue, -1.4000000000000002E-06, 15.00022, 0.85030000000000006, 0.6515, 25, 1.3051419800460478
DataValue, 4.0000000000000003E-07, 14.999960000000002, 0.99040000000000006, 0.775, 25, 1.2779354838709678
DataValue, -1.4000000000000002E-06, 15.00022, 1.107, 0.8585, 25, 1.2894583576004659
DataValue, 0, 15.000160000000001, 1.2365000000000002, 0.9385, 25, 1.3175279701651574
DataValue, -1.7000000000000002E-06, 15.00022, 1.367, 1.042, 25, 1.3119001919385795
DataValue, -1.0000000000000001E-07, 15.0004, 1.4836, 1.1025, 25, 1.3456689342403627
DataValue, -1.3E-06, 15.00022, 1.5854000000000001, 1.199, 25, 1.3222685571309425
DataValue, 9.0000000000000007E-07, 14.99994, 1.6331, 1.1985000000000001, 25, 1.3626199415936586
DataValue, 3.0000000000000004E-07, 14.999640000000001, 1.6484, 1.2105000000000001, 25, 1.3617513424204872
DataValue, -6.0000000000000008E-07, 15.000720000000001, 1.6548, 1.2315, 25, 1.3437271619975639
DataValue, 1.7000000000000002E-06, 14.999680000000002, 1.6592, 1.219, 25, 1.3611156685808039
DataValue, -6.0000000000000008E-07, 15.00026, 1.6605, 1.2175, 25, 1.3638603696098564
DataValue, -1.0000000000000001E-07, 14.999920000000001, 1.661, 1.236, 25, 1.3438511326860843
DataValue, -6.0000000000000008E-07, 15.00022, 1.6613, 1.2165, 25, 1.36563912864776
DataValue, 6.0000000000000008E-07, 15.0004, 1.6618000000000002, 1.227, 25, 1.3543602281988592
DataValue, 4.0000000000000003E-07, 15.00022, 1.6612, 1.221, 25, 1.3605241605241605
DataValue, 2.0000000000000002E-07, 13.999880000000001, 0.0804, 0.0185, 25, 4.345945945945946
DataValue, -3.0000000000000004E-07, 14.00018, 0.1655, 0.106, 25, 1.5613207547169812
DataValue, -3.0000000000000004E-07, 13.999580000000002, 0.2773, 0.1995, 25, 1.3899749373433583
DataValue, 4.0000000000000003E-07, 13.99952, 0.3986, 0.264, 25, 1.5098484848484848
DataValue, -2.0000000000000002E-07, 14.00012, 0.5258, 0.37, 25, 1.4210810810810812
DataValue, -1.6000000000000001E-06, 14.000000000000002, 0.641, 0.453, 25, 1.4150110375275937
DataValue, 3.0000000000000004E-07, 14.00032, 0.76540000000000008, 0.52, 25, 1.4719230769230771
DataValue, 4.0000000000000003E-07, 14.000520000000002, 0.9, 0.63950000000000007, 25, 1.4073494917904612
DataValue, -6.0000000000000008E-07, 14.00026, 1.0348, 0.714, 25, 1.4492997198879551
DataValue, -1.9000000000000002E-06, 14.00026, 1.1683000000000001, 0.75850000000000006, 25, 1.5402768622280818
DataValue, -2.0000000000000003E-06, 13.9998, 1.2935, 0.8715, 25, 1.4842226047045324
DataValue, -2.0000000000000003E-06, 14.00004, 1.4318, 0.961, 25, 1.4899063475546306
DataValue, -1.2000000000000002E-06, 14.000580000000001, 1.5603, 1.0095, 25, 1.5456166419019315
DataValue, 5.0000000000000008E-07, 13.999740000000001, 1.6483, 1.0515, 25, 1.5675701378982405
DataValue, -3.0000000000000004E-07, 14.000100000000002, 1.6774, 1.084, 25, 1.5474169741697417
DataValue, -6.0000000000000008E-07, 14.00012, 1.689, 1.081, 25, 1.5624421831637374
DataValue, 5.0000000000000008E-07, 14.00032, 1.6927, 1.07, 25, 1.58196261682243
DataValue, 9.0000000000000007E-07, 14.000520000000002, 1.6968, 1.1, 25, 1.5425454545454544
DataValue, 2.0000000000000002E-07, 13.99966, 1.6973, 1.1035, 25, 1.5381060262800184
DataValue, 3.0000000000000004E-07, 13.999460000000001, 1.697, 1.087, 25, 1.5611775528978842
DataValue, -9.0000000000000007E-07, 14.000440000000001, 1.6997, 1.0865, 25, 1.5643810400368154
DataValue, 1.1E-06, 14.000020000000001, 1.6999000000000002, 1.102, 25, 1.5425589836660618
DataValue, 4.0000000000000003E-07, 14.0005, 1.6989, 1.0875000000000001, 25, 1.562206896551724
DataValue, -1.0000000000000002E-06, 12.999820000000002, 0.08950000000000001, 0.042, 25, 2.1309523809523809
DataValue, 1.0000000000000001E-07, 12.999600000000001, 0.1786, 0.10300000000000001, 25, 1.7339805825242718
DataValue, -8.0000000000000007E-07, 13.000280000000002, 0.30210000000000004, 0.1785, 25, 1.6924369747899162
DataValue, 3.0000000000000004E-07, 12.999360000000001, 0.41540000000000005, 0.2655, 25, 1.5645951035781545
DataValue, -6.0000000000000008E-07, 13.000200000000001, 0.54970000000000008, 0.322, 25, 1.7071428571428573
DataValue, -1.1E-06, 13.000560000000002, 0.6826, 0.41500000000000004, 25, 1.6448192771084336
DataValue, -8.0000000000000007E-07, 12.999960000000002, 0.81090000000000007, 0.468, 25, 1.7326923076923078
DataValue, -6.0000000000000008E-07, 12.999720000000002, 0.9537, 0.561, 25, 1.6999999999999997
DataValue, -1.5E-06, 13.000100000000002, 1.0956000000000001, 0.6135, 25, 1.7858190709046455
DataValue, -9.0000000000000007E-07, 12.99998, 1.2353, 0.712, 25, 1.7349719101123597
DataValue, -9.0000000000000007E-07, 13.000020000000001, 1.3624, 0.7725, 25, 1.7636245954692558
DataValue, -1.8000000000000001E-06, 12.99994, 1.5103, 0.8265, 25, 1.8273442226255292
DataValue, -1.9000000000000002E-06, 12.99984, 1.6420000000000001, 0.89150000000000007, 25, 1.8418395961862031
DataValue, -4.0000000000000003E-07, 12.999740000000001, 1.7045000000000001, 0.9095, 25, 1.8741066520065972
DataValue, 1.0000000000000001E-07, 13.00022, 1.7242000000000002, 0.9225, 25, 1.8690514905149054
DataValue, 0, 13.000000000000002, 1.7337, 0.94500000000000006, 25, 1.8346031746031746
DataValue, 2.0000000000000002E-07, 12.999780000000001, 1.737, 0.925, 25, 1.8778378378378378
DataValue, 0, 13.000280000000002, 1.7368000000000001, 0.9475, 25, 1.8330343007915568
DataValue, -1.0000000000000002E-06, 12.999480000000002, 1.7376, 0.934, 25, 1.8603854389721626
DataValue, -1.2000000000000002E-06, 13.00018, 1.7399, 0.9465, 25, 1.8382461701003698
DataValue, -9.0000000000000007E-07, 13.000520000000002, 1.7395, 0.94000000000000006, 25, 1.850531914893617
DataValue, -9.0000000000000007E-07, 12.999540000000001, 1.7408000000000001, 0.9235, 25, 1.8850027070925828
DataValue, 0, 12.999920000000001, 1.741, 0.93900000000000006, 25, 1.8541001064962726
DataValue, 5.0000000000000008E-07, 11.999780000000001, 0.0869, 0.011, 25, 7.9000000000000012
DataValue, 0, 11.999540000000001, 0.19590000000000002, 0.1015, 25, 1.9300492610837439
DataValue, 6.0000000000000008E-07, 11.99956, 0.31770000000000004, 0.159, 25, 1.99811320754717
DataValue, -6.0000000000000008E-07, 12.00036, 0.45120000000000005, 0.219, 25, 2.06027397260274
DataValue, -1.4000000000000002E-06, 11.999960000000002, 0.57700000000000007, 0.293, 25, 1.9692832764505124
DataValue, -1.2000000000000002E-06, 11.99976, 0.7118, 0.3665, 25, 1.9421555252387448
DataValue, -1.9000000000000002E-06, 11.999920000000001, 0.861, 0.40750000000000003, 25, 2.1128834355828219
DataValue, -2.0000000000000002E-07, 12.000100000000002, 1.0152, 0.49, 25, 2.071836734693878
DataValue, 4.0000000000000003E-07, 11.99966, 1.1560000000000001, 0.555, 25, 2.0828828828828829
DataValue, -2.0000000000000003E-06, 12.000000000000002, 1.2995, 0.5955, 25, 2.1821998320738873
DataValue, -2.0000000000000002E-07, 12.000020000000001, 1.4571, 0.6505, 25, 2.2399692544196772
DataValue, -1.2000000000000002E-06, 12.00056, 1.6103, 0.721, 25, 2.2334257975034677
DataValue, -6.0000000000000008E-07, 11.99962, 1.7196, 0.75050000000000006, 25, 2.2912724850099933
DataValue, 0, 12.00008, 1.7589000000000001, 0.75950000000000006, 25, 2.3158657011191575
DataValue, -6.0000000000000008E-07, 12.000000000000002, 1.7743, 0.7725, 25, 2.2968284789644016
DataValue, 1.0000000000000001E-07, 11.999680000000002, 1.7785000000000002, 0.75250000000000006, 25, 2.3634551495016614
DataValue, 0, 12.000660000000002, 1.7818, 0.77, 25, 2.3140259740259741
DataValue, -4.0000000000000003E-07, 12.0004, 1.7822, 0.7705, 25, 2.3130434782608695
DataValue, -3.0000000000000004E-07, 11.999860000000002, 1.7833, 0.762, 25, 2.3402887139107613
DataValue, -9.0000000000000007E-07, 11.999680000000002, 1.7842, 0.776, 25, 2.2992268041237112
DataValue, -3.0000000000000004E-07, 11.9999, 1.7837, 0.76350000000000007, 25, 2.3362148002619514
DataValue, -1.2000000000000002E-06, 11.999820000000002, 1.7816, 0.7695, 25, 2.3152696556205332
