
SetupTitle, Rds-Id
ApplicationTest, Rds-Id, Public
TestParameter, Name, Memo, Scale, HoldTime, PulseBase, PulseAvgCnt, Gate, VgStart, VgStop, VgStep, IgLimit, Source, MeasurementTime, Drain, IdStart, IdStop, IdLinearStep, VdLimit, VdStop, PulsePeriodMode, ManualPulsePeriod, PulseWidth
TestParameter, Value, , LINEAR, 0, 0, 1, SMU2:MC	MCSMU, 15, 5, 1, 0.1, GNDU:GND	GNDU, 1E-05, SMU3:UHC500	UHCU500A, 0.5, 15, 0.1, 5, 0, 0, 0.05, 0.0002
DutParameter, Name, Polarity, Temp, YAxisRdsMin, YAxisRdsMax
DutParameter, Value, 1, 25, 0.001, 10
MetaData, TestRecord.EntryPoint, true
MetaData, TestRecord.RecordTime, 12/24/2020 12:31:37
MetaData, TestRecord.TestTarget, 
MetaData, TestRecord.IterationIndex, 1
MetaData, TestRecord.Preservation, true
MetaData, TestRecord.Flag, 
MetaData, TestRecord.Remarks, 
MetaData, TestRecord.LinkKey, ae8c85ba-2d60-47b7-a5d9-5086dcfac960
Dimension1, 146, 146, 146, 146, 146, 146
Dimension2, 11, 11, 11, 11, 11, 11
DataName, Igate, Vgate, Vdrain, Idrain, Ta, Rds
DataValue, -2.0000000000000003E-06, 14.999600000000001, 0.014400000000000001, 0.0905, 25, 0.15911602209944753
DataValue, -2.8000000000000003E-06, 14.999780000000001, 0.024, 0.17300000000000002, 25, 0.13872832369942195
DataValue, -1.6000000000000001E-06, 15.00012, 0.0351, 0.2525, 25, 0.139009900990099
DataValue, -2.1000000000000002E-06, 15.000100000000002, 0.044700000000000004, 0.328, 25, 0.13628048780487806
DataValue, -2.1000000000000002E-06, 15.000140000000002, 0.0614, 0.4475, 25, 0.13720670391061454
DataValue, -3.2000000000000003E-06, 14.999160000000002, 0.071500000000000008, 0.532, 25, 0.13439849624060152
DataValue, -1.8000000000000001E-06, 14.999740000000001, 0.0858, 0.632, 25, 0.13575949367088608
DataValue, -1.7000000000000002E-06, 15.000520000000002, 0.0976, 0.757, 25, 0.12892998678996037
DataValue, -2.0000000000000003E-06, 15.000340000000001, 0.1107, 0.876, 25, 0.12636986301369863
DataValue, -2.3E-06, 14.99994, 0.1221, 0.964, 25, 0.12665975103734439
DataValue, -1.7000000000000002E-06, 15.00026, 0.1336, 1.0415, 25, 0.128276524243879
DataValue, -2.5E-06, 14.99914, 0.14730000000000001, 1.158, 25, 0.12720207253886012
DataValue, -1.7000000000000002E-06, 15.000520000000002, 0.16, 1.2505, 25, 0.12794882047181128
DataValue, -1.7000000000000002E-06, 14.999960000000002, 0.1718, 1.365, 25, 0.12586080586080586
DataValue, -2.6E-06, 15.000180000000002, 0.1837, 1.4475, 25, 0.1269084628670121
DataValue, -1.0000000000000002E-06, 14.99984, 0.1961, 1.5535, 25, 0.12623109108464756
DataValue, -4.0000000000000003E-07, 15.000440000000001, 0.2073, 1.6320000000000001, 25, 0.12702205882352941
DataValue, -1.8000000000000001E-06, 15.000160000000001, 0.22, 1.747, 25, 0.12593016599885518
DataValue, -5.0000000000000008E-07, 15.000180000000002, 0.2316, 1.832, 25, 0.12641921397379913
DataValue, -7.0000000000000007E-07, 15.000180000000002, 0.2439, 1.9345, 25, 0.12607909020418712
DataValue, -1.5E-06, 15.000660000000002, 0.256, 2.036, 25, 0.12573673870333987
DataValue, -1.7000000000000002E-06, 14.999860000000002, 0.26680000000000004, 2.122, 25, 0.12573044297832237
DataValue, -1.8000000000000001E-06, 15.00026, 0.2793, 2.2215000000000003, 25, 0.12572586090479404
DataValue, -1.4000000000000002E-06, 14.999900000000002, 0.2896, 2.3275, 25, 0.12442534908700323
DataValue, -2.2E-06, 14.999820000000002, 0.3044, 2.407, 25, 0.12646447860407145
DataValue, -1.9000000000000002E-06, 15.000200000000001, 0.3151, 2.504, 25, 0.12583865814696485
DataValue, -3.1000000000000004E-06, 14.99956, 0.3271, 2.613, 25, 0.12518178339073863
DataValue, -1.2000000000000002E-06, 15.00022, 0.34, 2.697, 25, 0.12606599925843531
DataValue, -2.2E-06, 15.00012, 0.3533, 2.789, 25, 0.12667622803872355
DataValue, -1.5E-06, 14.999440000000002, 0.3633, 2.9165, 25, 0.12456711812103549
DataValue, -1.1E-06, 15.000380000000002, 0.376, 2.982, 25, 0.12608987256874579
DataValue, -1.9000000000000002E-06, 15.000000000000002, 0.38720000000000004, 3.098, 25, 0.12498386055519692
DataValue, -2.5E-06, 14.999820000000002, 0.40080000000000005, 3.1705, 25, 0.12641539189402304
DataValue, -3.3E-06, 14.99938, 0.41150000000000003, 3.2625, 25, 0.12613026819923373
DataValue, -2.9E-06, 14.999960000000002, 0.4232, 3.3745000000000003, 25, 0.12541117202548524
DataValue, -2.7000000000000004E-06, 14.9997, 0.4365, 3.477, 25, 0.12553925798101812
DataValue, -2.1000000000000002E-06, 15.000380000000002, 0.4455, 3.551, 25, 0.12545761757251478
DataValue, -2.0000000000000003E-06, 15.000020000000001, 0.458, 3.6615, 25, 0.12508534753516318
DataValue, -2.1000000000000002E-06, 15.00022, 0.4711, 3.7625, 25, 0.12520930232558139
DataValue, -2.2E-06, 15.000100000000002, 0.4848, 3.851, 25, 0.12588937938197872
DataValue, -1.5E-06, 15.000100000000002, 0.497, 3.974, 25, 0.12506290890790137
DataValue, -2.1000000000000002E-06, 15.000620000000001, 0.50650000000000006, 4.03, 25, 0.12568238213399505
DataValue, -1.8000000000000001E-06, 15.000300000000001, 0.5199, 4.1375, 25, 0.12565558912386707
DataValue, -1.4000000000000002E-06, 14.99942, 0.5294, 4.2315000000000005, 25, 0.12510929930284767
DataValue, -1.5E-06, 14.999960000000002, 0.5433, 4.2965, 25, 0.12645176306295822
DataValue, -3.4000000000000005E-06, 14.999580000000002, 0.5564, 4.449, 25, 0.12506181164306587
DataValue, -1.9000000000000002E-06, 15.000000000000002, 0.5673, 4.506, 25, 0.12589880159786951
DataValue, -2.0000000000000003E-06, 14.99998, 0.57910000000000006, 4.628, 25, 0.12512964563526363
DataValue, -1.2000000000000002E-06, 14.999580000000002, 0.5906, 4.7325, 25, 0.12479661912308505
DataValue, -1.3E-06, 14.99984, 0.6039, 4.7985, 25, 0.12585182869646766
DataValue, -2.5E-06, 14.999900000000002, 0.615, 4.9005, 25, 0.12549739822467096
DataValue, -1.5E-06, 15.001100000000001, 0.6276, 5.0055000000000005, 25, 0.12538207971231644
DataValue, -2.9E-06, 14.99998, 0.63960000000000006, 5.079, 25, 0.12593030124040167
DataValue, -8.0000000000000007E-07, 15.000240000000002, 0.651, 5.191, 25, 0.12540936235792718
DataValue, -1.5E-06, 14.999960000000002, 0.66480000000000006, 5.2785, 25, 0.12594487070190397
DataValue, -1.5E-06, 14.9997, 0.6766, 5.36, 25, 0.12623134328358207
DataValue, -8.0000000000000007E-07, 15.00064, 0.6877, 5.476, 25, 0.12558436815193572
DataValue, -2.7000000000000004E-06, 14.999440000000002, 0.69890000000000008, 5.579, 25, 0.12527334647786342
DataValue, -1.1E-06, 14.99928, 0.7122, 5.654, 25, 0.12596391934913337
DataValue, -2.3E-06, 14.999580000000002, 0.72320000000000006, 5.7465, 25, 0.12585051770643002
DataValue, -1.3E-06, 15.00008, 0.73630000000000007, 5.878, 25, 0.12526369513439947
DataValue, -1.2000000000000002E-06, 15.00046, 0.74730000000000008, 5.9545, 25, 0.12550172138718616
DataValue, -1.9000000000000002E-06, 15.000020000000001, 0.7581, 6.0215000000000005, 25, 0.12589886240969858
DataValue, -2.8000000000000003E-06, 14.999300000000002, 0.77140000000000009, 6.1355, 25, 0.12572732458642327
DataValue, -1.2000000000000002E-06, 15.00012, 0.78450000000000009, 6.2145, 25, 0.12623702630943762
DataValue, -8.0000000000000007E-07, 15.000140000000002, 0.79680000000000006, 6.3115000000000006, 25, 0.12624574189970689
DataValue, -2.4000000000000003E-06, 15.000420000000002, 0.8085, 6.4345, 25, 0.12565078871707203
DataValue, -8.0000000000000007E-07, 14.99984, 0.8194, 6.527, 25, 0.12554006434809253
DataValue, -1.1E-06, 15.000160000000001, 0.8336, 6.596, 25, 0.12637962401455427
DataValue, -1.6000000000000001E-06, 14.999860000000002, 0.8436, 6.687, 25, 0.12615522655899505
DataValue, -1.0000000000000002E-06, 15.000340000000001, 0.8559, 6.795, 25, 0.12596026490066226
DataValue, -1.4000000000000002E-06, 15.000620000000001, 0.86620000000000008, 6.8665, 25, 0.12614869292944003
DataValue, -2.4000000000000003E-06, 15.000160000000001, 0.88, 6.9885, 25, 0.12592115618516134
DataValue, -1.9000000000000002E-06, 15.000320000000002, 0.8931, 7.075, 25, 0.12623321554770317
DataValue, -1.2000000000000002E-06, 15.000340000000001, 0.9033, 7.1515, 25, 0.12630916590924979
DataValue, -1.6000000000000001E-06, 15.000000000000002, 0.91650000000000009, 7.279, 25, 0.1259101524934744
DataValue, -1.7000000000000002E-06, 14.999540000000001, 0.9282, 7.3505, 25, 0.12627712400516972
DataValue, -3.2000000000000003E-06, 14.999760000000002, 0.9414, 7.4395, 25, 0.12654076214799381
DataValue, -2.1000000000000002E-06, 14.9998, 0.9517, 7.5385, 25, 0.1262452742588048
DataValue, -1.6000000000000001E-06, 15.000940000000002, 0.9656, 7.6385000000000005, 25, 0.12641225371473455
DataValue, -1.2000000000000002E-06, 15.00012, 0.9756, 7.7255, 25, 0.12628308847323796
DataValue, -1.1E-06, 15.00046, 0.99030000000000007, 7.828, 25, 0.12650740929994891
DataValue, -2.2E-06, 15.000160000000001, 1.0021, 7.9110000000000005, 25, 0.12667172291745671
DataValue, -6.0000000000000008E-07, 14.99952, 1.0150000000000001, 8.0240000000000009, 25, 0.12649551345962115
DataValue, -1.0000000000000002E-06, 14.999960000000002, 1.0235, 8.1135, 25, 0.12614777839403465
DataValue, -1.2000000000000002E-06, 15.000160000000001, 1.0363, 8.1905, 25, 0.12652463219583665
DataValue, -2.0000000000000003E-06, 15.000320000000002, 1.0509, 8.31, 25, 0.12646209386281587
DataValue, -1.2000000000000002E-06, 15.0005, 1.0618, 8.404, 25, 0.1263445978105664
DataValue, -2.0000000000000003E-06, 14.99942, 1.0722, 8.481, 25, 0.12642377078174744
DataValue, -2.5E-06, 15.00036, 1.0851, 8.585, 25, 0.12639487478159578
DataValue, -3.8000000000000005E-06, 14.999360000000001, 1.0989, 8.6845, 25, 0.12653578214059533
DataValue, -1.3E-06, 15.000180000000002, 1.1111, 8.7695, 25, 0.12670049603740236
DataValue, -1.6000000000000001E-06, 14.999480000000002, 1.124, 8.844, 25, 0.12709181365897787
DataValue, -1.9000000000000002E-06, 15.000040000000002, 1.1368, 8.954, 25, 0.12696001786910877
DataValue, -3E-06, 14.999220000000001, 1.1469, 9.0565, 25, 0.12663832606415282
DataValue, -1.3E-06, 15.000620000000001, 1.1613, 9.1365, 25, 0.12710556558857331
DataValue, -2.2E-06, 15.000040000000002, 1.1712, 9.2455, 25, 0.12667784327510681
DataValue, -9.0000000000000007E-07, 15.000380000000002, 1.1819, 9.3365000000000009, 25, 0.12658919295239113
DataValue, -1.7000000000000002E-06, 14.999900000000002, 1.195, 9.41, 25, 0.12699256110520724
DataValue, -2.0000000000000003E-06, 15.000060000000001, 1.2072, 9.519, 25, 0.12682004412228176
DataValue, -3.5000000000000004E-06, 14.999360000000001, 1.2194, 9.6175, 25, 0.1267897062646218
DataValue, -2.5E-06, 14.999480000000002, 1.233, 9.7005, 25, 0.12710685016236278
DataValue, -2.2E-06, 14.999680000000002, 1.2426000000000002, 9.8, 25, 0.12679591836734694
DataValue, -1.6000000000000001E-06, 14.99984, 1.2570000000000001, 9.8805, 25, 0.12722028237437377
DataValue, -2.0000000000000003E-06, 15.000060000000001, 1.2701, 9.9845, 25, 0.12720717111522858
DataValue, -1.1E-06, 14.99984, 1.282, 10.1005, 25, 0.12692440968268898
DataValue, -1.7000000000000002E-06, 15.000520000000002, 1.2942, 10.163, 25, 0.12734428810390633
DataValue, -1.1E-06, 14.99998, 1.3069000000000002, 10.286, 25, 0.12705619288353104
DataValue, -2.0000000000000003E-06, 14.999860000000002, 1.3165, 10.36, 25, 0.12707528957528957
DataValue, -1.5E-06, 14.999820000000002, 1.3294000000000001, 10.450000000000001, 25, 0.1272153110047847
DataValue, -1.9000000000000002E-06, 14.999960000000002, 1.3425, 10.5655, 25, 0.12706450238985378
DataValue, -2.4000000000000003E-06, 14.999480000000002, 1.3532, 10.621, 25, 0.1274079653516618
DataValue, -1.6000000000000001E-06, 14.99984, 1.3657000000000001, 10.7415, 25, 0.1271423916585207
DataValue, -1.5E-06, 14.999880000000001, 1.3786, 10.8415, 25, 0.12715952589586313
DataValue, -1.9000000000000002E-06, 15.00046, 1.3898000000000002, 10.900500000000001, 25, 0.12749873858997293
DataValue, -2.4000000000000003E-06, 14.99904, 1.4023, 10.991, 25, 0.12758620689655173
DataValue, -1.7000000000000002E-06, 14.99998, 1.4139000000000002, 11.1105, 25, 0.12725799918995545
DataValue, -2.2E-06, 15.000040000000002, 1.4265, 11.194, 25, 0.12743433982490621
DataValue, -2.1000000000000002E-06, 14.99966, 1.439, 11.2695, 25, 0.12768978215537513
DataValue, -1.6000000000000001E-06, 15.000280000000002, 1.4513, 11.364, 25, 0.12771031326997537
DataValue, -1.4000000000000002E-06, 15.00092, 1.4632, 11.4695, 25, 0.12757312873272594
DataValue, -1.7000000000000002E-06, 15.000060000000001, 1.4762000000000002, 11.5485, 25, 0.12782612460492707
DataValue, -1.7000000000000002E-06, 14.99994, 1.4865000000000002, 11.6285, 25, 0.12783248054349228
DataValue, -1.8000000000000001E-06, 15.00022, 1.4993, 11.737, 25, 0.12774133083411435
DataValue, -1.6000000000000001E-06, 14.999600000000001, 1.5101, 11.836, 25, 0.12758533288273066
DataValue, -2.2E-06, 14.999740000000001, 1.52, 11.911, 25, 0.12761313071950298
DataValue, -2.0000000000000003E-06, 15.00022, 1.532, 11.9975, 25, 0.12769326943113149
DataValue, -1.8000000000000001E-06, 14.999760000000002, 1.5396, 12.0535, 25, 0.12773053469946491
DataValue, -2.0000000000000003E-06, 14.999720000000002, 1.5487, 12.1135, 25, 0.12784909398604863
DataValue, -1.8000000000000001E-06, 15.000340000000001, 1.5561, 12.2045, 25, 0.12750215084599945
DataValue, -2.0000000000000003E-06, 14.999680000000002, 1.5643, 12.2575, 25, 0.12761982459718541
DataValue, -1.2000000000000002E-06, 14.99994, 1.5695000000000001, 12.315, 25, 0.12744620381648397
DataValue, -9.0000000000000007E-07, 15.000300000000001, 1.5750000000000002, 12.3495, 25, 0.12753552775416011
DataValue, -1.6000000000000001E-06, 14.999820000000002, 1.58, 12.3835, 25, 0.12758913069810637
DataValue, -1.5E-06, 15.000060000000001, 1.5836000000000001, 12.4015, 25, 0.12769423053662865
DataValue, -1.4000000000000002E-06, 14.999820000000002, 1.5883, 12.4705, 25, 0.12736458040976706
DataValue, -9.0000000000000007E-07, 14.999760000000002, 1.5879, 12.497, 25, 0.12706249499879971
DataValue, -1.1E-06, 14.99956, 1.5925, 12.498000000000001, 25, 0.12742038726196189
DataValue, -6.0000000000000008E-07, 15.000580000000001, 1.5933000000000002, 12.491, 25, 0.12755584020494759
DataValue, -2.5E-06, 15.000100000000002, 1.5942, 12.517, 25, 0.12736278661021014
DataValue, -9.0000000000000007E-07, 14.999640000000001, 1.5954000000000002, 12.546, 25, 0.12716403634624585
DataValue, -1.1E-06, 14.99938, 1.5973000000000002, 12.562, 25, 0.12715331953510589
DataValue, -1.5E-06, 15.000240000000002, 1.5972000000000002, 12.586, 25, 0.1269029079930081
DataValue, -1.2000000000000002E-06, 14.999120000000001, 1.5982, 12.572000000000001, 25, 0.12712376710149539
DataValue, -1.2000000000000002E-06, 15.000580000000001, 1.6007, 12.569, 25, 0.12735301137719787
DataValue, -2.0000000000000003E-06, 15.000140000000002, 1.6006, 12.5555, 25, 0.1274819800087611
DataValue, -4.0000000000000003E-07, 14.000200000000001, 0.014, 0.1075, 25, 0.13023255813953488
DataValue, -1.8000000000000001E-06, 13.999620000000002, 0.025, 0.179, 25, 0.13966480446927376
DataValue, -1.8000000000000001E-06, 13.99994, 0.0349, 0.2515, 25, 0.13876739562624255
DataValue, -1.3E-06, 13.9998, 0.0473, 0.34500000000000003, 25, 0.1371014492753623
DataValue, -1.6000000000000001E-06, 14.00022, 0.059500000000000004, 0.451, 25, 0.1319290465631929
DataValue, -2.2E-06, 13.999900000000002, 0.0738, 0.56900000000000006, 25, 0.129701230228471
DataValue, -2.4000000000000003E-06, 13.99956, 0.0855, 0.6545, 25, 0.1306340718105424
DataValue, -2.8000000000000003E-06, 14.000060000000001, 0.09820000000000001, 0.7345, 25, 0.13369639210347176
DataValue, -1.7000000000000002E-06, 14.000280000000002, 0.1134, 0.866, 25, 0.13094688221709008
DataValue, -2.0000000000000003E-06, 14.00004, 0.1236, 0.9425, 25, 0.13114058355437666
DataValue, -2.4000000000000003E-06, 13.9998, 0.1371, 1.0335, 25, 0.13265602322206094
DataValue, -6.0000000000000008E-07, 14.000060000000001, 0.1501, 1.1605, 25, 0.12934080137871606
DataValue, -2.1000000000000002E-06, 13.99952, 0.162, 1.2545, 25, 0.12913511359107216
DataValue, -2.7000000000000004E-06, 13.999780000000001, 0.1748, 1.328, 25, 0.1316265060240964
DataValue, -2.3E-06, 13.999780000000001, 0.1862, 1.423, 25, 0.13085031623330992
DataValue, -1.6000000000000001E-06, 14.00032, 0.19840000000000002, 1.543, 25, 0.12858068697342839
DataValue, -2.4000000000000003E-06, 13.999860000000002, 0.2122, 1.645, 25, 0.1289969604863222
DataValue, -1.3E-06, 14.000000000000002, 0.224, 1.731, 25, 0.12940496822645869
DataValue, -2.7000000000000004E-06, 13.999820000000002, 0.23620000000000002, 1.817, 25, 0.12999449642267474
DataValue, -1.6000000000000001E-06, 13.99994, 0.24710000000000001, 1.9335, 25, 0.12779932764416863
DataValue, -1.7000000000000002E-06, 14.000060000000001, 0.2622, 2.0380000000000003, 25, 0.12865554465161921
DataValue, -1.3E-06, 13.99998, 0.2751, 2.129, 25, 0.12921559417566933
DataValue, -2.9E-06, 14.00012, 0.28500000000000003, 2.206, 25, 0.12919310970081596
DataValue, -1.9000000000000002E-06, 14.00012, 0.2987, 2.322, 25, 0.12863910422049957
DataValue, -2.6E-06, 13.99942, 0.3098, 2.431, 25, 0.12743726861373922
DataValue, -2.0000000000000003E-06, 13.99956, 0.323, 2.5140000000000002, 25, 0.12848050914876691
DataValue, -1.2000000000000002E-06, 13.999620000000002, 0.33330000000000004, 2.594, 25, 0.12848882035466464
DataValue, -1.1E-06, 14.00046, 0.3462, 2.69, 25, 0.12869888475836433
DataValue, -1.4000000000000002E-06, 13.999780000000001, 0.3588, 2.8055, 25, 0.12789164141864196
DataValue, -2.0000000000000003E-06, 14.00012, 0.3718, 2.9005, 25, 0.128184795724875
DataValue, -2.6E-06, 13.999680000000002, 0.38270000000000004, 3.007, 25, 0.12726970402394414
DataValue, -1.9000000000000002E-06, 13.999900000000002, 0.395, 3.067, 25, 0.12879034887512228
DataValue, -1.5E-06, 14.000100000000002, 0.40940000000000004, 3.1775, 25, 0.12884343036978757
DataValue, -1.7000000000000002E-06, 13.999780000000001, 0.4227, 3.29, 25, 0.12848024316109424
DataValue, -2.0000000000000003E-06, 13.999860000000002, 0.43170000000000003, 3.3775, 25, 0.12781643227239084
DataValue, -2.3E-06, 13.999900000000002, 0.445, 3.46, 25, 0.12861271676300579
DataValue, -2.3E-06, 14.000060000000001, 0.45740000000000003, 3.5685000000000002, 25, 0.12817710522628556
DataValue, -9.0000000000000007E-07, 14.00032, 0.47090000000000004, 3.6725, 25, 0.12822328114363515
DataValue, -1.9000000000000002E-06, 13.999780000000001, 0.4827, 3.7635, 25, 0.12825827022718214
DataValue, -2.1000000000000002E-06, 14.000480000000001, 0.49400000000000005, 3.846, 25, 0.12844513780551223
DataValue, -2.8000000000000003E-06, 13.999300000000002, 0.5079, 3.966, 25, 0.12806354009077156
DataValue, -2.3E-06, 13.999540000000001, 0.51960000000000006, 4.0355, 25, 0.12875727914756538
DataValue, -8.0000000000000007E-07, 14.000620000000001, 0.5291, 4.1255, 25, 0.12825112107623321
DataValue, -3.1000000000000004E-06, 13.999680000000002, 0.5409, 4.226, 25, 0.12799337434926647
DataValue, -1.9000000000000002E-06, 13.999500000000001, 0.555, 4.3420000000000005, 25, 0.12782128051589128
DataValue, -2.0000000000000003E-06, 13.99994, 0.5683, 4.4075, 25, 0.12893930799773115
DataValue, -8.0000000000000007E-07, 14.000100000000002, 0.5814, 4.508, 25, 0.12897071872227153
DataValue, -2.1000000000000002E-06, 13.999860000000002, 0.5928, 4.626, 25, 0.12814526588845654
DataValue, -1.6000000000000001E-06, 13.999860000000002, 0.60320000000000007, 4.7185, 25, 0.12783723640987604
DataValue, -2.0000000000000003E-06, 13.999540000000001, 0.61630000000000007, 4.795, 25, 0.12852971845672578
DataValue, -3.1000000000000004E-06, 13.999620000000002, 0.6272, 4.8865, 25, 0.12835362734063235
DataValue, -2.3E-06, 13.99938, 0.6407, 4.992, 25, 0.12834535256410257
DataValue, -1.5E-06, 14.000380000000002, 0.6539, 5.0835, 25, 0.12863184813612669
DataValue, -1.2000000000000002E-06, 14.000100000000002, 0.6642, 5.162, 25, 0.12867105772956219
DataValue, -1.7000000000000002E-06, 14.000620000000001, 0.6773, 5.2865, 25, 0.12811879315236924
DataValue, -2.2E-06, 13.999880000000001, 0.6894, 5.3735, 25, 0.12829626872615615
DataValue, -1.6000000000000001E-06, 14.000520000000002, 0.7026, 5.4535, 25, 0.12883469331621894
