
SetupTitle, ID-VGS
PrimitiveTest, Multi Channel I/V Sweep
TestParameter, Channel.UnitType, SMU, SMU
TestParameter, Channel.Unit, SMU2:MC, SMU3:UHC500
TestParameter, Channel.IName, IG, ID
TestParameter, Channel.VName, VGS, VDS
TestParameter, Channel.Mode, VPULSE, VPULSE
TestParameter, Channel.Func, VAR1, CONST
TestParameter, Channel.Index, 
TestParameter, Channel.Time, 
TestParameter, Measurement.Port.Unit, SMU2:MC, SMU3:UHC500
TestParameter, Measurement.Port.SeriesResistor, NONE, NONE
TestParameter, Measurement.Port.Filter, OFF, OFF
TestParameter, Measurement.Port.OutputVoltageComparison, 0, 0
TestParameter, Measurement.Primary.Start, 0
TestParameter, Measurement.Primary.Stop, 10
TestParameter, Measurement.Primary.Compliance, 0.099999999999999992
TestParameter, Measurement.Primary.PowerCompliance, 0
TestParameter, Measurement.Primary.Locus, Single
TestParameter, Measurement.Primary.Scale, LINEAR
TestParameter, Measurement.Primary.Count, 2001
TestParameter, Measurement.Aborting.Condition, CONTINUE AT ANY
TestParameter, Measurement.PostOutput.Value, START
TestParameter, Measurement.PostOutput.Retention, OFF
TestParameter, Measurement.Bias.Source, 0, 3
TestParameter, Measurement.Bias.Compliance, 0.099999999999999992, 5
TestParameter, Measurement.Pulse.Delay, 0, 9.9999999999999991E-05
TestParameter, Measurement.Pulse.Duration, 0.001, 4.9999999999999996E-05
TestParameter, Measurement.Pulse.Base, 0, 0
TestParameter, Measurement.Pulse.Period, 0
TestParameter, Measurement.Pulse.MeasurementDelay, 0
TestParameter, Measurement.Pulse.AveragingCount, 1
TestParameter, Measurement.Monitor.Unit, SMU2:MC, SMU3:UHC500
TestParameter, Measurement.Monitor.Adc, HS ADC, HS ADC
TestParameter, Measurement.Monitor.Measurement, Force and Compliance Sides, Force and Compliance Sides
TestParameter, Measurement.Timing.Hold, 0
TestParameter, Measurement.Timing.Delay, 0
TestParameter, Measurement.Adc.HighSpeed.Mode, TIME
TestParameter, Measurement.Adc.HighSpeed.Coeff, 9.9999999999999991E-06
TestParameter, Measurement.Adc.HighResolution.AutoZero, OFF
TestParameter, Measurement.Adc.HighResolution.Mode, AUTO
TestParameter, Measurement.Adc.HighResolution.Coeff, 6
TestParameter, Measurement.WaitTime.Source.Coeff, 1
TestParameter, Measurement.WaitTime.Source.Offset, 0
TestParameter, Measurement.WaitTime.Monitor.Coeff, 1
TestParameter, Measurement.WaitTime.Monitor.Offset, 0
TestParameter, Output.Graph.Enabled, true
TestParameter, Output.Graph.AutoScaling, false
TestParameter, Output.Graph.XAxis.Data, VGS
TestParameter, Output.Graph.XAxis.Scale, Linear
TestParameter, Output.Graph.XAxis.Left, -5.4
TestParameter, Output.Graph.XAxis.Right, 12.6
TestParameter, Output.Graph.XAxis.RunTimeAutoScale, false
TestParameter, Output.Graph.YAxis.Data, ID
TestParameter, Output.Graph.YAxis.Scale, Linear
TestParameter, Output.Graph.YAxis.Bottom, 0
TestParameter, Output.Graph.YAxis.Top, 10
TestParameter, Output.Graph.YAxis.Group, 
TestParameter, Output.Graph.YAxis.RunTimeAutoScale, false
TestParameter, Output.List.Data, VGS, ID
TestParameter, AutoAnalysis.Interpolation, false
TestParameter, AutoAnalysis.Line1.Enabled, false
TestParameter, AutoAnalysis.Line1.Type, 1
TestParameter, AutoAnalysis.Line1.Fix, True
TestParameter, AutoAnalysis.Line1.YAxis, 0
TestParameter, AutoAnalysis.Line1.Point1.Type, 0
TestParameter, AutoAnalysis.Line1.Point1.XY.X, 
TestParameter, AutoAnalysis.Line1.Point1.XY.Y, 
TestParameter, AutoAnalysis.Line1.Point1.Data.Var, 
TestParameter, AutoAnalysis.Line1.Point1.Data.Condition, 
TestParameter, AutoAnalysis.Line1.Point1.Data.Start, false
TestParameter, AutoAnalysis.Line1.Point1.Data.StartVar, 
TestParameter, AutoAnalysis.Line1.Point1.Data.StartCondition, 
TestParameter, AutoAnalysis.Line1.Point2.Type, 0
TestParameter, AutoAnalysis.Line1.Point2.XY.X, 
TestParameter, AutoAnalysis.Line1.Point2.XY.Y, 
TestParameter, AutoAnalysis.Line1.Point2.Data.Var, 
TestParameter, AutoAnalysis.Line1.Point2.Data.Condition, 
TestParameter, AutoAnalysis.Line1.Point2.Data.Start, false
TestParameter, AutoAnalysis.Line1.Point2.Data.StartVar, 
TestParameter, AutoAnalysis.Line1.Point2.Data.StartCondition, 
TestParameter, AutoAnalysis.Line1.GradientExpr, 0
TestParameter, AutoAnalysis.Line2.Enabled, false
TestParameter, AutoAnalysis.Line2.Type, 1
TestParameter, AutoAnalysis.Line2.Fix, True
TestParameter, AutoAnalysis.Line2.YAxis, 0
TestParameter, AutoAnalysis.Line2.Point1.Type, 0
TestParameter, AutoAnalysis.Line2.Point1.XY.X, 
TestParameter, AutoAnalysis.Line2.Point1.XY.Y, 
TestParameter, AutoAnalysis.Line2.Point1.Data.Var, 
TestParameter, AutoAnalysis.Line2.Point1.Data.Condition, 
TestParameter, AutoAnalysis.Line2.Point1.Data.Start, false
TestParameter, AutoAnalysis.Line2.Point1.Data.StartVar, 
TestParameter, AutoAnalysis.Line2.Point1.Data.StartCondition, 
TestParameter, AutoAnalysis.Line2.Point2.Type, 0
TestParameter, AutoAnalysis.Line2.Point2.XY.X, 
TestParameter, AutoAnalysis.Line2.Point2.XY.Y, 
TestParameter, AutoAnalysis.Line2.Point2.Data.Var, 
TestParameter, AutoAnalysis.Line2.Point2.Data.Condition, 
TestParameter, AutoAnalysis.Line2.Point2.Data.Start, false
TestParameter, AutoAnalysis.Line2.Point2.Data.StartVar, 
TestParameter, AutoAnalysis.Line2.Point2.Data.StartCondition, 
TestParameter, AutoAnalysis.Line2.GradientExpr, 0
TestParameter, AutoAnalysis.Marker.Enabled, false
TestParameter, AutoAnalysis.Marker.Data.Var, 
TestParameter, AutoAnalysis.Marker.Data.Condition, 
TestParameter, AutoAnalysis.Marker.Data.Start, false
TestParameter, AutoAnalysis.Marker.Data.StartVar, 
TestParameter, AutoAnalysis.Marker.Data.StartCondition, 
MetaData, TestRecord.EntryPoint, true
MetaData, TestRecord.RecordTime, 04/20/2021 09:08:52
MetaData, TestRecord.TestTarget, 
MetaData, TestRecord.IterationIndex, 1
MetaData, TestRecord.Preservation, true
MetaData, TestRecord.Flag, 
MetaData, TestRecord.Remarks, 
MetaData, TestRecord.LinkKey, 2972f19f-81c3-4c33-b85a-af8bf17f34ba
Dimension1, 2001, 2001
Dimension2, 1, 1
DataName, VGS, ID
DataValue, -0.00016, -0.012
DataValue, 0.00496, 0.0095
DataValue, 0.010320000000000001, 0.007
DataValue, 0.015340000000000001, 0.005
DataValue, 0.01984, -0.0095
DataValue, 0.024700000000000003, 0.002
DataValue, 0.030000000000000002, -0.0085
DataValue, 0.03522, 0.01
DataValue, 0.040080000000000005, 0
DataValue, 0.04474, 0.0025
DataValue, 0.04988, 0.0035
DataValue, 0.054880000000000005, 0.006
DataValue, 0.06024, 0.003
DataValue, 0.065, 0.0045000000000000005
DataValue, 0.069640000000000007, 0.002
DataValue, 0.07502, 0.008
DataValue, 0.08046, 0.0005
DataValue, 0.0855, 0.007
DataValue, 0.09018000000000001, 0.0095
DataValue, 0.0952, 0.0075
DataValue, 0.09986, 0
DataValue, 0.10470000000000002, 0.0115
DataValue, 0.10978, -0.0135
DataValue, 0.11510000000000001, -0.0015
DataValue, 0.12010000000000001, -0.0005
DataValue, 0.12466, -0.008
DataValue, 0.12974000000000002, -0.0105
DataValue, 0.13458, -0.007
DataValue, 0.14022, -0.022
DataValue, 0.14468, -0.013000000000000001
DataValue, 0.15026, -0.017
DataValue, 0.15534, -0.017
DataValue, 0.15998, -0.028
DataValue, 0.16486, -0.0305
DataValue, 0.17004000000000002, -0.02
DataValue, 0.17458, -0.0125
DataValue, 0.17982, -0.0245
DataValue, 0.18468, -0.0095
DataValue, 0.19, -0.0005
DataValue, 0.19508, -0.018000000000000002
DataValue, 0.19966, -0.0175
DataValue, 0.20526000000000003, -0.012
DataValue, 0.20914000000000002, -0.014
DataValue, 0.21480000000000002, -0.0155
DataValue, 0.21978000000000003, -0.023
DataValue, 0.22474000000000002, -0.0095
DataValue, 0.23016000000000003, -0.008
DataValue, 0.23432000000000003, -0.0015
DataValue, 0.23978000000000002, -0.0115
DataValue, 0.24492000000000003, 0.003
DataValue, 0.24978000000000003, 0.002
DataValue, 0.25542000000000004, 0.0045000000000000005
DataValue, 0.25948000000000004, 0.0115
DataValue, 0.2644, -0.006
DataValue, 0.26988, 0.0005
DataValue, 0.27512000000000003, 0
DataValue, 0.28018000000000004, 0.0155
DataValue, 0.28566, 0.0045000000000000005
DataValue, 0.28976, 0.0145
DataValue, 0.29546, 0.0165
DataValue, 0.29960000000000003, 0.0095
DataValue, 0.30508, 0.0075
DataValue, 0.30998000000000003, 0.0105
DataValue, 0.31520000000000004, -0.003
DataValue, 0.32004000000000005, -0.0015
DataValue, 0.32534, 0.0005
DataValue, 0.33056, -0.003
DataValue, 0.33526, -0.0105
DataValue, 0.33994, -0.011
DataValue, 0.34494, -0.015
DataValue, 0.35076, -0.025500000000000002
DataValue, 0.35548, -0.0175
DataValue, 0.35974, -0.0145
DataValue, 0.36512000000000006, -0.018000000000000002
DataValue, 0.37002, -0.029500000000000002
DataValue, 0.37488000000000005, -0.02
DataValue, 0.37972000000000006, -0.0205
DataValue, 0.38442000000000004, -0.0155
DataValue, 0.39002000000000003, -0.025500000000000002
DataValue, 0.39482000000000006, -0.0225
DataValue, 0.4006, -0.0095
DataValue, 0.40476, -0.013000000000000001
DataValue, 0.41008000000000006, -0.006
DataValue, 0.41426, -0.0025
DataValue, 0.41998, 0.0045000000000000005
DataValue, 0.42498, -0.0015
DataValue, 0.42976000000000003, 0.005
DataValue, 0.43462000000000006, 0.005
DataValue, 0.43992000000000003, 0
DataValue, 0.4449, 0.005
DataValue, 0.45026000000000005, 0.0015
DataValue, 0.45476000000000005, -0.0035
DataValue, 0.45978, -0.0065000000000000006
DataValue, 0.46498000000000006, -0.0015
DataValue, 0.46988, -0.01
DataValue, 0.47522000000000003, -0.0065000000000000006
DataValue, 0.48034000000000004, -0.02
DataValue, 0.48438000000000003, -0.015
DataValue, 0.48962000000000006, -0.01
DataValue, 0.49504000000000004, -0.0245
DataValue, 0.4993, -0.025
DataValue, 0.50482, -0.0045000000000000005
DataValue, 0.50994000000000006, -0.002
DataValue, 0.5149, 0.0005
DataValue, 0.52006000000000008, -0.001
DataValue, 0.5251, 0.004
DataValue, 0.53006000000000009, 0.0055
DataValue, 0.5352, 0.006
DataValue, 0.53982000000000008, -0.007
DataValue, 0.54438000000000009, 0.0015
DataValue, 0.55024000000000006, 0.002
DataValue, 0.5555, 0.013000000000000001
DataValue, 0.56, -0.0115
DataValue, 0.56478000000000006, -0.015
DataValue, 0.57012000000000007, -0.013000000000000001
DataValue, 0.57432, -0.025
DataValue, 0.57974, -0.0085
DataValue, 0.58508, -0.0115
DataValue, 0.58998000000000006, -0.003
DataValue, 0.59528, -0.003
DataValue, 0.5998, -0.0075
DataValue, 0.60494, -0.003
DataValue, 0.6097, -0.0045000000000000005
DataValue, 0.61552000000000007, 0.006
DataValue, 0.62004, 0.008
DataValue, 0.62496000000000007, 0.013000000000000001
DataValue, 0.62950000000000006, 0.004
DataValue, 0.63538000000000006, -0.0035
DataValue, 0.64014, -0.0005
DataValue, 0.64528000000000008, -0.0035
DataValue, 0.64962000000000009, -0.01
DataValue, 0.65548000000000006, -0.021
DataValue, 0.66, -0.0015
DataValue, 0.66514000000000006, -0.015
DataValue, 0.66994000000000009, -0.0275
DataValue, 0.67464, 0.001
DataValue, 0.6799400000000001, -0.005
DataValue, 0.68534000000000006, 0.013000000000000001
DataValue, 0.69066, 0.0095
DataValue, 0.69496, 0.0015
DataValue, 0.69994, 0.0075
DataValue, 0.70464, 0.001
DataValue, 0.7105, 0.0035
DataValue, 0.71494, -0.0125
DataValue, 0.72010000000000007, -0.005
DataValue, 0.72476000000000007, -0.0245
DataValue, 0.7299000000000001, -0.0145
DataValue, 0.73486000000000007, -0.024
DataValue, 0.73994, -0.01
DataValue, 0.74474000000000007, -0.008
DataValue, 0.74952000000000008, -0.0075
DataValue, 0.75516, -0.0015
DataValue, 0.75988000000000011, -0.016
DataValue, 0.76496000000000008, -0.0085
DataValue, 0.7698, -0.0125
DataValue, 0.77440000000000009, 0.0115
DataValue, 0.77970000000000006, -0.0025
DataValue, 0.78556, 0.018000000000000002
DataValue, 0.7900600000000001, 0.0125
DataValue, 0.79504000000000008, 0.0135
DataValue, 0.80038000000000009, 0.007
DataValue, 0.805, 0.0075
DataValue, 0.81054, 0.001
DataValue, 0.81552, 0
DataValue, 0.82012000000000007, -0.0115
DataValue, 0.82510000000000006, -0.0055
DataValue, 0.82998, -0.015
DataValue, 0.8350200000000001, -0.0075
DataValue, 0.83978000000000008, -0.019
DataValue, 0.8449000000000001, -0.0145
DataValue, 0.84970000000000012, -0.01
DataValue, 0.8557800000000001, -0.016
DataValue, 0.8602200000000001, -0.0115
DataValue, 0.86538, -0.027
DataValue, 0.8698, -0.0145
DataValue, 0.87448, -0.0115
DataValue, 0.87986000000000009, -0.001
DataValue, 0.88440000000000008, 0.0145
DataValue, 0.88954000000000011, 0.006
DataValue, 0.89512, 0.0195
DataValue, 0.90034, 0.0095
DataValue, 0.9051800000000001, -0.0095
DataValue, 0.90912, 0.001
DataValue, 0.9151800000000001, 0.004
DataValue, 0.91968, -0.01
DataValue, 0.9249, -0.001
DataValue, 0.93032, -0.0045000000000000005
DataValue, 0.93570000000000009, -0.0035
DataValue, 0.93994000000000011, -0.013000000000000001
DataValue, 0.94516000000000011, -0.0125
DataValue, 0.9504800000000001, -0.0025
DataValue, 0.95502000000000009, 0.003
DataValue, 0.95954000000000006, -0.005
DataValue, 0.96484, -0.0015
DataValue, 0.97020000000000006, -0.007
DataValue, 0.97438000000000013, -0.0035
DataValue, 0.97998000000000007, 0.0075
DataValue, 0.98446000000000011, 0.0005
DataValue, 0.99012000000000011, 0.0145
DataValue, 0.99508000000000008, 0.012
DataValue, 1.0001600000000002, 0.0105
DataValue, 1.00516, -0.003
DataValue, 1.0101600000000002, 0.001
DataValue, 1.01468, 0.0045000000000000005
DataValue, 1.02004, -0.0015
DataValue, 1.0249400000000002, -0.014
DataValue, 1.0302, -0.025
DataValue, 1.0350000000000001, -0.015
DataValue, 1.03984, -0.008
DataValue, 1.04532, -0.0155
DataValue, 1.0492400000000002, -0.0115
DataValue, 1.0554800000000002, -0.0085
DataValue, 1.05982, -0.0115
DataValue, 1.06444, -0.0005
DataValue, 1.0698, 0.007
DataValue, 1.0747, 0.0115
DataValue, 1.0805, 0.0105
DataValue, 1.0851000000000002, -0.004
DataValue, 1.0901800000000002, -0.0085
DataValue, 1.09514, -0.0015
DataValue, 1.1001, 0
DataValue, 1.1047, -0.0025
DataValue, 1.11054, -0.015
DataValue, 1.11494, -0.0035
DataValue, 1.12064, -0.013000000000000001
DataValue, 1.1251600000000002, -0.0105
DataValue, 1.12962, -0.0045000000000000005
DataValue, 1.13446, -0.001
DataValue, 1.14036, 0.01
DataValue, 1.1452600000000002, 0
DataValue, 1.15042, 0.0065000000000000006
DataValue, 1.15432, -0.002
DataValue, 1.15996, 0.005
DataValue, 1.165, 0.008
DataValue, 1.1702400000000002, 0.0015
DataValue, 1.1754600000000002, -0.0095
DataValue, 1.1803400000000002, 0.0005
DataValue, 1.1860600000000001, -0.008
DataValue, 1.18984, -0.025
DataValue, 1.19428, -0.03
DataValue, 1.1996, -0.019
DataValue, 1.205, -0.0135
DataValue, 1.21004, -0.0005
DataValue, 1.2151200000000002, 0.0045000000000000005
DataValue, 1.22024, -0.0115
DataValue, 1.22492, 0.001
DataValue, 1.23012, 0.005
DataValue, 1.2349400000000002, -0.005
DataValue, 1.24, 0.0075
DataValue, 1.2453800000000002, 0.0095
DataValue, 1.2498200000000002, -0.008
DataValue, 1.2555200000000002, -0.0090000000000000011
DataValue, 1.26014, -0.002
DataValue, 1.26482, -0.033
DataValue, 1.2705000000000002, -0.011
DataValue, 1.27478, -0.0155
DataValue, 1.28082, -0.023
DataValue, 1.28498, -0.032
DataValue, 1.2902, -0.021500000000000002
DataValue, 1.29526, -0.0145
DataValue, 1.2988400000000002, -0.008
DataValue, 1.30552, -0.0090000000000000011
DataValue, 1.3100200000000002, 0.015
DataValue, 1.31508, 0.002
DataValue, 1.3207200000000001, 0.0075
DataValue, 1.32508, 0.0035
DataValue, 1.3308600000000002, 0.017
DataValue, 1.3344200000000002, 0.013000000000000001
DataValue, 1.34006, -0.003
DataValue, 1.3447600000000002, 0.0045000000000000005
DataValue, 1.3493400000000002, -0.002
DataValue, 1.35528, -0.004
DataValue, 1.36016, 0.0005
DataValue, 1.36488, -0.023
DataValue, 1.37012, -0.019
DataValue, 1.3748600000000002, -0.0225
DataValue, 1.3799000000000001, -0.0145
DataValue, 1.3857400000000002, -0.0075
DataValue, 1.3901400000000002, -0.004
DataValue, 1.39528, 0.005
DataValue, 1.3993600000000002, -0.0125
DataValue, 1.4048200000000002, 0.0090000000000000011
DataValue, 1.4095600000000002, 0.0115
DataValue, 1.41494, 0
DataValue, 1.41934, 0.006
DataValue, 1.4245800000000002, 0
DataValue, 1.42998, -0.007
DataValue, 1.4351200000000002, 0.0065000000000000006
DataValue, 1.4400600000000001, 0.0005
DataValue, 1.44418, 0.0065000000000000006
DataValue, 1.44988, -0.0065000000000000006
DataValue, 1.4548800000000002, -0.002
DataValue, 1.4595200000000002, -0.0185
DataValue, 1.46506, -0.005
DataValue, 1.4695600000000002, -0.007
DataValue, 1.47462, 0.0105
DataValue, 1.4802400000000002, -0.0095
DataValue, 1.4855600000000002, 0.003
DataValue, 1.4896800000000001, -0.002
DataValue, 1.49492, 0.0125
DataValue, 1.5005600000000001, 0.0075
DataValue, 1.50458, 0.0090000000000000011
DataValue, 1.51034, 0.0115
DataValue, 1.51516, 0.0155
DataValue, 1.5207000000000002, 0.0195
DataValue, 1.52506, 0.0095
DataValue, 1.5299800000000001, 0.0055
DataValue, 1.5351000000000001, 0.0105
DataValue, 1.5401600000000002, 0.0085
DataValue, 1.5450800000000002, 0.0175
DataValue, 1.5504000000000002, 0.008
DataValue, 1.5555400000000001, 0.0005
DataValue, 1.5600800000000001, -0.0115
DataValue, 1.5652000000000002, -0.0075
DataValue, 1.5707000000000002, -0.006
DataValue, 1.5754000000000001, -0.006
DataValue, 1.5794000000000001, -0.0095
DataValue, 1.58528, -0.0015
DataValue, 1.5904800000000001, -0.001
DataValue, 1.59478, -0.002
DataValue, 1.59952, -0.0075
DataValue, 1.60532, 0.004
DataValue, 1.6101200000000002, 0.0005
DataValue, 1.61488, -0.003
DataValue, 1.6198000000000001, -0.0035
DataValue, 1.6250600000000002, 0.0015
DataValue, 1.6295000000000002, 0.01
DataValue, 1.6348, 0.0145
DataValue, 1.63982, 0.002
DataValue, 1.64528, 0.013000000000000001
DataValue, 1.64996, 0.016
DataValue, 1.6553000000000002, 0.0185
DataValue, 1.6605400000000001, 0.0205
DataValue, 1.6654600000000002, 0.0165
DataValue, 1.6704800000000002, 0.0235
DataValue, 1.67572, 0.0195
DataValue, 1.68026, 0.0085
DataValue, 1.6842400000000002, 0.0145
DataValue, 1.69016, 0.0145
DataValue, 1.69466, 0.018000000000000002
DataValue, 1.6992600000000002, 0.02
DataValue, 1.7051200000000002, 0.0035
DataValue, 1.71008, 0.029500000000000002
DataValue, 1.7152, 0.02
DataValue, 1.72002, 0.025
DataValue, 1.72506, 0.0185
DataValue, 1.7301400000000002, 0.0075
DataValue, 1.7353600000000002, 0.025500000000000002
DataValue, 1.7408800000000002, 0.0185
DataValue, 1.7448400000000002, 0.031
DataValue, 1.74974, 0.021
DataValue, 1.7550000000000001, 0.029
DataValue, 1.76028, 0.0335
DataValue, 1.7654800000000002, 0.035
DataValue, 1.7699000000000003, 0.0395
DataValue, 1.7753200000000002, 0.011
DataValue, 1.78048, 0.039
DataValue, 1.7853400000000002, 0.027
DataValue, 1.7899600000000002, 0.0090000000000000011
DataValue, 1.7947400000000002, 0.0205
DataValue, 1.8002000000000002, 0.0090000000000000011
DataValue, 1.8053000000000001, 0.022
DataValue, 1.8096, 0.008
DataValue, 1.8150400000000002, 0.0135
DataValue, 1.8201800000000001, -0.0005
DataValue, 1.82502, 0.0065000000000000006
DataValue, 1.8299200000000002, 0.01
DataValue, 1.8350400000000002, 0.017
DataValue, 1.8398800000000002, 0.015
DataValue, 1.84478, 0.02
DataValue, 1.84874, 0.0165
DataValue, 1.8548600000000002, 0.021
DataValue, 1.8601, 0.0145
DataValue, 1.8645600000000002, 0.0375
DataValue, 1.8706200000000002, 0.0365
DataValue, 1.8745600000000002, 0.0315
DataValue, 1.87986, 0.035500000000000004
DataValue, 1.88528, 0.0145
DataValue, 1.8895600000000001, 0.032
DataValue, 1.8948000000000003, 0.03
DataValue, 1.8996400000000002, 0.0365
DataValue, 1.9050000000000003, 0.043500000000000004
DataValue, 1.9099800000000002, 0.035500000000000004
DataValue, 1.9149800000000001, 0.036000000000000004
DataValue, 1.9198000000000002, 0.046
DataValue, 1.9243800000000002, 0.046
DataValue, 1.93016, 0.04
DataValue, 1.9346600000000003, 0.043000000000000003
DataValue, 1.9398000000000002, 0.0325
