
SetupTitle, Rds-Id
ApplicationTest, Rds-Id, Public
TestParameter, Name, Memo, Scale, HoldTime, PulseBase, PulseAvgCnt, Gate, VgStart, VgStop, VgStep, IgLimit, Source, MeasurementTime, Drain, IdStart, IdStop, IdLinearStep, VdLimit, VdStop, PulsePeriodMode, ManualPulsePeriod, PulseWidth
TestParameter, Value, , LINEAR, 0, 0, 1, SMU2:MC	MCSMU, 15, 5, 1, 0.1, GNDU:GND	GNDU, 1E-05, SMU3:UHC500	UHCU500A, 0.5, 30, 0.2, 2, 0, 0, 0.05, 0.0002
DutParameter, Name, Polarity, Temp, YAxisRdsMin, YAxisRdsMax
DutParameter, Value, 1, 25, 0.001, 1
MetaData, TestRecord.EntryPoint, true
MetaData, TestRecord.RecordTime, 04/20/2021 11:30:42
MetaData, TestRecord.TestTarget, 
MetaData, TestRecord.IterationIndex, 2
MetaData, TestRecord.Preservation, true
MetaData, TestRecord.Flag, 
MetaData, TestRecord.Remarks, 
MetaData, TestRecord.LinkKey, 87340470-6dad-4992-8efd-9bdd5ab38326
Dimension1, 148, 148, 148, 148, 148, 148
Dimension2, 11, 11, 11, 11, 11, 11
DataName, Igate, Vgate, Vdrain, Idrain, Ta, Rds
DataValue, -1.6000000000000001E-06, 14.999480000000002, 0.0118, 0.128, 25, 0.092187499999999992
DataValue, -3.2000000000000003E-06, 15.00036, 0.024900000000000002, 0.2965, 25, 0.0839797639123103
DataValue, -2.0000000000000002E-07, 14.999760000000002, 0.0446, 0.506, 25, 0.088142292490118582
DataValue, 4.0000000000000003E-07, 15.000160000000001, 0.062, 0.705, 25, 0.08794326241134752
DataValue, 7.0000000000000007E-07, 15.0004, 0.081, 0.9095, 25, 0.08905992303463442
DataValue, -1.5E-06, 14.999540000000001, 0.1, 1.1425, 25, 0.087527352297593
DataValue, -1.5E-06, 15.000280000000002, 0.1158, 1.3675, 25, 0.0846800731261426
DataValue, -1.5E-06, 15.00012, 0.1333, 1.551, 25, 0.08594455190199872
DataValue, -1.4000000000000002E-06, 15.00054, 0.1504, 1.729, 25, 0.0869866975130133
DataValue, 1.1E-06, 15.000160000000001, 0.16640000000000002, 1.948, 25, 0.085420944558521575
DataValue, -2.0000000000000002E-07, 14.999640000000001, 0.18330000000000002, 2.1205, 25, 0.086441876915821753
DataValue, -6.0000000000000008E-07, 14.999680000000002, 0.202, 2.329, 25, 0.086732503220266211
DataValue, -1.2000000000000002E-06, 14.999540000000001, 0.21860000000000002, 2.549, 25, 0.08575912122400943
DataValue, -2.3E-06, 15.000140000000002, 0.2359, 2.745, 25, 0.085938069216757743
DataValue, -6.0000000000000008E-07, 14.99984, 0.2526, 2.936, 25, 0.086035422343324244
DataValue, -6.0000000000000008E-07, 14.99998, 0.2695, 3.144, 25, 0.085718829516539446
DataValue, -2.6E-06, 15.001000000000001, 0.2852, 3.3335, 25, 0.08555572221388931
DataValue, -2.4000000000000003E-06, 14.99966, 0.3037, 3.545, 25, 0.085669957686882944
DataValue, -2.2E-06, 14.99928, 0.3205, 3.732, 25, 0.085878885316184345
DataValue, -2.9E-06, 14.999340000000002, 0.3372, 3.9285, 25, 0.085834287896143557
DataValue, -2.9E-06, 14.99938, 0.35300000000000004, 4.107, 25, 0.085950815680545412
DataValue, -2.0000000000000003E-06, 14.999300000000002, 0.37020000000000003, 4.315, 25, 0.085793742757821548
DataValue, -2.0000000000000003E-06, 14.999640000000001, 0.38670000000000004, 4.519, 25, 0.085572029210002218
DataValue, 4.0000000000000003E-07, 14.999740000000001, 0.402, 4.7090000000000005, 25, 0.085368443406243361
DataValue, -1.0000000000000001E-07, 15.000520000000002, 0.4193, 4.891, 25, 0.0857288897975874
DataValue, 1.6000000000000001E-06, 15.000180000000002, 0.4355, 5.0665000000000004, 25, 0.085956774893910973
DataValue, -9.0000000000000007E-07, 14.99994, 0.4499, 5.244, 25, 0.085793287566742954
DataValue, -8.0000000000000007E-07, 14.999220000000001, 0.4625, 5.396, 25, 0.085711638250555972
DataValue, -1.2000000000000002E-06, 14.999480000000002, 0.4707, 5.514, 25, 0.0853645266594124
DataValue, -9.0000000000000007E-07, 14.99998, 0.4797, 5.6245, 25, 0.085287581118321631
DataValue, -1.4000000000000002E-06, 15.000060000000001, 0.4829, 5.688, 25, 0.084898030942334737
DataValue, 7.0000000000000007E-07, 15.000020000000001, 0.4862, 5.724, 25, 0.084940600978336833
DataValue, -8.0000000000000007E-07, 14.999920000000001, 0.48860000000000003, 5.7345, 25, 0.085203592292266123
DataValue, -3.8000000000000005E-06, 14.999160000000002, 0.49100000000000005, 5.7465, 25, 0.085443313321152015
DataValue, 1.0000000000000001E-07, 15.000340000000001, 0.49260000000000004, 5.7940000000000005, 25, 0.085018985157059024
DataValue, 3.0000000000000004E-07, 15.00022, 0.4922, 5.7995, 25, 0.0848693852918355
DataValue, -1.0000000000000002E-06, 15.000020000000001, 0.49210000000000004, 5.788, 25, 0.085020732550103659
DataValue, -5.0000000000000008E-07, 15.000440000000001, 0.4918, 5.7865, 25, 0.084990927158040269
DataValue, 5.0000000000000008E-07, 15.0005, 0.49310000000000004, 5.7965, 25, 0.085068575864745977
DataValue, -1.8000000000000001E-06, 14.99952, 0.4932, 5.812, 25, 0.0848589125946318
DataValue, -1.1E-06, 14.999580000000002, 0.4908, 5.8095, 25, 0.084482313452104316
DataValue, -2.0000000000000002E-07, 15.000180000000002, 0.49420000000000003, 5.8085, 25, 0.085082207110269426
DataValue, 7.0000000000000007E-07, 15.00026, 0.4939, 5.791, 25, 0.0852875151096529
DataValue, -5.0000000000000008E-07, 14.999020000000002, 0.49410000000000004, 5.828, 25, 0.084780370624571041
DataValue, 0, 14.99994, 0.4932, 5.8255, 25, 0.084662260750150209
DataValue, -2.0000000000000002E-07, 14.99956, 0.4954, 5.8180000000000005, 25, 0.0851495359229976
DataValue, -1.3E-06, 15.000100000000002, 0.49570000000000003, 5.8075, 25, 0.085355144210073189
DataValue, -2.0000000000000002E-07, 14.999680000000002, 0.49400000000000005, 5.815, 25, 0.084952708512467764
DataValue, -1.7000000000000002E-06, 15.00022, 0.4964, 5.8285, 25, 0.085167710388607709
DataValue, -8.0000000000000007E-07, 14.999600000000001, 0.49410000000000004, 5.82, 25, 0.084896907216494844
DataValue, 1.0000000000000001E-07, 14.99932, 0.49450000000000005, 5.829, 25, 0.0848344484474181
DataValue, 1.0000000000000001E-07, 15.000340000000001, 0.4948, 5.8180000000000005, 25, 0.085046407700240634
DataValue, -2.9E-06, 14.99966, 0.4948, 5.8020000000000005, 25, 0.085280937607721471
DataValue, 1.0000000000000002E-06, 14.999920000000001, 0.49520000000000003, 5.819, 25, 0.085100532737583778
DataValue, 5.0000000000000008E-07, 14.9998, 0.4958, 5.8395, 25, 0.08490452949738847
DataValue, 2.0000000000000002E-07, 14.999860000000002, 0.49450000000000005, 5.82, 25, 0.084965635738831619
DataValue, -1.0000000000000002E-06, 14.999580000000002, 0.49450000000000005, 5.8325000000000005, 25, 0.084783540505786542
DataValue, -3.9E-06, 15.00012, 0.49420000000000003, 5.8165000000000004, 25, 0.084965185248861
DataValue, 8.0000000000000007E-07, 15.000320000000002, 0.4944, 5.807, 25, 0.085138625796452552
DataValue, -2.2E-06, 14.999600000000001, 0.49460000000000004, 5.8115000000000006, 25, 0.0851071152026155
DataValue, -1.0000000000000002E-06, 14.99966, 0.4958, 5.822, 25, 0.085159738921332884
DataValue, 7.0000000000000007E-07, 15.000820000000001, 0.4939, 5.836, 25, 0.084629883481836865
DataValue, -1.0000000000000002E-06, 15.000040000000002, 0.4959, 5.847, 25, 0.084812724474089274
DataValue, -2.0000000000000002E-07, 15.000440000000001, 0.4932, 5.836, 25, 0.084509938313913638
DataValue, 2.0000000000000002E-07, 15.000000000000002, 0.4953, 5.8325000000000005, 25, 0.084920702957565361
DataValue, -1.3E-06, 14.99994, 0.49510000000000004, 5.8335, 25, 0.084871860803977031
DataValue, 1.4000000000000002E-06, 14.999740000000001, 0.4934, 5.8195000000000006, 25, 0.084783916143998619
DataValue, -1.4000000000000002E-06, 14.999480000000002, 0.4944, 5.8025, 25, 0.085204653166738475
DataValue, -1.2000000000000002E-06, 14.999080000000001, 0.49570000000000003, 5.812, 25, 0.085289057123193388
DataValue, 0, 15.00026, 0.4965, 5.8415, 25, 0.084995292305058631
DataValue, -1.3E-06, 15.000300000000001, 0.49570000000000003, 5.8305, 25, 0.085018437526798746
DataValue, -1.6000000000000001E-06, 14.999640000000001, 0.4959, 5.819, 25, 0.085220828321017364
DataValue, -1.1E-06, 14.999920000000001, 0.4953, 5.819, 25, 0.085117717820931429
DataValue, -5.0000000000000008E-07, 15.000840000000002, 0.49500000000000005, 5.8295, 25, 0.084912942790976928
DataValue, -1.2000000000000002E-06, 14.999860000000002, 0.4954, 5.835, 25, 0.084901456726649532
DataValue, 1.1E-06, 14.999960000000002, 0.4963, 5.8225, 25, 0.085238299699441827
DataValue, -4.0000000000000003E-07, 14.999880000000001, 0.4954, 5.821, 25, 0.0851056519498368
DataValue, 2.0000000000000002E-07, 14.999920000000001, 0.4944, 5.8375, 25, 0.084693790149892936
DataValue, -8.0000000000000007E-07, 15.000420000000002, 0.49560000000000004, 5.8105, 25, 0.085293864555546
DataValue, -7.0000000000000007E-07, 14.999900000000002, 0.49420000000000003, 5.8260000000000005, 25, 0.0848266392035702
DataValue, 0, 15.000340000000001, 0.49450000000000005, 5.8445, 25, 0.084609461887244428
DataValue, 6.0000000000000008E-07, 15.000620000000001, 0.4928, 5.822, 25, 0.0846444520783236
DataValue, -1.2000000000000002E-06, 14.99994, 0.49520000000000003, 5.8265, 25, 0.084990989444778176
DataValue, -1.4000000000000002E-06, 14.999960000000002, 0.49510000000000004, 5.839, 25, 0.084791916424045211
DataValue, 0, 15.000160000000001, 0.49360000000000004, 5.825, 25, 0.0847381974248927
DataValue, -8.0000000000000007E-07, 14.99994, 0.49500000000000005, 5.805, 25, 0.085271317829457377
DataValue, -1.2000000000000002E-06, 14.999860000000002, 0.49450000000000005, 5.8225, 25, 0.0849291541434092
DataValue, -1.5E-06, 15.000140000000002, 0.4955, 5.8435, 25, 0.084795071446906817
DataValue, 4.0000000000000003E-07, 15.000960000000001, 0.4953, 5.8275, 25, 0.084993564993565
DataValue, -1.0000000000000001E-07, 15.00008, 0.49500000000000005, 5.7935, 25, 0.085440579960300342
DataValue, -6.0000000000000008E-07, 14.99918, 0.4943, 5.814, 25, 0.085018919848641211
DataValue, -1.3E-06, 15.000380000000002, 0.4938, 5.8495, 25, 0.084417471578767417
DataValue, 4.0000000000000003E-07, 15.000100000000002, 0.49450000000000005, 5.817, 25, 0.08500945504555614
DataValue, -1.3E-06, 14.999960000000002, 0.49520000000000003, 5.8175, 25, 0.085122475290073066
DataValue, -1.1E-06, 15.00054, 0.4948, 5.8235, 25, 0.084966085687301449
DataValue, -4.0000000000000003E-07, 14.999440000000002, 0.4948, 5.827, 25, 0.084915050626394373
DataValue, 0, 15.000380000000002, 0.49450000000000005, 5.8225, 25, 0.0849291541434092
DataValue, 9.0000000000000007E-07, 14.999480000000002, 0.49560000000000004, 5.8065, 25, 0.085352622061482836
DataValue, -1.2000000000000002E-06, 15.000160000000001, 0.49510000000000004, 5.8385, 25, 0.08479917787102853
DataValue, 1.3E-06, 15.00088, 0.49520000000000003, 5.8340000000000005, 25, 0.084881727802536847
DataValue, -1.1E-06, 14.999780000000001, 0.4933, 5.824, 25, 0.084701236263736268
DataValue, -2.0000000000000002E-07, 14.999600000000001, 0.4953, 5.808, 25, 0.085278925619834717
DataValue, -1.5E-06, 15.000300000000001, 0.4948, 5.839, 25, 0.084740537763315638
DataValue, -2.9E-06, 14.99984, 0.4959, 5.836, 25, 0.08497258396161754
DataValue, 2.0000000000000002E-07, 14.99998, 0.49570000000000003, 5.8285, 25, 0.085047610877584293
DataValue, -3.0000000000000004E-07, 15.00022, 0.49670000000000003, 5.813, 25, 0.085446413211766742
DataValue, 1.2000000000000002E-06, 15.000420000000002, 0.49570000000000003, 5.8205, 25, 0.085164504767631655
DataValue, -2.0000000000000002E-07, 14.999880000000001, 0.49400000000000005, 5.8285, 25, 0.084755940636527416
DataValue, -8.0000000000000007E-07, 14.99994, 0.4954, 5.8335, 25, 0.084923287906059824
DataValue, -4.0000000000000003E-07, 14.999300000000002, 0.49570000000000003, 5.8445, 25, 0.084814783129437937
DataValue, -5.0000000000000008E-07, 14.999820000000002, 0.4943, 5.836, 25, 0.084698423577793
DataValue, 2.0000000000000002E-07, 15.00008, 0.4948, 5.815, 25, 0.085090283748925188
DataValue, 1.2000000000000002E-06, 14.999960000000002, 0.49450000000000005, 5.8195000000000006, 25, 0.084972935819228462
DataValue, 2.0000000000000002E-07, 14.999960000000002, 0.4937, 5.8335, 25, 0.084631867660923982
DataValue, 6.0000000000000008E-07, 15.000200000000001, 0.4954, 5.8285, 25, 0.084996139658574249
DataValue, -1.0000000000000002E-06, 15.00026, 0.4955, 5.832, 25, 0.084962277091906721
DataValue, -5.0000000000000008E-07, 14.99994, 0.49620000000000003, 5.8395, 25, 0.084973028512715126
DataValue, -9.0000000000000007E-07, 14.999220000000001, 0.4954, 5.84, 25, 0.084828767123287671
DataValue, 4.0000000000000003E-07, 15.000280000000002, 0.49710000000000004, 5.811, 25, 0.085544656685596285
DataValue, -3.1000000000000004E-06, 15.000160000000001, 0.4963, 5.816, 25, 0.085333562585969747
DataValue, -2.5E-06, 14.999400000000001, 0.4953, 5.8095, 25, 0.0852569067906016
DataValue, -9.0000000000000007E-07, 14.999600000000001, 0.49510000000000004, 5.8335, 25, 0.084871860803977031
DataValue, -2.0000000000000002E-07, 14.999260000000001, 0.49770000000000003, 5.8395, 25, 0.0852298998201901
DataValue, -1.2000000000000002E-06, 15.000240000000002, 0.49510000000000004, 5.8395, 25, 0.084784656220566829
DataValue, -2.5E-06, 14.99932, 0.49570000000000003, 5.83, 25, 0.08502572898799314
DataValue, -4.0000000000000003E-07, 15.000060000000001, 0.4953, 5.809, 25, 0.0852642451368566
DataValue, -1.4000000000000002E-06, 14.999880000000001, 0.49520000000000003, 5.8225, 25, 0.085049377415199662
DataValue, -1.0000000000000002E-06, 14.999760000000002, 0.49560000000000004, 5.838, 25, 0.084892086330935257
DataValue, -1.0000000000000001E-07, 15.000660000000002, 0.49520000000000003, 5.838, 25, 0.08482356971565605
DataValue, 3.0000000000000004E-07, 15.000060000000001, 0.49520000000000003, 5.8315, 25, 0.084918117122524228
DataValue, -1.1E-06, 15.000160000000001, 0.4953, 5.843, 25, 0.084768098579496839
DataValue, -1.3E-06, 14.999400000000001, 0.4955, 5.8115000000000006, 25, 0.085261980555794536
DataValue, 1.5E-06, 15.000240000000002, 0.49560000000000004, 5.812, 25, 0.085271851342050939
DataValue, -5.0000000000000008E-07, 14.999300000000002, 0.4964, 5.823, 25, 0.08524815387257427
DataValue, 2.0000000000000002E-07, 15.000000000000002, 0.49610000000000004, 5.8195000000000006, 25, 0.085247873528653664
DataValue, 8.0000000000000007E-07, 15.00022, 0.49620000000000003, 5.8445, 25, 0.084900333647018572
DataValue, 1.1E-06, 15.000020000000001, 0.4953, 5.8275, 25, 0.084993564993565
DataValue, 1.2000000000000002E-06, 15.00022, 0.49620000000000003, 5.829, 25, 0.085126093669583125
DataValue, -1.1E-06, 14.999480000000002, 0.49420000000000003, 5.8355, 25, 0.084688544254991019
DataValue, -2.2E-06, 15.000200000000001, 0.4959, 5.8175, 25, 0.085242801890846584
DataValue, -1.3E-06, 15.000100000000002, 0.49360000000000004, 5.8255, 25, 0.08473092438417304
DataValue, 1.0000000000000002E-06, 15.000000000000002, 0.49510000000000004, 5.8340000000000005, 25, 0.084864586904353792
DataValue, 4.0000000000000003E-07, 15.000320000000002, 0.4939, 5.847, 25, 0.084470668719001191
DataValue, -8.0000000000000007E-07, 15.000000000000002, 0.4955, 5.8215, 25, 0.085115520054968641
DataValue, 1.9000000000000002E-06, 15.000340000000001, 0.49470000000000003, 5.831, 25, 0.084839650145772591
DataValue, -5.0000000000000008E-07, 15.000240000000002, 0.49620000000000003, 5.8275, 25, 0.085148005148005163
DataValue, 1.8000000000000001E-06, 15.00022, 0.49560000000000004, 5.84, 25, 0.084863013698630141
DataValue, -9.0000000000000007E-07, 14.999500000000001, 0.4937, 5.84, 25, 0.084537671232876713
DataValue, 0, 14.000480000000001, 0.009300000000000001, 0.1105, 25, 0.084162895927601816
DataValue, -1.7000000000000002E-06, 13.99984, 0.0263, 0.3035, 25, 0.086655683690280066
DataValue, 2.0000000000000003E-06, 13.999580000000002, 0.043300000000000005, 0.492, 25, 0.088008130081300831
DataValue, -5.0000000000000008E-07, 13.99998, 0.063800000000000009, 0.708, 25, 0.0901129943502825
DataValue, -1.0000000000000002E-06, 13.999960000000002, 0.0815, 0.9185, 25, 0.08873162765378334
DataValue, -1.3E-06, 14.000300000000001, 0.1009, 1.1235, 25, 0.089808633733867382
DataValue, -2.2E-06, 14.000200000000001, 0.11750000000000001, 1.3315000000000001, 25, 0.088246338715734132
DataValue, -1.4000000000000002E-06, 14.000160000000001, 0.1341, 1.5545, 25, 0.0862656802830492
DataValue, 1.0000000000000002E-06, 14.000000000000002, 0.154, 1.7535, 25, 0.087824351297405179
DataValue, -1.1E-06, 13.999640000000001, 0.17020000000000002, 1.94, 25, 0.087731958762886614
DataValue, -1.7000000000000002E-06, 14.00032, 0.1882, 2.134, 25, 0.088191190253045934
DataValue, 9.0000000000000007E-07, 14.00032, 0.2049, 2.35, 25, 0.087191489361702124
DataValue, -3.3E-06, 13.99984, 0.21960000000000002, 2.5380000000000003, 25, 0.086524822695035461
DataValue, 1.2000000000000002E-06, 14.000520000000002, 0.2391, 2.736, 25, 0.087390350877192977
DataValue, -2.0000000000000003E-06, 14.00032, 0.2561, 2.9155, 25, 0.087840850625964667
DataValue, -1.0000000000000001E-07, 13.999680000000002, 0.2727, 3.1405, 25, 0.086833306798280538
DataValue, -8.0000000000000007E-07, 13.99984, 0.2898, 3.33, 25, 0.087027027027027026
DataValue, -1.6000000000000001E-06, 14.000380000000002, 0.3079, 3.525, 25, 0.087347517730496455
DataValue, 0, 14.000160000000001, 0.324, 3.702, 25, 0.087520259319286878
DataValue, -1.8000000000000001E-06, 13.999960000000002, 0.3422, 3.9315, 25, 0.087040569757090167
DataValue, 3.0000000000000004E-07, 13.99998, 0.3587, 4.1235, 25, 0.0869892081969201
DataValue, 1.5E-06, 14.00026, 0.3754, 4.3065, 25, 0.087170556136073385
DataValue, -9.0000000000000007E-07, 14.00126, 0.3904, 4.5115, 25, 0.086534412058073815
DataValue, 6.0000000000000008E-07, 14.000580000000001, 0.40890000000000004, 4.68, 25, 0.087371794871794889
DataValue, 0, 13.999900000000002, 0.4244, 4.877, 25, 0.0870207094525323
DataValue, -1.9000000000000002E-06, 14.00018, 0.44060000000000005, 5.088, 25, 0.086595911949685536
DataValue, -4.0000000000000003E-07, 14.00004, 0.4541, 5.2315000000000005, 25, 0.08680110866864188
DataValue, -1.3E-06, 14.000300000000001, 0.46680000000000005, 5.3745, 25, 0.0868545911247558
DataValue, -1.0000000000000002E-06, 14.00074, 0.4767, 5.506, 25, 0.086578278241917911
DataValue, -3E-06, 13.999620000000002, 0.4844, 5.602, 25, 0.086469118172081388
DataValue, 1.0000000000000001E-07, 13.998800000000001, 0.49060000000000004, 5.671, 25, 0.086510315640980426
DataValue, -8.0000000000000007E-07, 14.0004, 0.4928, 5.6855, 25, 0.086676633541465126
DataValue, -2.2E-06, 14.00018, 0.4944, 5.735, 25, 0.086207497820401047
DataValue, -1.0000000000000002E-06, 14.000020000000001, 0.49670000000000003, 5.774, 25, 0.086023553862140639
DataValue, -3E-06, 13.999600000000001, 0.49660000000000004, 5.782, 25, 0.085887236250432389
DataValue, -1.7000000000000002E-06, 13.999500000000001, 0.4985, 5.7700000000000005, 25, 0.0863951473136915
DataValue, -8.0000000000000007E-07, 14.00012, 0.49870000000000003, 5.779, 25, 0.086295206783180492
DataValue, -7.0000000000000007E-07, 14.00018, 0.49610000000000004, 5.8005, 25, 0.085527109731919668
DataValue, -2.0000000000000003E-06, 13.999540000000001, 0.5006, 5.7925, 25, 0.086422097539922318
DataValue, 1.2000000000000002E-06, 13.999680000000002, 0.499, 5.765, 25, 0.086556808326105822
DataValue, -4.0000000000000003E-07, 14.00036, 0.50030000000000008, 5.813, 25, 0.086065714777223482
DataValue, 9.0000000000000007E-07, 13.999680000000002, 0.4993, 5.7885, 25, 0.086257234171201527
DataValue, -2.0000000000000003E-06, 13.999340000000002, 0.49860000000000004, 5.7855, 25, 0.086180969665543172
DataValue, -2.0000000000000002E-07, 14.000100000000002, 0.4995, 5.795, 25, 0.086194995685936152
DataValue, 0, 14.000340000000001, 0.4985, 5.8100000000000005, 25, 0.085800344234079159
DataValue, 8.0000000000000007E-07, 14.00088, 0.5012, 5.809, 25, 0.086279910483732139
DataValue, -1.5E-06, 13.999200000000002, 0.50140000000000007, 5.8020000000000005, 25, 0.0864184763874526
DataValue, -1.0000000000000002E-06, 13.999960000000002, 0.49910000000000004, 5.8025, 25, 0.086014648858250761
DataValue, -3.1000000000000004E-06, 13.99956, 0.49920000000000003, 5.803, 25, 0.086024470101671552
