
SetupTitle, Rds-Id
ApplicationTest, Rds-Id, Public
TestParameter, Name, Memo, Scale, HoldTime, PulseBase, PulseAvgCnt, Gate, VgStart, VgStop, VgStep, IgLimit, Source, MeasurementTime, Drain, IdStart, IdStop, IdLinearStep, VdLimit, VdStop, PulsePeriodMode, ManualPulsePeriod, PulseWidth
TestParameter, Value, , LINEAR, 0, 0, 1, SMU2:MC	MCSMU, 20, 5, 1, 0.1, GNDU:GND	GNDU, 1E-05, SMU3:UHC500	UHCU500A, 0.5, 30, 0.2, 2, 0, 0, 0.05, 0.0002
DutParameter, Name, Polarity, Temp, YAxisRdsMin, YAxisRdsMax
DutParameter, Value, 1, 25, 0.001, 1
MetaData, TestRecord.EntryPoint, true
MetaData, TestRecord.RecordTime, 04/17/2021 12:42:37
MetaData, TestRecord.TestTarget, 
MetaData, TestRecord.IterationIndex, 1
MetaData, TestRecord.Preservation, true
MetaData, TestRecord.Flag, 
MetaData, TestRecord.Remarks, 
MetaData, TestRecord.LinkKey, a6448629-f70c-4657-a598-f5bfba787968
Dimension1, 148, 148, 148, 148, 148, 148
Dimension2, 16, 16, 16, 16, 16, 16
DataName, Igate, Vgate, Vdrain, Idrain, Ta, Rds
DataValue, -5.6000000000000006E-06, 20.000140000000002, 0.0068000000000000005, 0.1095, 25, 0.062100456621004572
DataValue, -4.5E-06, 20, 0.0179, 0.269, 25, 0.066542750929368025
DataValue, -4.5E-06, 19.999760000000002, 0.0302, 0.47200000000000003, 25, 0.063983050847457631
DataValue, -4.4E-06, 20.00016, 0.0438, 0.6995, 25, 0.062616154395997131
DataValue, -4.1000000000000006E-06, 20.00026, 0.0582, 0.9425, 25, 0.061750663129973474
DataValue, -7.8E-06, 19.99932, 0.07060000000000001, 1.133, 25, 0.062312444836716691
DataValue, -5.7000000000000005E-06, 19.999740000000003, 0.0833, 1.3525, 25, 0.061589648798521253
DataValue, -4.3E-06, 19.999820000000003, 0.0947, 1.5525, 25, 0.060998389694041873
DataValue, -2.3E-06, 20.00072, 0.1086, 1.78, 25, 0.061011235955056177
DataValue, -3.8000000000000005E-06, 19.999360000000003, 0.1211, 1.975, 25, 0.061316455696202532
DataValue, -5.6000000000000006E-06, 20.00064, 0.1325, 2.179, 25, 0.060807709958696658
DataValue, -6.4000000000000006E-06, 20.00028, 0.1436, 2.3725, 25, 0.060526870389884087
DataValue, -5.6000000000000006E-06, 20.000300000000003, 0.1579, 2.594, 25, 0.060871241326137249
DataValue, -4.3E-06, 20.000140000000002, 0.16970000000000002, 2.8080000000000003, 25, 0.060434472934472933
DataValue, -4.7000000000000007E-06, 19.99962, 0.182, 2.9965, 25, 0.060737527114967459
DataValue, -4.4E-06, 20.000040000000002, 0.19310000000000002, 3.1905, 25, 0.060523428929634859
DataValue, -5.3E-06, 19.999920000000003, 0.2053, 3.391, 25, 0.060542612798584493
DataValue, -3.7E-06, 20.000500000000002, 0.2172, 3.6205000000000003, 25, 0.059991713851677939
DataValue, -3.7E-06, 19.99978, 0.22840000000000002, 3.791, 25, 0.060247955684515964
DataValue, -3.5000000000000004E-06, 19.99962, 0.2436, 3.987, 25, 0.061098570353649365
DataValue, -3.4000000000000005E-06, 19.999380000000002, 0.2521, 4.1825, 25, 0.060274955170352654
DataValue, -3.1000000000000004E-06, 19.9999, 0.2665, 4.3945, 25, 0.060643986801683931
DataValue, -6E-06, 19.99962, 0.278, 4.585, 25, 0.060632497273718652
DataValue, -5.0000000000000008E-07, 20.00006, 0.29050000000000004, 4.769, 25, 0.060914237785699314
DataValue, -2.7000000000000004E-06, 19.99968, 0.3015, 4.984, 25, 0.060493579454253613
DataValue, -3.6000000000000003E-06, 20.00024, 0.3114, 5.1705000000000005, 25, 0.060226283724978236
DataValue, -2.4000000000000003E-06, 20.000300000000003, 0.3229, 5.3605, 25, 0.0602369181979293
DataValue, -3.1000000000000004E-06, 20.000040000000002, 0.33640000000000003, 5.5440000000000005, 25, 0.060678210678210678
DataValue, -3.8000000000000005E-06, 20.000140000000002, 0.3467, 5.727, 25, 0.060537803387462896
DataValue, -3.6000000000000003E-06, 20.000500000000002, 0.35800000000000004, 5.9035, 25, 0.060641992038621161
DataValue, -3.4000000000000005E-06, 19.9995, 0.3643, 6.031, 25, 0.060404576355496606
DataValue, -6.3000000000000007E-06, 19.999360000000003, 0.3725, 6.151, 25, 0.060559258657128925
DataValue, -2.6E-06, 20.000120000000003, 0.3778, 6.2325, 25, 0.060617729643000405
DataValue, -2.2E-06, 20.00074, 0.3795, 6.284, 25, 0.060391470401018464
DataValue, -2.5E-06, 19.9998, 0.3826, 6.347, 25, 0.060280447455490778
DataValue, -4.6E-06, 20.000220000000002, 0.3836, 6.348, 25, 0.060428481411468178
DataValue, -3.7E-06, 19.999660000000002, 0.3851, 6.3775, 25, 0.060384163073304582
DataValue, -4.3E-06, 20.000120000000003, 0.38320000000000004, 6.385, 25, 0.060015661707126085
DataValue, -2.8000000000000003E-06, 19.999920000000003, 0.3836, 6.3855, 25, 0.060073604259650769
DataValue, -3.5000000000000004E-06, 19.9999, 0.38420000000000004, 6.3825, 25, 0.060195848021934985
DataValue, -1.5E-06, 20.00016, 0.38620000000000004, 6.432, 25, 0.060043532338308461
DataValue, -2.0000000000000003E-06, 20.00036, 0.3855, 6.409, 25, 0.06014978935871431
DataValue, -2.4000000000000003E-06, 20.00028, 0.38620000000000004, 6.416, 25, 0.060193266832917709
DataValue, -1.2000000000000002E-06, 20.000120000000003, 0.3865, 6.409, 25, 0.060305819940708383
DataValue, -3.1000000000000004E-06, 19.999560000000002, 0.38730000000000003, 6.412, 25, 0.060402370555208987
DataValue, -5.8E-06, 19.999200000000002, 0.3851, 6.4375, 25, 0.059821359223300972
DataValue, -1.1E-06, 19.9995, 0.3864, 6.418, 25, 0.060205671548769088
DataValue, -4.0000000000000007E-06, 20.000320000000002, 0.3876, 6.42, 25, 0.060373831775700937
DataValue, -2.6E-06, 20.00064, 0.3861, 6.4305, 25, 0.060041987403778863
DataValue, -3.7E-06, 19.99996, 0.3871, 6.4235, 25, 0.060263096442749284
DataValue, -3.3E-06, 20.00034, 0.38720000000000004, 6.4270000000000005, 25, 0.0602458378714797
DataValue, -2.7000000000000004E-06, 19.99924, 0.3864, 6.418, 25, 0.060205671548769088
DataValue, -4.8000000000000006E-06, 19.999840000000003, 0.387, 6.4350000000000005, 25, 0.060139860139860134
DataValue, -6E-06, 19.99978, 0.3861, 6.3995, 25, 0.060332838503008052
DataValue, -2.2E-06, 20.000400000000003, 0.38520000000000004, 6.438, 25, 0.0598322460391426
DataValue, -5.4000000000000008E-06, 19.99972, 0.3866, 6.4135, 25, 0.060279098776019335
DataValue, -1.8000000000000001E-06, 20.00056, 0.38770000000000004, 6.424, 25, 0.06035180572851806
DataValue, -3.6000000000000003E-06, 19.999840000000003, 0.38720000000000004, 6.437, 25, 0.060152244834550263
DataValue, -2.3E-06, 20.000680000000003, 0.38730000000000003, 6.4335, 25, 0.060200512940079276
DataValue, -3.9E-06, 20, 0.3875, 6.4205000000000005, 25, 0.060353555019079505
DataValue, -6.3000000000000007E-06, 19.9996, 0.38720000000000004, 6.441, 25, 0.060114888992392493
DataValue, -3E-06, 20.000120000000003, 0.3849, 6.4395, 25, 0.059771721406941536
DataValue, -1.3E-06, 20.00008, 0.38770000000000004, 6.446, 25, 0.060145826869376369
DataValue, -3.1000000000000004E-06, 20.00016, 0.3884, 6.426, 25, 0.060441954559601621
DataValue, -3E-06, 19.9999, 0.3871, 6.446, 25, 0.060052745888923363
DataValue, -3.9E-06, 19.999740000000003, 0.38530000000000003, 6.424, 25, 0.059978206724782067
DataValue, -4.4E-06, 19.999940000000002, 0.38880000000000003, 6.4375, 25, 0.060396116504854373
DataValue, -2.1000000000000002E-06, 19.99998, 0.3871, 6.424, 25, 0.060258405977584056
DataValue, -3.6000000000000003E-06, 20.000200000000003, 0.38720000000000004, 6.4430000000000005, 25, 0.060096228465000776
DataValue, -2.3E-06, 19.99952, 0.385, 6.425, 25, 0.05992217898832685
DataValue, -3.4000000000000005E-06, 19.99996, 0.3879, 6.438, 25, 0.060251630941286119
DataValue, -2.6E-06, 19.99978, 0.3885, 6.4225, 25, 0.060490463215258854
DataValue, -2.2E-06, 19.99942, 0.3886, 6.4445000000000006, 25, 0.060299480176895022
DataValue, -4.1000000000000006E-06, 19.99988, 0.3875, 6.4190000000000005, 25, 0.060367658513787191
DataValue, -4.0000000000000007E-06, 20.00044, 0.3875, 6.4430000000000005, 25, 0.060142790625485019
DataValue, -2.0000000000000003E-06, 19.9999, 0.38570000000000004, 6.4165, 25, 0.060110652224733115
DataValue, -2.4000000000000003E-06, 20.00034, 0.3864, 6.4345, 25, 0.060051286036211057
DataValue, -3.5000000000000004E-06, 20.000420000000002, 0.38680000000000003, 6.4155, 25, 0.060291481568077322
DataValue, -5.1E-06, 19.999260000000003, 0.3861, 6.4505, 25, 0.059855825129834894
DataValue, -7.500000000000001E-06, 19.999920000000003, 0.3876, 6.437, 25, 0.060214385583346276
DataValue, 1.0000000000000001E-07, 20.000040000000002, 0.387, 6.4455, 25, 0.060041889690481735
DataValue, -3.2000000000000003E-06, 20.00036, 0.38770000000000004, 6.4430000000000005, 25, 0.060173832065807856
DataValue, -5.6000000000000006E-06, 19.9996, 0.3856, 6.4285000000000005, 25, 0.059982888698763316
DataValue, -1.8000000000000001E-06, 19.99944, 0.3871, 6.449, 25, 0.06002481004806947
DataValue, -3.4000000000000005E-06, 20.00034, 0.3876, 6.4165, 25, 0.060406763812047064
DataValue, -5E-06, 19.999940000000002, 0.38980000000000004, 6.4375, 25, 0.060551456310679617
DataValue, -8.0000000000000007E-07, 19.99958, 0.38670000000000004, 6.4505, 25, 0.059948841175102713
DataValue, -4.9000000000000005E-06, 19.999460000000003, 0.3885, 6.4285000000000005, 25, 0.0604340048222758
DataValue, -3.4000000000000005E-06, 20.000220000000002, 0.38720000000000004, 6.455, 25, 0.059984508133230058
DataValue, -6E-06, 20, 0.38730000000000003, 6.4355, 25, 0.060181804055628937
DataValue, -5.1E-06, 19.999460000000003, 0.3866, 6.441, 25, 0.060021735755317496
DataValue, -4.3E-06, 20.000200000000003, 0.3865, 6.4585, 25, 0.05984361693891771
DataValue, -3.3E-06, 19.99972, 0.38770000000000004, 6.4175, 25, 0.060412933385274641
DataValue, -4.7000000000000007E-06, 20.00016, 0.387, 6.4495000000000005, 25, 0.060004651523373906
DataValue, -1.7000000000000002E-06, 20.000200000000003, 0.38730000000000003, 6.43, 25, 0.060233281493001563
DataValue, -1.6000000000000001E-06, 19.999080000000003, 0.3866, 6.4335, 25, 0.060091707468718419
DataValue, 2.0000000000000002E-07, 19.999820000000003, 0.388, 6.4425, 25, 0.060225067908420644
DataValue, -5.2E-06, 19.999360000000003, 0.3869, 6.428, 25, 0.060189794648413196
DataValue, -2.7000000000000004E-06, 19.99968, 0.3875, 6.4365000000000006, 25, 0.060203526761438669
DataValue, -2.7000000000000004E-06, 20.000300000000003, 0.3876, 6.4265, 25, 0.060312767447288571
DataValue, -1.8000000000000001E-06, 19.999560000000002, 0.3881, 6.4255, 25, 0.060399968874017579
DataValue, -6.3000000000000007E-06, 19.999740000000003, 0.38870000000000005, 6.432, 25, 0.060432213930348262
DataValue, -3.1000000000000004E-06, 20.000760000000003, 0.3875, 6.438, 25, 0.060189499844672263
DataValue, -2.4000000000000003E-06, 20.000020000000003, 0.388, 6.4305, 25, 0.060337454319259777
DataValue, -6.6E-06, 20.00062, 0.3881, 6.457, 25, 0.060105312064426208
DataValue, -2.6E-06, 19.999760000000002, 0.38820000000000005, 6.423, 25, 0.060439047174217664
DataValue, -5.4000000000000008E-06, 20.000220000000002, 0.3876, 6.448, 25, 0.060111662531017365
DataValue, -6E-06, 19.999200000000002, 0.387, 6.42, 25, 0.0602803738317757
DataValue, -4.1000000000000006E-06, 19.999840000000003, 0.3854, 6.436, 25, 0.059881914232442518
DataValue, -4.2000000000000004E-06, 19.999840000000003, 0.38820000000000005, 6.4475, 25, 0.060209383481969768
DataValue, -2.9E-06, 20.00018, 0.38680000000000003, 6.4235, 25, 0.06021639293220208
DataValue, -3.4000000000000005E-06, 20.00064, 0.3874, 6.4435, 25, 0.060122604174749752
DataValue, -1.4000000000000002E-06, 20.00046, 0.386, 6.434, 25, 0.059993783027665525
DataValue, -3.6000000000000003E-06, 19.99978, 0.3869, 6.438, 25, 0.060096303199751483
DataValue, -1.5E-06, 20.000700000000002, 0.3865, 6.422, 25, 0.060183743382123955
DataValue, -1.6000000000000001E-06, 19.999920000000003, 0.3866, 6.4175, 25, 0.060241527074405915
DataValue, -3.8000000000000005E-06, 20.00056, 0.388, 6.448, 25, 0.060173697270471463
DataValue, -3E-06, 19.999840000000003, 0.3861, 6.426, 25, 0.06008403361344538
DataValue, -7.1000000000000006E-06, 19.9994, 0.387, 6.44, 25, 0.060093167701863355
DataValue, -2.9E-06, 19.999820000000003, 0.38780000000000003, 6.438, 25, 0.060236098167132657
DataValue, -2.8000000000000003E-06, 20.000420000000002, 0.3869, 6.437, 25, 0.060105639272953239
DataValue, -3.5000000000000004E-06, 20.000600000000002, 0.38830000000000003, 6.4350000000000005, 25, 0.060341880341880344
DataValue, -2.3E-06, 20.00046, 0.38630000000000003, 6.4345, 25, 0.0600357448131168
DataValue, -4.5E-06, 19.99962, 0.3895, 6.4270000000000005, 25, 0.060603703127431144
DataValue, -3.9E-06, 19.99988, 0.38730000000000003, 6.4425, 25, 0.060116414435389995
DataValue, -1.7000000000000002E-06, 20.000040000000002, 0.38680000000000003, 6.423, 25, 0.060221080491981945
DataValue, -5.3E-06, 19.9995, 0.3839, 6.4255, 25, 0.059746323243327369
DataValue, -3.4000000000000005E-06, 19.999560000000002, 0.3859, 6.4335, 25, 0.059982901997357584
DataValue, -2.8000000000000003E-06, 19.9999, 0.38670000000000004, 6.4475, 25, 0.059976735168670033
DataValue, -5.6000000000000006E-06, 20.000680000000003, 0.38730000000000003, 6.4355, 25, 0.060181804055628937
DataValue, -3.3E-06, 20.000880000000002, 0.3866, 6.421, 25, 0.060208690235165861
DataValue, -3.5000000000000004E-06, 20, 0.386, 6.4445000000000006, 25, 0.059896035379005348
DataValue, -6.3000000000000007E-06, 20.00016, 0.3866, 6.432, 25, 0.060105721393034821
DataValue, -5.3E-06, 19.99952, 0.3876, 6.445, 25, 0.060139643134212564
DataValue, -3.2000000000000003E-06, 20.00062, 0.38770000000000004, 6.4505, 25, 0.060103867917215725
DataValue, -2.9E-06, 19.9996, 0.3865, 6.4205000000000005, 25, 0.060197803909352851
DataValue, -3E-06, 20.00006, 0.38670000000000004, 6.437, 25, 0.060074568898555232
DataValue, -5.8E-06, 19.999260000000003, 0.38820000000000005, 6.4510000000000005, 25, 0.060176716788094872
DataValue, -4.9000000000000005E-06, 20.00028, 0.3866, 6.429, 25, 0.060133768859853783
DataValue, -3.5000000000000004E-06, 20.000580000000003, 0.3861, 6.4345, 25, 0.06000466236692828
DataValue, -1.6000000000000001E-06, 20.000200000000003, 0.3859, 6.4425, 25, 0.059899107489328682
DataValue, -1.3E-06, 20.00054, 0.38670000000000004, 6.441, 25, 0.06003726129483
DataValue, -3.9E-06, 19.99978, 0.38480000000000003, 6.445, 25, 0.059705197827773469
DataValue, -4.7000000000000007E-06, 19.99986, 0.38530000000000003, 6.4135, 25, 0.0600764013409215
DataValue, -3.6000000000000003E-06, 20.000320000000002, 0.38730000000000003, 6.4590000000000005, 25, 0.059962842545285645
DataValue, -2.1000000000000002E-06, 20.00062, 0.3884, 6.433, 25, 0.060376185294574856
DataValue, -4.0000000000000007E-06, 20.000040000000002, 0.388, 6.4465, 25, 0.060187698751260371
DataValue, -4.0000000000000007E-06, 20.000040000000002, 0.3861, 6.4365000000000006, 25, 0.059986017245397337
DataValue, -3.8000000000000005E-06, 18.99944, 0.0046, 0.1015, 25, 0.045320197044334973
DataValue, -4.1000000000000006E-06, 18.99922, 0.015300000000000001, 0.271, 25, 0.056457564575645755
DataValue, -3.5000000000000004E-06, 18.999560000000002, 0.029400000000000003, 0.484, 25, 0.060743801652892566
DataValue, -4.2000000000000004E-06, 18.999920000000003, 0.0444, 0.713, 25, 0.06227208976157083
DataValue, -3.4000000000000005E-06, 18.99942, 0.057600000000000005, 0.9145, 25, 0.062985237834882454
DataValue, -5.7000000000000005E-06, 18.999940000000002, 0.070500000000000007, 1.1575, 25, 0.06090712742980562
DataValue, -4.1000000000000006E-06, 18.99942, 0.08370000000000001, 1.3675, 25, 0.061206581352833647
DataValue, -5.0000000000000008E-07, 18.999840000000003, 0.0978, 1.5635000000000001, 25, 0.062551966741285575
DataValue, -4.4E-06, 18.999640000000003, 0.1076, 1.77, 25, 0.0607909604519774
DataValue, -1.4000000000000002E-06, 18.99998, 0.12000000000000001, 2.0015, 25, 0.059955033724706473
DataValue, -5.2E-06, 18.999380000000002, 0.1333, 2.174, 25, 0.061315547378104879
DataValue, -2.1000000000000002E-06, 18.999760000000002, 0.1447, 2.378, 25, 0.060849453322119426
DataValue, -2.4000000000000003E-06, 18.999640000000003, 0.1575, 2.614, 25, 0.060252486610558535
DataValue, -4.8000000000000006E-06, 18.999920000000003, 0.1716, 2.7935, 25, 0.061428315732951495
DataValue, -5.9E-06, 18.99958, 0.1839, 2.989, 25, 0.06152559384409502
DataValue, -1.0000000000000001E-07, 19.000100000000003, 0.1945, 3.211, 25, 0.060573030208657744
DataValue, -3E-06, 18.9997, 0.2086, 3.403, 25, 0.061298853952394948
DataValue, -2.7000000000000004E-06, 19.00052, 0.2199, 3.5700000000000003, 25, 0.061596638655462187
DataValue, -3.2000000000000003E-06, 18.999640000000003, 0.23220000000000002, 3.814, 25, 0.060880964866282125
DataValue, -3.8000000000000005E-06, 19.00016, 0.2449, 3.9855, 25, 0.061447748086814705
DataValue, -3.4000000000000005E-06, 19.00006, 0.25670000000000004, 4.2015, 25, 0.061097227180768779
DataValue, -3E-06, 19.000220000000002, 0.2669, 4.381, 25, 0.060922163889522943
DataValue, -3E-06, 18.99958, 0.2791, 4.5805, 25, 0.060932212640541432
DataValue, -3.2000000000000003E-06, 18.99958, 0.2922, 4.7905, 25, 0.060995720697213242
DataValue, -4.0000000000000007E-06, 18.9997, 0.3032, 4.9595, 25, 0.06113519508014921
DataValue, -6.1000000000000009E-06, 19.000100000000003, 0.3146, 5.151, 25, 0.061075519316637544
DataValue, -3.2000000000000003E-06, 18.99972, 0.3271, 5.383, 25, 0.06076537246888352
DataValue, -2.8000000000000003E-06, 19.000200000000003, 0.3393, 5.5365, 25, 0.061284204822541315
DataValue, -4.6E-06, 18.99988, 0.3496, 5.7455, 25, 0.060847619876425035
DataValue, -5.1E-06, 18.9996, 0.3599, 5.8945, 25, 0.061056917465433881
DataValue, -1.3E-06, 19.000420000000002, 0.3695, 6.0295000000000005, 25, 0.061282030019072883
DataValue, -3.5000000000000004E-06, 19.00044, 0.37420000000000003, 6.1435, 25, 0.060909904777407015
DataValue, -1.1E-06, 19.001060000000003, 0.38070000000000004, 6.2225, 25, 0.061181197267979111
DataValue, -5.9E-06, 18.99962, 0.38220000000000004, 6.3, 25, 0.060666666666666674
DataValue, -3.8000000000000005E-06, 18.999760000000002, 0.38370000000000004, 6.3195000000000006, 25, 0.060716828863042964
DataValue, -1.2000000000000002E-06, 18.999840000000003, 0.38620000000000004, 6.3635, 25, 0.060689871925826984
DataValue, -3.9E-06, 19.000400000000003, 0.38580000000000003, 6.384, 25, 0.060432330827067671
DataValue, -3.3E-06, 19.00038, 0.3871, 6.3705, 25, 0.060764461188289771
DataValue, -3.3E-06, 18.99996, 0.38630000000000003, 6.3785, 25, 0.060562828251156234
DataValue, -6.2000000000000008E-06, 19.00028, 0.38870000000000005, 6.4105, 25, 0.0606348958739568
DataValue, -4.1000000000000006E-06, 18.99886, 0.3874, 6.3955, 25, 0.060573840981940429
DataValue, -1.7000000000000002E-06, 19.00082, 0.3899, 6.405, 25, 0.060874316939890712
DataValue, -6.2000000000000008E-06, 18.999640000000003, 0.38830000000000003, 6.412, 25, 0.060558328134747354
DataValue, -4.2000000000000004E-06, 18.999480000000002, 0.3891, 6.417, 25, 0.060635811126694722
DataValue, -5.2E-06, 18.99916, 0.3889, 6.399, 25, 0.060775121112673858
DataValue, -1.7000000000000002E-06, 19.000140000000002, 0.38830000000000003, 6.4205000000000005, 25, 0.060478155906860835
DataValue, -1.7000000000000002E-06, 19.000300000000003, 0.38930000000000003, 6.429, 25, 0.060553740861720336
DataValue, -3.8000000000000005E-06, 18.99978, 0.3886, 6.417, 25, 0.06055789309646252
DataValue, -1.1E-06, 19, 0.3911, 6.4065, 25, 0.061047373761023954
DataValue, -2.4000000000000003E-06, 18.999640000000003, 0.3891, 6.4335, 25, 0.0604802984378643
DataValue, -6.0000000000000008E-07, 19.00006, 0.389, 6.4195, 25, 0.060596619674429475
DataValue, -4.4E-06, 18.999760000000002, 0.3889, 6.426, 25, 0.060519763460939936
DataValue, -4.0000000000000007E-06, 18.999820000000003, 0.3895, 6.4105, 25, 0.060759691131736994
DataValue, -3.7E-06, 19.00056, 0.3899, 6.425, 25, 0.060684824902723741
DataValue, -1.9000000000000002E-06, 19.000300000000003, 0.3896, 6.4345, 25, 0.060548605175227289
DataValue, -3.7E-06, 19.00024, 0.3902, 6.441, 25, 0.06058065517776743
DataValue, -4.9000000000000005E-06, 19.00024, 0.3904, 6.408, 25, 0.060923845193508117
DataValue, -1.6000000000000001E-06, 19.00062, 0.3909, 6.4205000000000005, 25, 0.060883108792150142
