
SetupTitle, ID-VGS
PrimitiveTest, Multi Channel I/V Sweep
TestParameter, Channel.UnitType, SMU, SMU
TestParameter, Channel.Unit, SMU2:MC, SMU3:UHC500
TestParameter, Channel.IName, IG, ID
TestParameter, Channel.VName, VGS, VDS
TestParameter, Channel.Mode, VPULSE, VPULSE
TestParameter, Channel.Func, VAR1, CONST
TestParameter, Channel.Index, 
TestParameter, Channel.Time, 
TestParameter, Measurement.Port.Unit, SMU2:MC, SMU3:UHC500
TestParameter, Measurement.Port.SeriesResistor, NONE, NONE
TestParameter, Measurement.Port.Filter, OFF, OFF
TestParameter, Measurement.Port.OutputVoltageComparison, 0, 0
TestParameter, Measurement.Primary.Start, 0
TestParameter, Measurement.Primary.Stop, 10
TestParameter, Measurement.Primary.Compliance, 0.099999999999999992
TestParameter, Measurement.Primary.PowerCompliance, 0
TestParameter, Measurement.Primary.Locus, Single
TestParameter, Measurement.Primary.Scale, LINEAR
TestParameter, Measurement.Primary.Count, 2001
TestParameter, Measurement.Aborting.Condition, CONTINUE AT ANY
TestParameter, Measurement.PostOutput.Value, START
TestParameter, Measurement.PostOutput.Retention, OFF
TestParameter, Measurement.Bias.Source, 0, 3
TestParameter, Measurement.Bias.Compliance, 0.099999999999999992, 5
TestParameter, Measurement.Pulse.Delay, 0, 9.9999999999999991E-05
TestParameter, Measurement.Pulse.Duration, 0.001, 4.9999999999999996E-05
TestParameter, Measurement.Pulse.Base, 0, 0
TestParameter, Measurement.Pulse.Period, 0
TestParameter, Measurement.Pulse.MeasurementDelay, 0
TestParameter, Measurement.Pulse.AveragingCount, 1
TestParameter, Measurement.Monitor.Unit, SMU2:MC, SMU3:UHC500
TestParameter, Measurement.Monitor.Adc, HS ADC, HS ADC
TestParameter, Measurement.Monitor.Measurement, Force and Compliance Sides, Force and Compliance Sides
TestParameter, Measurement.Timing.Hold, 0
TestParameter, Measurement.Timing.Delay, 0
TestParameter, Measurement.Adc.HighSpeed.Mode, TIME
TestParameter, Measurement.Adc.HighSpeed.Coeff, 9.9999999999999991E-06
TestParameter, Measurement.Adc.HighResolution.AutoZero, OFF
TestParameter, Measurement.Adc.HighResolution.Mode, AUTO
TestParameter, Measurement.Adc.HighResolution.Coeff, 6
TestParameter, Measurement.WaitTime.Source.Coeff, 1
TestParameter, Measurement.WaitTime.Source.Offset, 0
TestParameter, Measurement.WaitTime.Monitor.Coeff, 1
TestParameter, Measurement.WaitTime.Monitor.Offset, 0
TestParameter, Output.Graph.Enabled, true
TestParameter, Output.Graph.AutoScaling, false
TestParameter, Output.Graph.XAxis.Data, VGS
TestParameter, Output.Graph.XAxis.Scale, Linear
TestParameter, Output.Graph.XAxis.Left, -5.4
TestParameter, Output.Graph.XAxis.Right, 12.6
TestParameter, Output.Graph.XAxis.RunTimeAutoScale, false
TestParameter, Output.Graph.YAxis.Data, ID
TestParameter, Output.Graph.YAxis.Scale, Linear
TestParameter, Output.Graph.YAxis.Bottom, 0
TestParameter, Output.Graph.YAxis.Top, 10
TestParameter, Output.Graph.YAxis.Group, 
TestParameter, Output.Graph.YAxis.RunTimeAutoScale, false
TestParameter, Output.List.Data, VGS, ID
TestParameter, AutoAnalysis.Interpolation, false
TestParameter, AutoAnalysis.Line1.Enabled, false
TestParameter, AutoAnalysis.Line1.Type, 1
TestParameter, AutoAnalysis.Line1.Fix, True
TestParameter, AutoAnalysis.Line1.YAxis, 0
TestParameter, AutoAnalysis.Line1.Point1.Type, 0
TestParameter, AutoAnalysis.Line1.Point1.XY.X, 
TestParameter, AutoAnalysis.Line1.Point1.XY.Y, 
TestParameter, AutoAnalysis.Line1.Point1.Data.Var, 
TestParameter, AutoAnalysis.Line1.Point1.Data.Condition, 
TestParameter, AutoAnalysis.Line1.Point1.Data.Start, false
TestParameter, AutoAnalysis.Line1.Point1.Data.StartVar, 
TestParameter, AutoAnalysis.Line1.Point1.Data.StartCondition, 
TestParameter, AutoAnalysis.Line1.Point2.Type, 0
TestParameter, AutoAnalysis.Line1.Point2.XY.X, 
TestParameter, AutoAnalysis.Line1.Point2.XY.Y, 
TestParameter, AutoAnalysis.Line1.Point2.Data.Var, 
TestParameter, AutoAnalysis.Line1.Point2.Data.Condition, 
TestParameter, AutoAnalysis.Line1.Point2.Data.Start, false
TestParameter, AutoAnalysis.Line1.Point2.Data.StartVar, 
TestParameter, AutoAnalysis.Line1.Point2.Data.StartCondition, 
TestParameter, AutoAnalysis.Line1.GradientExpr, 0
TestParameter, AutoAnalysis.Line2.Enabled, false
TestParameter, AutoAnalysis.Line2.Type, 1
TestParameter, AutoAnalysis.Line2.Fix, True
TestParameter, AutoAnalysis.Line2.YAxis, 0
TestParameter, AutoAnalysis.Line2.Point1.Type, 0
TestParameter, AutoAnalysis.Line2.Point1.XY.X, 
TestParameter, AutoAnalysis.Line2.Point1.XY.Y, 
TestParameter, AutoAnalysis.Line2.Point1.Data.Var, 
TestParameter, AutoAnalysis.Line2.Point1.Data.Condition, 
TestParameter, AutoAnalysis.Line2.Point1.Data.Start, false
TestParameter, AutoAnalysis.Line2.Point1.Data.StartVar, 
TestParameter, AutoAnalysis.Line2.Point1.Data.StartCondition, 
TestParameter, AutoAnalysis.Line2.Point2.Type, 0
TestParameter, AutoAnalysis.Line2.Point2.XY.X, 
TestParameter, AutoAnalysis.Line2.Point2.XY.Y, 
TestParameter, AutoAnalysis.Line2.Point2.Data.Var, 
TestParameter, AutoAnalysis.Line2.Point2.Data.Condition, 
TestParameter, AutoAnalysis.Line2.Point2.Data.Start, false
TestParameter, AutoAnalysis.Line2.Point2.Data.StartVar, 
TestParameter, AutoAnalysis.Line2.Point2.Data.StartCondition, 
TestParameter, AutoAnalysis.Line2.GradientExpr, 0
TestParameter, AutoAnalysis.Marker.Enabled, false
TestParameter, AutoAnalysis.Marker.Data.Var, 
TestParameter, AutoAnalysis.Marker.Data.Condition, 
TestParameter, AutoAnalysis.Marker.Data.Start, false
TestParameter, AutoAnalysis.Marker.Data.StartVar, 
TestParameter, AutoAnalysis.Marker.Data.StartCondition, 
MetaData, TestRecord.EntryPoint, true
MetaData, TestRecord.RecordTime, 04/20/2021 10:44:16
MetaData, TestRecord.TestTarget, 
MetaData, TestRecord.IterationIndex, 1
MetaData, TestRecord.Preservation, true
MetaData, TestRecord.Flag, 
MetaData, TestRecord.Remarks, 
MetaData, TestRecord.LinkKey, 474ed324-1d5e-485b-b7f8-4caf76fabeca
Dimension1, 2001, 2001
Dimension2, 1, 1
DataName, VGS, ID
DataValue, -0.0004, -0.006
DataValue, 0.0047, 0.01
DataValue, 0.0105, -0.018000000000000002
DataValue, 0.0154, -0.004
DataValue, 0.020200000000000003, -0.018000000000000002
DataValue, 0.025160000000000002, 0.004
DataValue, 0.030320000000000003, -0.008
DataValue, 0.0349, 0.0090000000000000011
DataValue, 0.04034, -0.0155
DataValue, 0.045520000000000005, 0.0005
DataValue, 0.05016, -0.0090000000000000011
DataValue, 0.054820000000000008, 0.0045000000000000005
DataValue, 0.05956, -0.0205
DataValue, 0.06572, 0.007
DataValue, 0.069960000000000008, -0.029
DataValue, 0.074900000000000008, 0.013000000000000001
DataValue, 0.080580000000000013, -0.022
DataValue, 0.08504, 0.0095
DataValue, 0.089640000000000011, -0.005
DataValue, 0.094500000000000015, -0.001
DataValue, 0.099940000000000015, -0.0075
DataValue, 0.10464000000000001, -0.006
DataValue, 0.11000000000000001, 0.003
DataValue, 0.11490000000000002, -0.0145
DataValue, 0.12048, 0.008
DataValue, 0.12494000000000001, -0.008
DataValue, 0.1303, -0.0125
DataValue, 0.13504000000000002, -0.023
DataValue, 0.14076000000000002, 0.0095
DataValue, 0.14536000000000002, -0.002
DataValue, 0.15006, 0.0155
DataValue, 0.15468, -0.012
DataValue, 0.15998, -0.003
DataValue, 0.16452000000000003, -0.0085
DataValue, 0.16992000000000002, -0.004
DataValue, 0.17516, 0.002
DataValue, 0.17978000000000002, 0.015
DataValue, 0.1847, -0.001
DataValue, 0.19014, 0.007
DataValue, 0.19462000000000002, -0.001
DataValue, 0.20020000000000002, -0.017
DataValue, 0.20548000000000002, 0
DataValue, 0.20980000000000001, -0.0065000000000000006
DataValue, 0.21524000000000002, 0.002
DataValue, 0.2207, -0.0175
DataValue, 0.22492, 0.0065000000000000006
DataValue, 0.23044, -0.01
DataValue, 0.23462000000000002, -0.0015
DataValue, 0.23970000000000002, -0.0025
DataValue, 0.24546, 0
DataValue, 0.2503, -0.01
DataValue, 0.25536000000000003, -0.0135
DataValue, 0.2605, -0.003
DataValue, 0.2649, -0.021
DataValue, 0.26926, 0.002
DataValue, 0.27482, -0.032
DataValue, 0.27980000000000005, -0.005
DataValue, 0.28526, -0.016
DataValue, 0.29044000000000003, 0.0015
DataValue, 0.29516000000000003, -0.016
DataValue, 0.30014, 0.008
DataValue, 0.30498000000000003, -0.012
DataValue, 0.31012, 0.008
DataValue, 0.31474, -0.012
DataValue, 0.31988000000000005, 0.0075
DataValue, 0.32456, -0.0025
DataValue, 0.32964000000000004, -0.024
DataValue, 0.33506, 0.0015
DataValue, 0.34022, -0.01
DataValue, 0.34480000000000005, -0.001
DataValue, 0.34990000000000004, -0.0205
DataValue, 0.35458, -0.007
DataValue, 0.36006000000000005, -0.0305
DataValue, 0.36536, 0.0015
DataValue, 0.37022000000000005, -0.0135
DataValue, 0.3753, -0.006
DataValue, 0.37956, 0.0065000000000000006
DataValue, 0.38530000000000003, -0.0115
DataValue, 0.39042000000000004, 0.0105
DataValue, 0.39520000000000005, -0.021
DataValue, 0.39998000000000006, 0.008
DataValue, 0.40498, -0.0095
DataValue, 0.41008000000000006, 0.0045000000000000005
DataValue, 0.41528000000000004, 0
DataValue, 0.4207, -0.0065000000000000006
DataValue, 0.42556000000000005, -0.0135
DataValue, 0.43016000000000004, 0.003
DataValue, 0.43450000000000005, -0.021500000000000002
DataValue, 0.44010000000000005, -0.0115
DataValue, 0.44544000000000006, -0.003
DataValue, 0.44976000000000005, -0.007
DataValue, 0.45436000000000004, -0.0025
DataValue, 0.45960000000000006, -0.007
DataValue, 0.46504000000000006, 0
DataValue, 0.47012000000000004, -0.0235
DataValue, 0.47484000000000004, 0
DataValue, 0.47954, -0.0185
DataValue, 0.48508000000000007, 0.001
DataValue, 0.48908, -0.014
DataValue, 0.49528000000000005, -0.006
DataValue, 0.49984000000000006, -0.016
DataValue, 0.50540000000000007, -0.0175
DataValue, 0.50988, -0.0035
DataValue, 0.51440000000000008, 0.0005
DataValue, 0.51986, -0.002
DataValue, 0.52472000000000008, -0.0285
DataValue, 0.52972000000000008, 0.018000000000000002
DataValue, 0.53442, -0.0125
DataValue, 0.54080000000000006, 0.012
DataValue, 0.54488, -0.004
DataValue, 0.5499, 0.0025
DataValue, 0.5544, -0.0045000000000000005
DataValue, 0.55932, -0.0135
DataValue, 0.56474, 0.001
DataValue, 0.5702600000000001, -0.021500000000000002
DataValue, 0.57484, 0.012
DataValue, 0.5799200000000001, -0.025
DataValue, 0.58484, 0.0015
DataValue, 0.59056000000000008, -0.0125
DataValue, 0.59526, -0.0065000000000000006
DataValue, 0.6001200000000001, 0.002
DataValue, 0.60466000000000009, 0.0035
DataValue, 0.61010000000000009, 0.0105
DataValue, 0.61482, -0.028
DataValue, 0.62036, -0.0015
DataValue, 0.62538, -0.0085
DataValue, 0.63074000000000008, 0.001
DataValue, 0.63536, -0.005
DataValue, 0.64008000000000009, -0.0025
DataValue, 0.64516000000000007, -0.0005
DataValue, 0.64992, -0.013000000000000001
DataValue, 0.6549, 0.0045000000000000005
DataValue, 0.66004000000000007, -0.012
DataValue, 0.66542, 0.0125
DataValue, 0.66998, 0.0065000000000000006
DataValue, 0.67480000000000007, 0.0125
DataValue, 0.68018, 0.0015
DataValue, 0.68566, 0.0135
DataValue, 0.6903800000000001, -0.0155
DataValue, 0.69474, -0.002
DataValue, 0.69924000000000008, 0.006
DataValue, 0.70452, -0.006
DataValue, 0.71008, 0
DataValue, 0.7155, -0.018000000000000002
DataValue, 0.71984, 0.0065000000000000006
DataValue, 0.72528, -0.0105
DataValue, 0.72972, 0.003
DataValue, 0.73492, -0.0105
DataValue, 0.74004, -0.0005
DataValue, 0.74502, -0.0055
DataValue, 0.75038, -0.013000000000000001
DataValue, 0.75530000000000008, -0.0065000000000000006
DataValue, 0.76006000000000007, -0.0225
DataValue, 0.76496000000000008, 0.02
DataValue, 0.77028000000000008, -0.0095
DataValue, 0.77524, 0.0090000000000000011
DataValue, 0.78054, 0.006
DataValue, 0.78508000000000011, -0.0005
DataValue, 0.79068, 0.0015
DataValue, 0.79540000000000011, 0.001
DataValue, 0.79962000000000011, -0.0015
DataValue, 0.80444, -0.0035
DataValue, 0.80996, 0.0075
DataValue, 0.81456000000000006, -0.023
DataValue, 0.81960000000000011, -0.0005
DataValue, 0.8249200000000001, -0.029
DataValue, 0.82978000000000007, 0.004
DataValue, 0.83578000000000008, -0.0075
DataValue, 0.84014000000000011, 0.015
DataValue, 0.84518, -0.016
DataValue, 0.85010000000000008, 0.015
DataValue, 0.85492000000000012, -0.0095
DataValue, 0.86018000000000006, 0.0125
DataValue, 0.86472, -0.006
DataValue, 0.86974000000000007, 0.0065000000000000006
DataValue, 0.87550000000000006, -0.005
DataValue, 0.88056000000000012, -0.0095
DataValue, 0.88532000000000011, -0.0095
DataValue, 0.8898, 0.0165
DataValue, 0.89460000000000006, -0.0025
DataValue, 0.89962000000000009, -0.0090000000000000011
DataValue, 0.90512, -0.006
DataValue, 0.91032000000000013, -0.0205
DataValue, 0.91466, 0.003
DataValue, 0.92030000000000012, -0.0015
DataValue, 0.92518000000000011, 0.0085
DataValue, 0.93030000000000013, -0.021
DataValue, 0.93472000000000011, 0.006
DataValue, 0.94056000000000006, -0.014
DataValue, 0.94598, 0.003
DataValue, 0.95012000000000008, -0.01
DataValue, 0.95446000000000009, 0.0075
DataValue, 0.96024000000000009, -0.0075
DataValue, 0.96454000000000006, 0.006
DataValue, 0.97074, -0.0005
DataValue, 0.97472, 0.0125
DataValue, 0.97942000000000007, -0.0035
DataValue, 0.98446000000000011, -0.0045000000000000005
DataValue, 0.99008000000000007, 0.0135
DataValue, 0.99556000000000011, -0.0145
DataValue, 1.00034, -0.0025
DataValue, 1.00506, -0.016
DataValue, 1.0101200000000001, 0.006
DataValue, 1.0151800000000002, -0.0025
DataValue, 1.01898, 0.007
DataValue, 1.0252800000000002, -0.0175
DataValue, 1.0297800000000001, 0.0105
DataValue, 1.0347600000000001, -0.0090000000000000011
DataValue, 1.0395, 0.001
DataValue, 1.04498, 0.002
DataValue, 1.05072, -0.0125
DataValue, 1.05516, 0.003
DataValue, 1.06034, -0.0045000000000000005
DataValue, 1.0650600000000001, -0.0015
DataValue, 1.0701, -0.0075
DataValue, 1.0750000000000002, 0.0045000000000000005
DataValue, 1.0801, -0.0095
DataValue, 1.08542, 0.004
DataValue, 1.09054, -0.0090000000000000011
DataValue, 1.0955400000000002, -0.004
DataValue, 1.1001800000000002, -0.008
DataValue, 1.10572, -0.001
DataValue, 1.1098800000000002, -0.004
DataValue, 1.1149600000000002, -0.0175
DataValue, 1.11976, 0
DataValue, 1.12522, 0.0025
DataValue, 1.1295000000000002, 0.003
DataValue, 1.13454, -0.012
DataValue, 1.1400400000000002, -0.0045000000000000005
DataValue, 1.145, -0.0245
DataValue, 1.14968, 0.008
DataValue, 1.15504, -0.018000000000000002
DataValue, 1.16062, 0.0075
DataValue, 1.1645400000000001, -0.0095
DataValue, 1.1701400000000002, 0.008
DataValue, 1.17486, -0.014
DataValue, 1.1798600000000001, 0.0185
DataValue, 1.1845, -0.0085
DataValue, 1.1893600000000002, -0.001
DataValue, 1.19438, -0.002
DataValue, 1.19926, 0.005
DataValue, 1.2047800000000002, 0.0090000000000000011
DataValue, 1.21018, -0.013000000000000001
DataValue, 1.2149, 0.0115
DataValue, 1.2196200000000002, -0.006
DataValue, 1.2250400000000001, 0.0175
DataValue, 1.2306400000000002, -0.006
DataValue, 1.2349, -0.003
DataValue, 1.2397, -0.0005
DataValue, 1.2446000000000002, 0.0090000000000000011
DataValue, 1.24998, -0.013000000000000001
DataValue, 1.2554, 0.006
DataValue, 1.2597800000000001, -0.004
DataValue, 1.2648000000000002, 0.013000000000000001
DataValue, 1.2695200000000002, 0.008
DataValue, 1.2751400000000002, -0.0055
DataValue, 1.2796, 0.0090000000000000011
DataValue, 1.28462, 0.0065000000000000006
DataValue, 1.2901200000000002, 0.0085
DataValue, 1.2955, 0.007
DataValue, 1.3003200000000001, 0.004
DataValue, 1.30532, 0.0025
DataValue, 1.3099800000000001, 0.01
DataValue, 1.3151400000000002, -0.002
DataValue, 1.31972, 0.0115
DataValue, 1.3247600000000002, -0.006
DataValue, 1.3301200000000002, 0.0055
DataValue, 1.33522, -0.0105
DataValue, 1.3405, 0.016
DataValue, 1.34508, -0.018000000000000002
DataValue, 1.3502800000000002, 0.02
DataValue, 1.35468, -0.007
DataValue, 1.35986, 0.0285
DataValue, 1.3649, 0.001
DataValue, 1.3697000000000001, 0.021500000000000002
DataValue, 1.37454, 0.0045000000000000005
DataValue, 1.37958, 0.0015
DataValue, 1.3848200000000002, 0.0195
DataValue, 1.39002, 0.004
DataValue, 1.3950200000000002, 0.021
DataValue, 1.39992, 0.0035
DataValue, 1.4045400000000001, 0.034
DataValue, 1.41016, 0.0095
DataValue, 1.4148200000000002, 0.0075
DataValue, 1.4203000000000001, 0.006
DataValue, 1.4249200000000002, 0.024
DataValue, 1.43022, 0.008
DataValue, 1.4345400000000002, 0.013000000000000001
DataValue, 1.4395000000000002, -0.013000000000000001
DataValue, 1.4448, 0.025500000000000002
DataValue, 1.45032, 0.004
DataValue, 1.4550200000000002, 0.0275
DataValue, 1.4603000000000002, 0.01
DataValue, 1.4646800000000002, 0.0335
DataValue, 1.47082, 0.029
DataValue, 1.4750200000000002, 0.025
DataValue, 1.4799600000000002, 0.024
DataValue, 1.48408, 0.0205
DataValue, 1.4905400000000002, 0.0195
DataValue, 1.4953, 0.006
DataValue, 1.49944, 0.029500000000000002
DataValue, 1.5047400000000002, 0.012
DataValue, 1.5093800000000002, 0.0315
DataValue, 1.5147400000000002, 0.024
DataValue, 1.51994, 0.042
DataValue, 1.52506, 0.018000000000000002
DataValue, 1.5303000000000002, 0.0265
DataValue, 1.5354200000000002, 0.014
DataValue, 1.5405200000000001, 0.0345
DataValue, 1.5453800000000002, 0.024
DataValue, 1.5500800000000001, 0.033
DataValue, 1.5541, 0.0265
DataValue, 1.55936, 0.035500000000000004
DataValue, 1.5653400000000002, 0.029500000000000002
DataValue, 1.5693800000000002, 0.0225
DataValue, 1.5748000000000002, 0.0385
DataValue, 1.5796800000000002, 0.007
DataValue, 1.5853000000000002, 0.038
DataValue, 1.5896800000000002, 0.033
DataValue, 1.5945, 0.022
DataValue, 1.59996, 0.005
DataValue, 1.6044800000000001, 0.05
DataValue, 1.6101200000000002, 0.0095
DataValue, 1.61444, 0.057
DataValue, 1.6193000000000002, 0.0175
DataValue, 1.6247200000000002, 0.0425
DataValue, 1.6294600000000001, 0.0285
DataValue, 1.63474, 0.047
DataValue, 1.6403, 0.0465
DataValue, 1.6447600000000002, 0.042
DataValue, 1.65026, 0.0445
DataValue, 1.65524, 0.035500000000000004
DataValue, 1.6603200000000002, 0.0485
DataValue, 1.6649, 0.0385
DataValue, 1.6701000000000001, 0.0505
DataValue, 1.6748600000000002, 0.045
DataValue, 1.6801400000000002, 0.055
DataValue, 1.6855000000000002, 0.04
DataValue, 1.6901000000000002, 0.038
DataValue, 1.6948400000000001, 0.0335
DataValue, 1.70002, 0.0505
DataValue, 1.7058400000000002, 0.03
DataValue, 1.71002, 0.059000000000000004
DataValue, 1.71544, 0.0345
DataValue, 1.7203000000000002, 0.0585
DataValue, 1.72456, 0.041
DataValue, 1.7305400000000002, 0.0675
DataValue, 1.73472, 0.0415
DataValue, 1.7405000000000002, 0.0645
DataValue, 1.7448800000000002, 0.05
DataValue, 1.75022, 0.0675
DataValue, 1.7556600000000002, 0.051000000000000004
DataValue, 1.7596200000000002, 0.078
DataValue, 1.76486, 0.0535
DataValue, 1.7691200000000003, 0.062
DataValue, 1.7752000000000001, 0.061
DataValue, 1.7802000000000002, 0.07
DataValue, 1.7847600000000001, 0.059000000000000004
DataValue, 1.7897, 0.0665
DataValue, 1.79458, 0.0745
DataValue, 1.7997600000000003, 0.063
DataValue, 1.8046200000000001, 0.0815
DataValue, 1.8104000000000002, 0.059500000000000004
DataValue, 1.8147000000000002, 0.086500000000000007
DataValue, 1.8196200000000002, 0.0675
DataValue, 1.8250800000000003, 0.0735
DataValue, 1.8299600000000003, 0.0725
DataValue, 1.83536, 0.0795
DataValue, 1.8395000000000001, 0.072000000000000008
DataValue, 1.84508, 0.093
DataValue, 1.8497200000000003, 0.071500000000000008
DataValue, 1.8551400000000002, 0.085
DataValue, 1.85976, 0.064
DataValue, 1.8651200000000001, 0.075
DataValue, 1.8701400000000001, 0.0685
DataValue, 1.8752600000000002, 0.0925
DataValue, 1.88054, 0.0725
DataValue, 1.8851600000000002, 0.0905
DataValue, 1.8904, 0.089
DataValue, 1.8950200000000002, 0.1055
DataValue, 1.9004200000000002, 0.075
