
SetupTitle, Rds-Id
ApplicationTest, Rds-Id, Public
TestParameter, Name, Memo, Scale, HoldTime, PulseBase, PulseAvgCnt, Gate, VgStart, VgStop, VgStep, IgLimit, Source, MeasurementTime, Drain, IdStart, IdStop, IdLinearStep, VdLimit, VdStop, PulsePeriodMode, ManualPulsePeriod, PulseWidth
TestParameter, Value, , LINEAR, 0, 0, 1, SMU2:MC	MCSMU, 15, 5, 1, 0.1, GNDU:GND	GNDU, 1E-05, SMU3:UHC500	UHCU500A, 0.5, 3, 0.1, 5, 0, 0, 0.05, 0.0002
DutParameter, Name, Polarity, Temp, YAxisRdsMin, YAxisRdsMax
DutParameter, Value, 1, 25, 0.001, 10
MetaData, TestRecord.EntryPoint, true
MetaData, TestRecord.RecordTime, 12/20/2020 10:34:49
MetaData, TestRecord.TestTarget, 
MetaData, TestRecord.IterationIndex, 1
MetaData, TestRecord.Preservation, true
MetaData, TestRecord.Flag, 
MetaData, TestRecord.Remarks, 
MetaData, TestRecord.LinkKey, a6d0e24d-1f34-4a45-8bbc-ef41ca43cb9f
Dimension1, 26, 26, 26, 26, 26, 26
Dimension2, 11, 11, 11, 11, 11, 11
DataName, Igate, Vgate, Vdrain, Idrain, Ta, Rds
DataValue, -6.0000000000000008E-07, 14.99994, 0.0357, 0.0735, 25, 0.48571428571428577
DataValue, -2.1000000000000002E-06, 15.000020000000001, 0.0604, 0.132, 25, 0.45757575757575758
DataValue, -1.5E-06, 15.000040000000002, 0.0908, 0.183, 25, 0.49617486338797817
DataValue, -1.8000000000000001E-06, 14.99994, 0.11860000000000001, 0.28400000000000003, 25, 0.4176056338028169
DataValue, -3.0000000000000004E-07, 15.000240000000002, 0.149, 0.3565, 25, 0.41795231416549788
DataValue, -1.2000000000000002E-06, 15.000680000000001, 0.18000000000000002, 0.4045, 25, 0.44499381953028433
DataValue, -1.5E-06, 14.999860000000002, 0.21400000000000002, 0.509, 25, 0.42043222003929276
DataValue, -3E-06, 14.9998, 0.2461, 0.602, 25, 0.40880398671096352
DataValue, -1.9000000000000002E-06, 14.999960000000002, 0.2771, 0.6645, 25, 0.41700526711813396
DataValue, -8.0000000000000007E-07, 15.00074, 0.3111, 0.7275, 25, 0.42762886597938138
DataValue, -1.6000000000000001E-06, 15.00026, 0.3431, 0.8275, 25, 0.4146223564954683
DataValue, -2.0000000000000003E-06, 15.000240000000002, 0.378, 0.906, 25, 0.41721854304635758
DataValue, -1.7000000000000002E-06, 14.999820000000002, 0.4081, 0.97, 25, 0.42072164948453611
DataValue, -8.0000000000000007E-07, 15.00022, 0.4388, 1.0635000000000001, 25, 0.41259990597085094
DataValue, -1.7000000000000002E-06, 14.99994, 0.47390000000000004, 1.1565, 25, 0.40977086035451793
DataValue, -1.2000000000000002E-06, 15.000720000000001, 0.5052, 1.212, 25, 0.41683168316831681
DataValue, -6.0000000000000008E-07, 14.999480000000002, 0.5373, 1.2670000000000001, 25, 0.42407261247040251
DataValue, -1.1E-06, 14.999680000000002, 0.5708, 1.3525, 25, 0.42203327171903876
DataValue, -1.4000000000000002E-06, 15.000300000000001, 0.60410000000000008, 1.451, 25, 0.41633356305995867
DataValue, -6.0000000000000008E-07, 15.00036, 0.6372, 1.5425, 25, 0.41309562398703403
DataValue, -7.0000000000000007E-07, 14.999220000000001, 0.66970000000000007, 1.608, 25, 0.4164800995024876
DataValue, -2.0000000000000003E-06, 14.999160000000002, 0.6976, 1.6655, 25, 0.41885319723806663
DataValue, -1.4000000000000002E-06, 15.00022, 0.7364, 1.74, 25, 0.42321839080459772
DataValue, -1.4000000000000002E-06, 15.000140000000002, 0.76750000000000007, 1.8285, 25, 0.4197429587093246
DataValue, -1.6000000000000001E-06, 14.99938, 0.8011, 1.9195, 25, 0.41734826777806722
DataValue, -1.2000000000000002E-06, 15.000320000000002, 0.8344, 2.0035, 25, 0.41647117544297485
DataValue, -1.4000000000000002E-06, 14.000420000000002, 0.038, 0.069, 25, 0.55072463768115931
DataValue, -1.1E-06, 14.000420000000002, 0.062400000000000004, 0.14250000000000002, 25, 0.43789473684210523
DataValue, -2.3E-06, 14.0005, 0.0911, 0.181, 25, 0.50331491712707188
DataValue, -2.0000000000000003E-06, 14.000100000000002, 0.11850000000000001, 0.2545, 25, 0.46561886051080553
DataValue, -5.0000000000000008E-07, 14.000440000000001, 0.1517, 0.353, 25, 0.42974504249291789
DataValue, -1.0000000000000001E-07, 14.000560000000002, 0.1847, 0.4335, 25, 0.42606689734717418
DataValue, -1.4000000000000002E-06, 14.000060000000001, 0.2187, 0.47600000000000003, 25, 0.459453781512605
DataValue, -1.2000000000000002E-06, 14.000300000000001, 0.25270000000000004, 0.57000000000000006, 25, 0.44333333333333336
DataValue, -1.2000000000000002E-06, 14.000100000000002, 0.28040000000000004, 0.655, 25, 0.42809160305343513
DataValue, -1.6000000000000001E-06, 14.00018, 0.3171, 0.737, 25, 0.43025780189959295
DataValue, -2.3E-06, 13.999920000000001, 0.3492, 0.797, 25, 0.43814303638644919
DataValue, -1.8000000000000001E-06, 14.000520000000002, 0.3846, 0.887, 25, 0.43359639233370911
DataValue, -1.8000000000000001E-06, 13.99984, 0.41600000000000004, 0.9555, 25, 0.435374149659864
DataValue, -1.9000000000000002E-06, 13.999820000000002, 0.45330000000000004, 1.06, 25, 0.42764150943396229
DataValue, -2.8000000000000003E-06, 13.99932, 0.48710000000000003, 1.1075, 25, 0.43981941309255085
DataValue, -1.4000000000000002E-06, 13.999680000000002, 0.5189, 1.1735, 25, 0.44218150830847891
DataValue, -1.3E-06, 13.999340000000002, 0.5544, 1.2630000000000001, 25, 0.43895486935866979
DataValue, -1.5E-06, 13.999720000000002, 0.5877, 1.355, 25, 0.43372693726937273
DataValue, -8.0000000000000007E-07, 13.999960000000002, 0.6158, 1.4185, 25, 0.43412054987663024
DataValue, -1.3E-06, 14.00008, 0.6534, 1.489, 25, 0.43881799865681659
DataValue, -8.0000000000000007E-07, 13.99994, 0.6884, 1.573, 25, 0.43763509218054675
DataValue, -2.1000000000000002E-06, 14.0006, 0.7207, 1.661, 25, 0.43389524382901867
DataValue, -1.9000000000000002E-06, 14.00036, 0.757, 1.735, 25, 0.43631123919308357
DataValue, -2.2E-06, 13.99952, 0.7912, 1.804, 25, 0.43858093126385811
DataValue, -1.5E-06, 14.000160000000001, 0.82700000000000007, 1.869, 25, 0.44248261102193692
DataValue, -7.0000000000000007E-07, 14.000160000000001, 0.86220000000000008, 1.9565000000000001, 25, 0.44068489649885
DataValue, -1.8000000000000001E-06, 12.999640000000001, 0.0374, 0.0725, 25, 0.51586206896551734
DataValue, -1.4000000000000002E-06, 13.0006, 0.0627, 0.1225, 25, 0.51183673469387758
DataValue, -1.2000000000000002E-06, 13.00026, 0.091, 0.191, 25, 0.47643979057591623
DataValue, -6.0000000000000008E-07, 12.9998, 0.12380000000000001, 0.2525, 25, 0.49029702970297034
DataValue, -2.0000000000000003E-06, 12.999620000000002, 0.1568, 0.3415, 25, 0.45915080527086377
DataValue, -2.3E-06, 12.999500000000001, 0.1908, 0.4045, 25, 0.47169344870210134
DataValue, -1.2000000000000002E-06, 13.0006, 0.2232, 0.4815, 25, 0.46355140186915894
DataValue, -1.4000000000000002E-06, 12.999440000000002, 0.2585, 0.56, 25, 0.46160714285714283
DataValue, -1.6000000000000001E-06, 13.00026, 0.2917, 0.623, 25, 0.46821829855537722
DataValue, -8.0000000000000007E-07, 13.000020000000001, 0.3282, 0.707, 25, 0.46421499292786422
DataValue, -6.0000000000000008E-07, 12.9999, 0.3619, 0.7945, 25, 0.45550660792951542
DataValue, -1.9000000000000002E-06, 13.000440000000001, 0.40140000000000003, 0.87950000000000006, 25, 0.45639567936327458
DataValue, -1.6000000000000001E-06, 12.99976, 0.43260000000000004, 0.9505, 25, 0.45512887953708581
DataValue, -1.6000000000000001E-06, 13.000060000000001, 0.46830000000000005, 1.0325, 25, 0.45355932203389837
DataValue, -8.0000000000000007E-07, 13.000240000000002, 0.5048, 1.0955, 25, 0.46079415791875861
DataValue, -1.2000000000000002E-06, 12.999400000000001, 0.5395, 1.18, 25, 0.45720338983050846
DataValue, -2.1000000000000002E-06, 13.000420000000002, 0.57710000000000006, 1.2505, 25, 0.46149540183926435
DataValue, -1.1E-06, 12.999680000000002, 0.6066, 1.321, 25, 0.45919757759273283
DataValue, -2.0000000000000003E-06, 13.00004, 0.6389, 1.3825, 25, 0.46213381555153704
DataValue, -1.7000000000000002E-06, 13.000100000000002, 0.6773, 1.454, 25, 0.46581843191196703
DataValue, -2.1000000000000002E-06, 12.99998, 0.7128, 1.5165, 25, 0.47002967359050446
DataValue, -2.4000000000000003E-06, 13.0004, 0.7551, 1.6185, 25, 0.46654309545875811
DataValue, -1.3E-06, 13.000060000000001, 0.7863, 1.671, 25, 0.47055655296229804
DataValue, -9.0000000000000007E-07, 13.00032, 0.8231, 1.7570000000000001, 25, 0.46846898121798519
DataValue, -2.5E-06, 12.99976, 0.8588, 1.837, 25, 0.46750136091453459
DataValue, -1.6000000000000001E-06, 13.000060000000001, 0.8967, 1.925, 25, 0.46581818181818185
DataValue, -2.1000000000000002E-06, 11.999880000000001, 0.0431, 0.082, 25, 0.525609756097561
DataValue, -1.1E-06, 11.99956, 0.0713, 0.1515, 25, 0.47062706270627064
DataValue, -8.0000000000000007E-07, 11.99948, 0.1005, 0.20350000000000001, 25, 0.49385749385749383
DataValue, -3.0000000000000004E-07, 11.99952, 0.125, 0.2415, 25, 0.51759834368530022
DataValue, -9.0000000000000007E-07, 11.9999, 0.1602, 0.309, 25, 0.51844660194174763
DataValue, -9.0000000000000007E-07, 11.99998, 0.2015, 0.388, 25, 0.51932989690721654
DataValue, -8.0000000000000007E-07, 12.000200000000001, 0.23500000000000001, 0.47650000000000003, 25, 0.4931794333683106
DataValue, -2.0000000000000003E-06, 11.99962, 0.2721, 0.5355, 25, 0.50812324929972
DataValue, -1.1E-06, 12.000340000000001, 0.30960000000000004, 0.6235, 25, 0.49655172413793108
DataValue, -4.0000000000000003E-07, 12.000420000000002, 0.3447, 0.6915, 25, 0.49848156182212583
DataValue, -4.0000000000000003E-07, 11.999640000000001, 0.3836, 0.766, 25, 0.50078328981723241
DataValue, -8.0000000000000007E-07, 11.999960000000002, 0.4203, 0.859, 25, 0.4892898719441211
DataValue, -1.7000000000000002E-06, 12.00022, 0.45730000000000004, 0.9335, 25, 0.48987680771290848
DataValue, -1.3E-06, 12.00004, 0.49400000000000005, 1.0090000000000001, 25, 0.489593657086224
DataValue, -1.2000000000000002E-06, 11.999300000000002, 0.532, 1.082, 25, 0.49168207024029575
DataValue, -6.0000000000000008E-07, 12.00012, 0.5634, 1.133, 25, 0.49726390114739633
DataValue, -2.6E-06, 11.999440000000002, 0.601, 1.198, 25, 0.501669449081803
DataValue, -1.2000000000000002E-06, 11.99956, 0.6368, 1.268, 25, 0.50220820189274451
DataValue, -1.6000000000000001E-06, 12.000300000000001, 0.6765, 1.336, 25, 0.50636227544910173
DataValue, -1.9000000000000002E-06, 11.9999, 0.7146, 1.4145, 25, 0.50519618239660657
DataValue, -1.6000000000000001E-06, 12.000720000000001, 0.74540000000000006, 1.489, 25, 0.500604432505037
DataValue, -1.7000000000000002E-06, 12.000800000000002, 0.79180000000000006, 1.562, 25, 0.50691421254801539
DataValue, -2.2E-06, 11.999780000000001, 0.82290000000000008, 1.6480000000000001, 25, 0.49933252427184466
DataValue, -7.0000000000000007E-07, 12.000340000000001, 0.86910000000000009, 1.7145000000000001, 25, 0.50691163604549427
DataValue, -1.5E-06, 12.000100000000002, 0.90760000000000007, 1.7810000000000001, 25, 0.50960134755755193
DataValue, -1.3E-06, 12.00008, 0.9461, 1.873, 25, 0.505125467164976
DataValue, -6.0000000000000008E-07, 11.00026, 0.0441, 0.0655, 25, 0.67328244274809157
DataValue, -4.0000000000000003E-07, 10.999820000000002, 0.0698, 0.111, 25, 0.62882882882882885
DataValue, -1.5E-06, 10.999780000000001, 0.10250000000000001, 0.185, 25, 0.55405405405405406
DataValue, 3.0000000000000004E-07, 10.99994, 0.13870000000000002, 0.23650000000000002, 25, 0.58646934460887956
DataValue, -1.1E-06, 11.000620000000001, 0.17270000000000002, 0.31, 25, 0.55709677419354842
DataValue, -5.0000000000000008E-07, 10.999920000000001, 0.21150000000000002, 0.368, 25, 0.5747282608695653
DataValue, -1.0000000000000001E-07, 11.000100000000002, 0.2484, 0.432, 25, 0.57500000000000007
DataValue, -1.3E-06, 11.000160000000001, 0.2886, 0.51150000000000007, 25, 0.56422287390029324
DataValue, -1.8000000000000001E-06, 10.99962, 0.3211, 0.57100000000000006, 25, 0.56234676007005246
DataValue, -8.0000000000000007E-07, 10.99998, 0.3654, 0.6705, 25, 0.5449664429530201
DataValue, -6.0000000000000008E-07, 11.00056, 0.4017, 0.741, 25, 0.54210526315789476
DataValue, -1.8000000000000001E-06, 11.000380000000002, 0.4404, 0.81700000000000006, 25, 0.53904528763769888
DataValue, -2.0000000000000003E-06, 10.999720000000002, 0.4807, 0.9045, 25, 0.53145384190160316
DataValue, -9.0000000000000007E-07, 11.00036, 0.5229, 0.969, 25, 0.53962848297213628
DataValue, -1.3E-06, 11.000800000000002, 0.5622, 1.029, 25, 0.54635568513119537
DataValue, -2.6E-06, 11.00036, 0.60230000000000006, 1.0735000000000001, 25, 0.56106194690265487
DataValue, -3.0000000000000004E-07, 11.0006, 0.64250000000000007, 1.1480000000000001, 25, 0.55966898954703836
DataValue, -2.0000000000000003E-06, 10.999880000000001, 0.67880000000000007, 1.21, 25, 0.56099173553719017
DataValue, -9.0000000000000007E-07, 11.00028, 0.7208, 1.3015, 25, 0.55382251248559355
DataValue, -1.2000000000000002E-06, 11.000380000000002, 0.758, 1.367, 25, 0.55449890270665692
DataValue, -1.8000000000000001E-06, 11.000100000000002, 0.7991, 1.451, 25, 0.550723638869745
DataValue, -1.8000000000000001E-06, 10.999260000000001, 0.8404, 1.5150000000000001, 25, 0.55471947194719473
DataValue, -2.0000000000000003E-06, 11.000380000000002, 0.87840000000000007, 1.5865, 25, 0.55367160416010086
DataValue, -1.0000000000000002E-06, 11.00078, 0.9213, 1.647, 25, 0.55938069216757746
DataValue, -1.8000000000000001E-06, 11.000100000000002, 0.96600000000000008, 1.7275, 25, 0.55918958031837918
DataValue, -2.4000000000000003E-06, 10.999960000000002, 1.0073, 1.796, 25, 0.560857461024499
DataValue, -1.4000000000000002E-06, 10.000100000000002, 0.0448, 0.0535, 25, 0.83738317757009351
DataValue, -4.0000000000000003E-07, 9.99986, 0.0779, 0.11, 25, 0.70818181818181813
DataValue, -1.0000000000000002E-06, 9.9998, 0.1115, 0.1715, 25, 0.65014577259475215
DataValue, -9.0000000000000007E-07, 9.999880000000001, 0.1499, 0.2505, 25, 0.5984031936127745
DataValue, -1.6000000000000001E-06, 10.00022, 0.1879, 0.3125, 25, 0.60128
DataValue, -5.0000000000000008E-07, 10.00074, 0.2301, 0.376, 25, 0.611968085106383
DataValue, -1.9000000000000002E-06, 9.99962, 0.2675, 0.4355, 25, 0.61423650975889788
DataValue, -8.0000000000000007E-07, 10.000240000000002, 0.31220000000000003, 0.4995, 25, 0.6250250250250251
DataValue, -2.3E-06, 9.9999600000000015, 0.3542, 0.56500000000000006, 25, 0.6269026548672566
DataValue, -9.0000000000000007E-07, 10.00012, 0.39640000000000003, 0.624, 25, 0.63525641025641033
DataValue, -1.2000000000000002E-06, 10.000300000000001, 0.4389, 0.70300000000000007, 25, 0.62432432432432428
DataValue, -1.3E-06, 9.99976, 0.47540000000000004, 0.766, 25, 0.620626631853786
DataValue, -1.4000000000000002E-06, 10.0007, 0.5188, 0.8465, 25, 0.61287655050206735
DataValue, -1.6000000000000001E-06, 10.000200000000001, 0.5646, 0.902, 25, 0.62594235033259416
DataValue, -8.0000000000000007E-07, 10.000160000000001, 0.6077, 0.99, 25, 0.61383838383838385
DataValue, -1.0000000000000002E-06, 10.000580000000001, 0.6504, 1.0425, 25, 0.62388489208633091
DataValue, -1.7000000000000002E-06, 10, 0.6905, 1.095, 25, 0.630593607305936
DataValue, -1.9000000000000002E-06, 9.99972, 0.7365, 1.157, 25, 0.63656006914433882
DataValue, -1.3E-06, 10.000380000000002, 0.77950000000000008, 1.231, 25, 0.6332250203086921
DataValue, -1.5E-06, 9.99984, 0.8254, 1.289, 25, 0.64034134988363078
DataValue, -1.9000000000000002E-06, 9.9998, 0.87130000000000007, 1.369, 25, 0.63644996347699057
DataValue, -1.9000000000000002E-06, 10.00028, 0.91070000000000006, 1.4305, 25, 0.63663054875917513
DataValue, -1.6000000000000001E-06, 9.99998, 0.96000000000000008, 1.4635, 25, 0.65596173556542536
DataValue, -1.7000000000000002E-06, 9.9994000000000014, 1.0028000000000001, 1.534, 25, 0.6537157757496741
DataValue, -2.6E-06, 10.00088, 1.0521, 1.5895000000000001, 25, 0.66190625983013518
DataValue, -2.6E-06, 10.00014, 1.0982, 1.6645, 25, 0.65977771102433158
DataValue, 1.0000000000000001E-07, 9.0003000000000011, 0.054700000000000006, 0.065, 25, 0.84153846153846157
DataValue, -1.4000000000000002E-06, 8.99998, 0.088000000000000009, 0.112, 25, 0.78571428571428581
DataValue, -4.0000000000000003E-07, 9.0000600000000013, 0.12440000000000001, 0.156, 25, 0.79743589743589749
DataValue, -1.2000000000000002E-06, 8.9997800000000012, 0.16640000000000002, 0.2205, 25, 0.75464852607709754
DataValue, -8.0000000000000007E-07, 8.99956, 0.2074, 0.28300000000000003, 25, 0.73286219081272075
DataValue, -1.4000000000000002E-06, 8.99976, 0.2456, 0.34950000000000003, 25, 0.70271816881258942
DataValue, -1.1E-06, 8.99976, 0.2912, 0.41600000000000004, 25, 0.7
DataValue, -9.0000000000000007E-07, 8.99986, 0.33740000000000003, 0.4625, 25, 0.72951351351351357
DataValue, -8.0000000000000007E-07, 9.00012, 0.3829, 0.529, 25, 0.72381852551984882
DataValue, -7.0000000000000007E-07, 9.00008, 0.4349, 0.5955, 25, 0.73031066330814443
DataValue, -1.9000000000000002E-06, 8.99952, 0.48040000000000005, 0.6515, 25, 0.7373752877973907
DataValue, -1.0000000000000002E-06, 9, 0.5299, 0.712, 25, 0.744241573033708
DataValue, -9.0000000000000007E-07, 8.9999, 0.5691, 0.7715, 25, 0.737653920933247
DataValue, -9.0000000000000007E-07, 9.00026, 0.6266, 0.8435, 25, 0.74285714285714288
DataValue, -1.1E-06, 9.0002000000000013, 0.67580000000000007, 0.894, 25, 0.75592841163310964
DataValue, -1.8000000000000001E-06, 8.9997800000000012, 0.7199, 0.95500000000000007, 25, 0.75382198952879576
DataValue, -9.0000000000000007E-07, 9.0003400000000013, 0.76940000000000008, 1.0085, 25, 0.7629152206246903
DataValue, -1.4000000000000002E-06, 9.000020000000001, 0.8124, 1.071, 25, 0.75854341736694686
DataValue, -1.1E-06, 9.00046, 0.86610000000000009, 1.121, 25, 0.772613737734166
DataValue, -1.1E-06, 9.0004400000000011, 0.91480000000000006, 1.1745, 25, 0.778884631758195
DataValue, -2.1000000000000002E-06, 8.99986, 0.9688, 1.2590000000000001, 25, 0.7694996028594121
DataValue, -2.3E-06, 8.9998, 1.0182, 1.297, 25, 0.78504240555127225
DataValue, -1.2000000000000002E-06, 9.0000600000000013, 1.0728, 1.3705, 25, 0.782780007296607
DataValue, -2.1000000000000002E-06, 9.00036, 1.1247, 1.42, 25, 0.79204225352112678
DataValue, -1.4000000000000002E-06, 9.00014, 1.1798, 1.4775, 25, 0.79851099830795258
DataValue, -3E-06, 9.0002400000000016, 1.2361, 1.5205, 25, 0.81295626438671487
DataValue, -8.0000000000000007E-07, 8.00066, 0.0636, 0.069, 25, 0.92173913043478262
DataValue, -9.0000000000000007E-07, 7.9997200000000008, 0.0983, 0.1045, 25, 0.94066985645933021
DataValue, -1.1E-06, 7.9998400000000007, 0.1408, 0.136, 25, 1.0352941176470589
DataValue, 0, 8.00028, 0.1834, 0.192, 25, 0.95520833333333333
DataValue, -1.1E-06, 8.00018, 0.2308, 0.234, 25, 0.98632478632478626
DataValue, -1.7000000000000002E-06, 7.9999600000000006, 0.2807, 0.2705, 25, 1.0377079482439926
DataValue, -1.3E-06, 7.9999600000000006, 0.33080000000000004, 0.327, 25, 1.0116207951070337
DataValue, -1.8000000000000001E-06, 7.9997600000000011, 0.38480000000000003, 0.40750000000000003, 25, 0.94429447852760739
DataValue, -1.6000000000000001E-06, 8.00008, 0.4383, 0.4545, 25, 0.96435643564356432
DataValue, -2.3E-06, 8.000160000000001, 0.49060000000000004, 0.517, 25, 0.948936170212766
DataValue, -2.0000000000000003E-06, 8.00008, 0.5446, 0.5725, 25, 0.95126637554585147
DataValue, -6.0000000000000008E-07, 8.001240000000001, 0.60220000000000007, 0.627, 25, 0.96044657097288688
DataValue, -1.4000000000000002E-06, 7.9998600000000009, 0.6578, 0.6755, 25, 0.97379718726868991
DataValue, -2.1000000000000002E-06, 7.99922, 0.70910000000000006, 0.74, 25, 0.95824324324324339
DataValue, -1.0000000000000002E-06, 7.9998600000000009, 0.76630000000000009, 0.76450000000000007, 25, 1.0023544800523219
DataValue, -2.4000000000000003E-06, 7.9998600000000009, 0.82190000000000008, 0.8065, 25, 1.0190948543087415
DataValue, -2.3E-06, 7.9995800000000008, 0.88120000000000009, 0.839, 25, 1.0502979737783076
DataValue, -3.1000000000000004E-06, 7.99978, 0.9333, 0.89550000000000007, 25, 1.0422110552763819
DataValue, -1.0000000000000002E-06, 8.0006, 0.9957, 0.94600000000000006, 25, 1.052536997885835
DataValue, -2.1000000000000002E-06, 8, 1.0556, 1.0005, 25, 1.0550724637681161
