
SetupTitle, Cds
ApplicationTest, Cds, Public
TestParameter, Name, Memo, IntegTime, Frequency, OscLevel, Scale, Drain, VdBias, VdStart, VdStop, VdLinearStep, IdLimit, HoldTime, DelayTime, IdMinRange
TestParameter, Value, , SHORT, 100000, 0.025, LINEAR, CMU1:MF	MFCMU, SMU6:HV	HVSMU, 0, 1000, 1, 0.004, 0, 0.08, 10uA
DutParameter, Name, Polarity, Temp, YAxisCdsMin, YAxisCdsMax
DutParameter, Value, 1, 25, 1E-12, 1E-09
MetaData, TestRecord.EntryPoint, true
MetaData, TestRecord.RecordTime, 04/22/2021 08:20:39
MetaData, TestRecord.TestTarget, 
MetaData, TestRecord.IterationIndex, 8
MetaData, TestRecord.Preservation, true
MetaData, TestRecord.Flag, 
MetaData, TestRecord.Remarks, 
MetaData, TestRecord.LinkKey, f269f5c1-155a-4bdb-b229-8e2607f040ae
Dimension1, 1001, 1001, 1001, 1001, 1001
Dimension2, 1, 1, 1, 1, 1
DataName, Ids, Vdrain, Cds, G, Ta
DataValue, 1.649E-08, -0.003, 4.21991E-09, -6.37367E-05, 25
DataValue, -2.7200000000000002E-08, 1.0035, 3.61133E-09, -5.52124E-05, 25
DataValue, -5.5160000000000006E-08, 1.998, 3.26545E-09, -5.02319E-05, 25
DataValue, 3.9320000000000004E-08, 3.0045, 3.0097E-09, -4.64734E-05, 25
DataValue, -7.8760000000000012E-08, 4.0005, 2.8086E-09, -4.37804E-05, 25
DataValue, -1.7090000000000003E-08, 4.998, 2.64288E-09, -4.121E-05, 25
DataValue, 6.659E-08, 6.0015, 2.50329E-09, -3.87819E-05, 25
DataValue, -1.492E-08, 7.002, 2.38351E-09, -3.73049E-05, 25
DataValue, 3.744E-08, 7.9995, 2.27901E-09, -3.6017100000000005E-05, 25
DataValue, -3.0060000000000006E-08, 9.003, 2.18568E-09, -3.38953E-05, 25
DataValue, 2.21E-09, 10.002, 2.10214E-09, -3.32706E-05, 25
DataValue, -1.0700000000000002E-08, 10.9995, 2.02625E-09, -3.17629E-05, 25
DataValue, -2.7190000000000004E-08, 12, 1.9547E-09, -3.0777E-05, 25
DataValue, 6.1390000000000009E-08, 13.0035, 1.88293E-09, -2.97878E-05, 25
DataValue, -2.832E-08, 13.996500000000001, 1.79613E-09, -2.46489E-05, 25
DataValue, -4.851E-08, 15, 1.62067E-09, -2.25225E-05, 25
DataValue, 4.303E-08, 16.0005, 1.56375E-09, -2.47089E-05, 25
DataValue, 5.7730000000000008E-08, 17.001, 1.51874E-09, -2.37128E-05, 25
DataValue, 3.423E-08, 18.0015, 1.47765E-09, -2.32648E-05, 25
DataValue, 1.546E-08, 19.0035, 1.44159E-09, -2.25859E-05, 25
DataValue, 2.4540000000000003E-08, 19.9965, 1.40781E-09, -2.23237E-05, 25
DataValue, 3.2510000000000005E-08, 21.006, 1.3762E-09, -2.16975E-05, 25
DataValue, 3.8340000000000004E-08, 21.999, 1.34743E-09, -2.1222500000000002E-05, 25
DataValue, -6.6500000000000008E-09, 22.9995, 1.32047E-09, -2.08203E-05, 25
DataValue, -5.2320000000000008E-08, 24.003, 1.29508E-09, -2.043E-05, 25
DataValue, 7.4210000000000014E-08, 25.008, 1.27137E-09, -1.99799E-05, 25
DataValue, -6.728E-08, 25.9995, 1.24896E-09, -1.94431E-05, 25
DataValue, 1.2840000000000001E-08, 27.0045, 1.2279999999999999E-09, -1.92115E-05, 25
DataValue, 4.8760000000000008E-08, 28.0005, 1.20779E-09, -1.9065400000000002E-05, 25
DataValue, -2.7180000000000003E-08, 29.004, 1.18824E-09, -1.84417E-05, 25
DataValue, 8.7100000000000016E-09, 30.0015, 1.17083E-09, -1.82323E-05, 25
DataValue, 2.8700000000000002E-08, 30.999000000000002, 1.15267E-09, -1.81064E-05, 25
DataValue, -7.1280000000000014E-08, 32.001, 1.13616E-09, -1.79346E-05, 25
DataValue, 3.8000000000000003E-10, 33.0015, 1.12034E-09, -1.7592800000000002E-05, 25
DataValue, -3.424E-08, 34.0005, 1.10467E-09, -1.7770600000000002E-05, 25
DataValue, 1.4880000000000002E-08, 35.001, 1.08966E-09, -1.6780000000000002E-05, 25
DataValue, 1.827E-08, 35.997, 1.07683E-09, -1.6837200000000002E-05, 25
DataValue, -1.8660000000000003E-08, 37.005, 1.06308E-09, -1.63958E-05, 25
DataValue, -8.29E-09, 37.998, 1.05043E-09, -1.68049E-05, 25
DataValue, -4.1900000000000005E-08, 39.003, 1.03782E-09, -1.6506500000000002E-05, 25
DataValue, 1.2440000000000001E-08, 40.0035, 1.02579E-09, -1.62846E-05, 25
DataValue, 3.828E-08, 40.998, 1.01414E-09, -1.60066E-05, 25
DataValue, -4.0390000000000006E-08, 42.003, 1.00206E-09, -1.56173E-05, 25
DataValue, 8.7100000000000016E-09, 43.0005, 9.9235700000000015E-10, -1.5559E-05, 25
DataValue, 4.6890000000000005E-08, 43.9935, 9.8144400000000011E-10, -1.62002E-05, 25
DataValue, -6.6980000000000008E-08, 45, 9.70819E-10, -1.4798600000000001E-05, 25
DataValue, 1.142E-08, 45.9975, 9.6182800000000017E-10, -1.50921E-05, 25
DataValue, -3.912E-08, 46.9995, 9.52406E-10, -1.44081E-05, 25
DataValue, -7.071E-08, 48.0015, 9.43601E-10, -1.4803400000000001E-05, 25
DataValue, 6.7600000000000006E-09, 49.002, 9.33815E-10, -1.47634E-05, 25
DataValue, -5.1550000000000008E-08, 50.001, 9.25243E-10, -1.4658800000000001E-05, 25
DataValue, -2.874E-08, 50.9985, 9.16771E-10, -1.45263E-05, 25
DataValue, 6.9260000000000013E-08, 52.005, 9.089080000000001E-10, -1.41851E-05, 25
DataValue, -1.661E-08, 52.996500000000005, 9.0085E-10, -1.42458E-05, 25
DataValue, -3.9880000000000004E-08, 54, 8.9293600000000009E-10, -1.40065E-05, 25
DataValue, -4.9700000000000008E-09, 55.002, 8.858020000000001E-10, -1.32105E-05, 25
DataValue, -1.7200000000000002E-08, 55.998000000000005, 8.78357E-10, -1.39523E-05, 25
DataValue, -2.2210000000000002E-08, 56.9985, 8.70681E-10, -1.3805E-05, 25
DataValue, 2.9190000000000002E-08, 58.0005, 8.64002E-10, -1.37353E-05, 25
DataValue, 4.0540000000000004E-08, 59.001000000000005, 8.565370000000001E-10, -1.3403400000000001E-05, 25
DataValue, -1.3570000000000002E-08, 59.997, 8.5030700000000011E-10, -1.34044E-05, 25
DataValue, 3.595E-08, 61.002, 8.4407000000000006E-10, -1.34323E-05, 25
DataValue, 7.0240000000000012E-08, 61.998000000000005, 8.37218E-10, -1.33735E-05, 25
DataValue, -1.843E-08, 63.0045, 8.30878E-10, -1.36384E-05, 25
DataValue, 2.5800000000000003E-08, 64.0005, 8.2488E-10, -1.27912E-05, 25
DataValue, 6.995E-08, 64.9995, 8.1891400000000005E-10, -1.31452E-05, 25
DataValue, -6.387E-08, 65.997, 8.1314700000000011E-10, -1.29773E-05, 25
DataValue, 2.4070000000000003E-08, 66.999, 8.07278E-10, -1.29473E-05, 25
DataValue, 5.2470000000000006E-08, 67.998, 8.0202900000000006E-10, -1.26853E-05, 25
DataValue, -8.5600000000000012E-08, 68.997, 7.9632700000000006E-10, -1.2656300000000001E-05, 25
DataValue, 9.0000000000000012E-11, 69.999, 7.90996E-10, -1.21746E-05, 25
DataValue, -1.773E-08, 70.9995, 7.8579700000000009E-10, -1.2576600000000001E-05, 25
DataValue, 9.4100000000000012E-09, 72, 7.7992900000000011E-10, -1.24148E-05, 25
DataValue, 4.55E-09, 72.9975, 7.75508E-10, -1.2570600000000001E-05, 25
DataValue, -5.8970000000000005E-08, 74.001, 7.7099100000000005E-10, -1.23655E-05, 25
DataValue, 7.6940000000000013E-08, 75.004500000000007, 7.6581000000000007E-10, -1.20029E-05, 25
DataValue, -9.9100000000000007E-08, 75.9975, 7.60828E-10, -1.2049000000000001E-05, 25
DataValue, -6.2860000000000008E-08, 77.0025, 7.5631700000000011E-10, -1.20782E-05, 25
DataValue, 5.0910000000000004E-08, 78.004500000000007, 7.51971E-10, -1.17795E-05, 25
DataValue, -9.513E-08, 79.0005, 7.4754900000000006E-10, -1.1867400000000001E-05, 25
DataValue, -2.8830000000000004E-08, 80.001, 7.4291000000000007E-10, -1.17745E-05, 25
DataValue, 1.0350000000000002E-08, 81.003, 7.3865400000000006E-10, -1.17649E-05, 25
DataValue, -1.522E-08, 82.002, 7.3437E-10, -1.13894E-05, 25
DataValue, 2.4540000000000003E-08, 82.9995, 7.3020700000000008E-10, -1.14142E-05, 25
DataValue, -3.051E-08, 84, 7.2732500000000007E-10, -1.1012E-05, 25
DataValue, -3.3200000000000006E-08, 85.002, 7.22489E-10, -1.14376E-05, 25
DataValue, -3.6760000000000006E-08, 85.998, 7.1817E-10, -1.13868E-05, 25
DataValue, -3.25E-09, 87.001500000000007, 7.14449E-10, -1.1331E-05, 25
DataValue, 4.2320000000000004E-08, 87.9975, 7.1035E-10, -1.14184E-05, 25
DataValue, -2.9800000000000002E-08, 88.998, 7.0648700000000009E-10, -1.1386E-05, 25
DataValue, -3.015E-08, 90, 7.029690000000001E-10, -1.09871E-05, 25
DataValue, 3.25E-09, 90.9975, 6.9941200000000009E-10, -1.11755E-05, 25
DataValue, 2.242E-08, 91.998, 6.95415E-10, -1.10946E-05, 25
DataValue, -1.508E-08, 93.001500000000007, 6.922E-10, -1.0862300000000001E-05, 25
DataValue, 9.0500000000000016E-09, 94.0035, 6.8851700000000009E-10, -1.08496E-05, 25
DataValue, -5.9140000000000005E-08, 94.998, 6.8502900000000005E-10, -1.1073200000000001E-05, 25
DataValue, 2.1470000000000003E-08, 96.001500000000007, 6.818400000000001E-10, -1.08768E-05, 25
DataValue, -8.2240000000000014E-08, 96.999, 6.7839100000000008E-10, -1.07803E-05, 25
DataValue, 4.9220000000000007E-08, 97.9995, 6.75695E-10, -1.06014E-05, 25
DataValue, 1.0468000000000001E-07, 99.007500000000007, 6.7183100000000006E-10, -1.08581E-05, 25
DataValue, -3.337E-08, 100.0005, 6.68887E-10, -1.06628E-05, 25
DataValue, -4.3600000000000007E-09, 101.001, 6.6549300000000007E-10, -1.1095E-05, 25
DataValue, -1.95E-09, 102.00450000000001, 6.62497E-10, -1.05551E-05, 25
DataValue, -4.9700000000000008E-09, 103.0005, 6.594090000000001E-10, -1.03967E-05, 25
DataValue, -1.6760000000000003E-08, 104.001, 6.5634300000000006E-10, -1.04859E-05, 25
DataValue, -4.44E-09, 105, 6.54051E-10, -9.98816E-06, 25
DataValue, 4.8940000000000007E-08, 106.0005, 6.50734E-10, -1.0746E-05, 25
DataValue, 2.298E-08, 106.998, 6.47806E-10, -1.03097E-05, 25
DataValue, -6.6910000000000008E-08, 108.00450000000001, 6.4509800000000006E-10, -1.04623E-05, 25
DataValue, 3.755E-08, 108.9975, 6.41551E-10, -1.03167E-05, 25
DataValue, 2.8700000000000002E-09, 109.9995, 6.3856800000000008E-10, -1.10981E-05, 25
DataValue, -5.8000000000000007E-09, 111, 6.3656700000000008E-10, -9.9937699999999987E-06, 25
DataValue, 6.547E-08, 112.002, 6.33979E-10, -1.00064E-05, 25
DataValue, -8.8880000000000012E-08, 113.001, 6.30485E-10, -9.40433E-06, 25
DataValue, -9.0000000000000012E-09, 114.00150000000001, 6.2868200000000006E-10, -9.96685E-06, 25
DataValue, -9.5E-10, 114.99900000000001, 6.2592100000000006E-10, -9.8527E-06, 25
DataValue, -1.6710000000000002E-08, 116.001, 6.23736E-10, -9.839249999999999E-06, 25
DataValue, 4.715E-08, 117.006, 6.2079800000000005E-10, -9.76796E-06, 25
DataValue, -2.682E-08, 118.0005, 6.18492E-10, -9.80243E-06, 25
DataValue, -5.4010000000000005E-08, 119.001, 6.1585800000000007E-10, -9.64918E-06, 25
DataValue, -1.776E-08, 120, 6.13951E-10, -9.7633499999999986E-06, 25
DataValue, -5.6760000000000007E-08, 121.0035, 6.11282E-10, -1.03652E-05, 25
DataValue, 2.86E-08, 121.9935, 6.08692E-10, -9.60324E-06, 25
DataValue, 2.3530000000000003E-08, 122.9955, 6.06081E-10, -9.6462399999999986E-06, 25
DataValue, -9.0200000000000014E-08, 124.00200000000001, 6.0293800000000007E-10, -9.4903599999999987E-06, 25
DataValue, 1.7900000000000002E-09, 124.9965, 6.01365E-10, -9.4665299999999986E-06, 25
DataValue, -1.9530000000000003E-08, 125.997, 5.9928500000000007E-10, -9.4286E-06, 25
DataValue, -4.048E-08, 126.99900000000001, 5.96957E-10, -1.00329E-05, 25
DataValue, 8.028E-08, 127.9995, 5.94328E-10, -9.54564E-06, 25
DataValue, 1.9900000000000004E-09, 128.9985, 5.9271800000000008E-10, -9.7278799999999991E-06, 25
DataValue, 1.8850000000000003E-08, 130.002, 5.9054800000000008E-10, -9.53503E-06, 25
DataValue, -1.43E-08, 131.001, 5.88662E-10, -9.62489E-06, 25
DataValue, 4.4900000000000008E-09, 131.997, 5.86139E-10, -9.5046499999999989E-06, 25
DataValue, -8.1100000000000012E-09, 132.9975, 5.84272E-10, -9.59301E-06, 25
DataValue, -3.3340000000000006E-08, 133.998, 5.82312E-10, -9.19546E-06, 25
DataValue, 7.1600000000000009E-09, 135.0045, 5.80913E-10, -8.58296E-06, 25
DataValue, 7.399E-08, 136.00050000000002, 5.7826500000000007E-10, -9.13924E-06, 25
DataValue, -5.1100000000000008E-08, 137.0025, 5.76377E-10, -9.19068E-06, 25
DataValue, 7.93E-08, 138.00300000000001, 5.7476800000000006E-10, -9.00695E-06, 25
DataValue, 6.1100000000000006E-09, 138.999, 5.71675E-10, -9.75041E-06, 25
DataValue, -6.434E-08, 139.9995, 5.70193E-10, -9.05503E-06, 25
DataValue, 9.0860000000000008E-08, 140.9985, 5.68376E-10, -8.9818699999999991E-06, 25
DataValue, -1.464E-08, 141.999, 5.6606E-10, -8.9368999999999991E-06, 25
DataValue, -1.501E-08, 142.9995, 5.6463400000000008E-10, -8.9973E-06, 25
DataValue, -2.3670000000000003E-08, 144.0015, 5.62516E-10, -8.81564E-06, 25
DataValue, -4.519E-08, 145.00050000000002, 5.6059600000000008E-10, -8.9520599999999991E-06, 25
DataValue, 5.2400000000000009E-09, 146.001, 5.59399E-10, -9.14035E-06, 25
DataValue, 1.0000000000000001E-11, 147.0015, 5.5644800000000006E-10, -9.24109E-06, 25
DataValue, 1.71E-09, 148.002, 5.5515900000000007E-10, -8.74395E-06, 25
DataValue, 5.3110000000000004E-08, 148.9965, 5.5360600000000008E-10, -8.76357E-06, 25
DataValue, -5.1780000000000004E-08, 150.0015, 5.5213200000000005E-10, -8.6825999999999988E-06, 25
DataValue, 5.7550000000000009E-08, 150.996, 5.5045700000000006E-10, -8.57754E-06, 25
DataValue, 3.197E-08, 152.0025, 5.48236E-10, -8.46827E-06, 25
DataValue, -1.79E-08, 153.00300000000001, 5.465E-10, -8.88506E-06, 25
DataValue, 8.7300000000000011E-09, 154.002, 5.4495200000000008E-10, -8.4359599999999991E-06, 25
DataValue, 3.881E-08, 155.001, 5.4334600000000006E-10, -8.609759999999999E-06, 25
DataValue, -2.9010000000000003E-08, 155.997, 5.4160000000000007E-10, -8.57987E-06, 25
DataValue, -1.142E-08, 157.0035, 5.39869E-10, -8.49934E-06, 25
DataValue, -3.208E-08, 158.001, 5.3871800000000006E-10, -8.92242E-06, 25
DataValue, 2.5380000000000003E-08, 158.9985, 5.36939E-10, -8.48918E-06, 25
DataValue, -9.720000000000001E-08, 160.005, 5.3484800000000005E-10, -8.68068E-06, 25
DataValue, -3.351E-08, 160.9995, 5.33373E-10, -8.5378E-06, 25
DataValue, 5.9370000000000008E-08, 161.9985, 5.31745E-10, -8.369169999999999E-06, 25
DataValue, 3.3600000000000004E-09, 163.002, 5.2965300000000005E-10, -7.8715699999999989E-06, 25
DataValue, 1.8570000000000003E-08, 164.001, 5.28445E-10, -8.4473599999999987E-06, 25
DataValue, 3.1080000000000004E-08, 165, 5.2729200000000006E-10, -8.5404299999999991E-06, 25
DataValue, -2.3570000000000002E-08, 166.00050000000002, 5.26044E-10, -8.3851299999999991E-06, 25
DataValue, 4.387E-08, 166.995, 5.24297E-10, -8.25999E-06, 25
DataValue, -1.238E-08, 167.997, 5.2278500000000007E-10, -8.2920599999999987E-06, 25
DataValue, -8.919E-08, 169.002, 5.21272E-10, -8.24994E-06, 25
DataValue, -2.8500000000000003E-09, 169.995, 5.1960200000000006E-10, -8.43713E-06, 25
DataValue, 1.2490000000000001E-08, 170.9985, 5.18935E-10, -8.03427E-06, 25
DataValue, -2.146E-08, 172.00050000000002, 5.1624000000000007E-10, -7.80538E-06, 25
DataValue, 1.2360000000000001E-08, 173.001, 5.1572000000000006E-10, -8.1409E-06, 25
DataValue, -2.427E-08, 173.9985, 5.14234E-10, -8.5020199999999989E-06, 25
DataValue, 1.947E-08, 174.9975, 5.1296200000000007E-10, -7.9076799999999991E-06, 25
DataValue, -4.6200000000000003E-08, 175.9995, 5.1160100000000008E-10, -8.2130199999999988E-06, 25
DataValue, -3.316E-08, 176.9985, 5.09536E-10, -7.9456699999999988E-06, 25
DataValue, 8.333E-08, 177.99450000000002, 5.0886400000000007E-10, -7.98479E-06, 25
DataValue, -1.5590000000000003E-08, 179.0025, 5.08446E-10, -7.69047E-06, 25
DataValue, 2.0390000000000003E-08, 179.9985, 5.05894E-10, -8.14259E-06, 25
DataValue, -1.5520000000000003E-08, 180.9975, 5.04539E-10, -8.006E-06, 25
DataValue, -3.2370000000000005E-08, 181.995, 5.03877E-10, -8.13178E-06, 25
DataValue, 1.935E-08, 183.0015, 5.01165E-10, -7.78602E-06, 25
DataValue, -8.01E-09, 184.0035, 5.01035E-10, -8.22059E-06, 25
DataValue, -1.039E-08, 185.004, 4.9942E-10, -7.96913E-06, 25
DataValue, 1.5100000000000003E-08, 186, 4.9776500000000009E-10, -7.9966699999999988E-06, 25
DataValue, -2.8330000000000003E-08, 186.999, 4.9665E-10, -7.83145E-06, 25
DataValue, 3.2780000000000006E-08, 187.9995, 4.95706E-10, -7.86192E-06, 25
DataValue, -1.75E-08, 188.9985, 4.93897E-10, -7.8923699999999988E-06, 25
DataValue, -3.8190000000000006E-08, 190.0035, 4.93056E-10, -7.32096E-06, 25
DataValue, 4.157E-08, 190.998, 4.91671E-10, -7.75808E-06, 25
DataValue, -3.277E-08, 191.9985, 4.9068E-10, -7.6377E-06, 25
DataValue, -3.0000000000000004E-08, 193.00050000000002, 4.89693E-10, -8.10665E-06, 25
DataValue, 5.7230000000000004E-08, 193.998, 4.8783000000000006E-10, -7.66576E-06, 25
DataValue, -2.804E-08, 195, 4.8616800000000007E-10, -7.32496E-06, 25
DataValue, -5.1900000000000008E-08, 196.002, 4.86081E-10, -8.05976E-06, 25
DataValue, 9.7500000000000013E-09, 197.0025, 4.84881E-10, -7.8682E-06, 25
DataValue, 2.9380000000000002E-08, 198.00300000000001, 4.83234E-10, -7.57154E-06, 25
DataValue, -1.3120000000000001E-08, 199.005, 4.83194E-10, -7.84128E-06, 25
DataValue, -2.483E-08, 200.0025, 4.81151E-10, -7.64997E-06, 25
DataValue, -2.8300000000000004E-09, 200.9985, 4.79204E-10, -7.3755999999999993E-06, 25
DataValue, 9.064000000000001E-08, 202.005, 4.79252E-10, -7.68322E-06, 25
DataValue, -8.314E-08, 202.998, 4.7741600000000006E-10, -7.3960999999999994E-06, 25
DataValue, 2.277E-08, 203.997, 4.76667E-10, -7.6152199999999992E-06, 25
DataValue, -3.3100000000000004E-09, 205.002, 4.7527200000000007E-10, -7.5555399999999993E-06, 25
DataValue, -8.156000000000001E-08, 205.9995, 4.74254E-10, -7.5030299999999995E-06, 25
DataValue, 3.0690000000000005E-08, 206.997, 4.7362100000000007E-10, -7.6182699999999991E-06, 25
DataValue, -4.7020000000000007E-08, 208.00050000000002, 4.7192200000000008E-10, -7.45966E-06, 25
DataValue, 6.4600000000000004E-09, 208.9995, 4.71599E-10, -7.63687E-06, 25
DataValue, 3.58E-08, 209.9985, 4.7007800000000008E-10, -7.5145199999999995E-06, 25
DataValue, 4.5360000000000004E-08, 211.002, 4.69056E-10, -7.46131E-06, 25
DataValue, -4.1720000000000006E-08, 211.9935, 4.68095E-10, -7.41611E-06, 25
DataValue, 3.4210000000000007E-08, 213.00300000000001, 4.6633900000000006E-10, -7.38827E-06, 25
DataValue, 2.3570000000000002E-08, 214.002, 4.6513800000000004E-10, -7.2332199999999993E-06, 25
DataValue, -6.855E-08, 214.998, 4.65027E-10, -7.4339399999999995E-06, 25
DataValue, 6.317E-08, 216, 4.6387200000000004E-10, -7.50858E-06, 25
DataValue, -4.2040000000000005E-08, 217.0035, 4.6110700000000005E-10, -6.76004E-06, 25
DataValue, -4.582E-08, 218.001, 4.6144500000000005E-10, -7.1118699999999992E-06, 25
DataValue, 2.258E-08, 219.0045, 4.6071900000000003E-10, -7.39338E-06, 25
DataValue, -1.2187000000000002E-07, 220.00050000000002, 4.5996200000000005E-10, -6.73674E-06, 25
DataValue, 6.0700000000000008E-08, 220.9995, 4.58752E-10, -7.5810399999999993E-06, 25
DataValue, -7.92E-09, 222, 4.5779600000000003E-10, -7.195E-06, 25
DataValue, 6.2000000000000009E-09, 223.00050000000002, 4.56554E-10, -7.4378099999999992E-06, 25
DataValue, 7.828000000000001E-08, 224.001, 4.5562200000000004E-10, -7.2518299999999993E-06, 25
DataValue, -8.7630000000000011E-08, 225, 4.5453800000000005E-10, -7.19719E-06, 25
DataValue, 2.2800000000000002E-08, 226.002, 4.5401400000000005E-10, -7.09266E-06, 25
DataValue, -1.2840000000000001E-08, 227.0025, 4.5293900000000003E-10, -7.32543E-06, 25
DataValue, -6.903E-08, 228, 4.52444E-10, -7.08093E-06, 25
DataValue, 3.9340000000000007E-08, 229.00050000000002, 4.5111300000000003E-10, -7.23291E-06, 25
DataValue, -3.325E-08, 230.0025, 4.5032400000000004E-10, -7.1671599999999995E-06, 25
DataValue, 2.2680000000000002E-08, 231, 4.4900100000000006E-10, -7.0929099999999993E-06, 25
DataValue, 6.5500000000000007E-09, 232.002, 4.4840400000000006E-10, -6.9973E-06, 25
DataValue, -8.8690000000000009E-08, 232.9995, 4.46953E-10, -7.0046399999999992E-06, 25
DataValue, 3.358E-08, 233.9955, 4.47031E-10, -6.48771E-06, 25
DataValue, -6.38E-08, 234.999, 4.45639E-10, -7.96198E-06, 25
DataValue, -6.8310000000000008E-08, 235.9965, 4.44555E-10, -7.0072799999999993E-06, 25
DataValue, -3.7680000000000004E-08, 237, 4.4362800000000003E-10, -7.09581E-06, 25
DataValue, 1.2970000000000001E-08, 238.002, 4.43083E-10, -7.0111E-06, 25
DataValue, 3.05E-08, 238.9965, 4.4191900000000005E-10, -7.1742999999999992E-06, 25
DataValue, -6.5980000000000012E-08, 240.0015, 4.41077E-10, -7.26092E-06, 25
DataValue, -8.4710000000000009E-08, 240.996, 4.4062200000000004E-10, -7.17881E-06, 25
