
SetupTitle, Cds
ApplicationTest, Cds, Public
TestParameter, Name, Memo, IntegTime, Frequency, OscLevel, Scale, Drain, VdBias, VdStart, VdStop, VdLinearStep, IdLimit, HoldTime, DelayTime, IdMinRange
TestParameter, Value, , SHORT, 100000, 0.025, LINEAR, CMU1:MF	MFCMU, SMU6:HV	HVSMU, 0, 1000, 1, 0.004, 0, 0.08, 10uA
DutParameter, Name, Polarity, Temp, YAxisCdsMin, YAxisCdsMax
DutParameter, Value, 1, 25, 1E-12, 1E-09
MetaData, TestRecord.EntryPoint, true
MetaData, TestRecord.RecordTime, 04/22/2021 09:04:53
MetaData, TestRecord.TestTarget, 
MetaData, TestRecord.IterationIndex, 17
MetaData, TestRecord.Preservation, true
MetaData, TestRecord.Flag, 
MetaData, TestRecord.Remarks, 
MetaData, TestRecord.LinkKey, d134b949-3e15-428c-9876-70e91d00bf16
Dimension1, 1001, 1001, 1001, 1001, 1001
Dimension2, 1, 1, 1, 1, 1
DataName, Ids, Vdrain, Cds, G, Ta
DataValue, -7.5080000000000008E-08, 0, 4.24288E-09, -6.65093E-05, 25
DataValue, 1.9950000000000003E-08, 1.002, 3.63011E-09, -5.73944E-05, 25
DataValue, -1.579E-08, 1.998, 3.28021E-09, -5.1768200000000004E-05, 25
DataValue, 7.888E-08, 3.003, 3.02148E-09, -4.76258E-05, 25
DataValue, -3.2230000000000005E-08, 3.999, 2.81782E-09, -4.5217200000000005E-05, 25
DataValue, 8.4790000000000007E-08, 5.001, 2.65131E-09, -4.2401700000000004E-05, 25
DataValue, -7.93E-09, 5.994, 2.51103E-09, -3.99747E-05, 25
DataValue, -2.4120000000000004E-08, 6.9990000000000006, 2.39068E-09, -3.80507E-05, 25
DataValue, 1.4420000000000001E-08, 7.998, 2.28539E-09, -3.63514E-05, 25
DataValue, 3.026E-08, 8.997, 2.19199E-09, -3.46641E-05, 25
DataValue, 2.6080000000000003E-08, 9.9975, 2.10784E-09, -3.35896E-05, 25
DataValue, 1.1470000000000001E-08, 10.996500000000001, 2.03086E-09, -3.20496E-05, 25
DataValue, -4.7090000000000007E-08, 12.003, 1.95957E-09, -3.11879E-05, 25
DataValue, -3.288E-08, 13.002, 1.88599E-09, -3.0237000000000002E-05, 25
DataValue, 5.2470000000000006E-08, 14.001, 1.80061E-09, -2.5760500000000002E-05, 25
DataValue, -4.5870000000000006E-08, 15.003, 1.62772E-09, -2.2558900000000002E-05, 25
DataValue, -3.6690000000000006E-08, 15.9975, 1.56805E-09, -2.48208E-05, 25
DataValue, -6.74E-09, 17.004, 1.52274E-09, -2.42492E-05, 25
DataValue, -3.096E-08, 18.003, 1.48198E-09, -2.34005E-05, 25
DataValue, -1.006E-08, 19.002, 1.44523E-09, -2.28267E-05, 25
DataValue, 9.5940000000000011E-08, 19.9995, 1.41124E-09, -2.2358200000000002E-05, 25
DataValue, 3.7600000000000006E-08, 21.0045, 1.38048E-09, -2.19434E-05, 25
DataValue, 1.6710000000000002E-08, 22.0035, 1.3509E-09, -2.13797E-05, 25
DataValue, -2.5500000000000003E-08, 23.001, 1.32378E-09, -2.09932E-05, 25
DataValue, 1.6300000000000002E-09, 24.0015, 1.29841E-09, -2.0854E-05, 25
DataValue, 5.6530000000000004E-08, 24.999, 1.27489E-09, -2.03872E-05, 25
DataValue, 4.3000000000000005E-09, 25.9995, 1.252E-09, -1.98646E-05, 25
DataValue, -4.8800000000000007E-08, 27.0015, 1.23078E-09, -1.9595300000000002E-05, 25
DataValue, 1.5000000000000002E-09, 28.0005, 1.21087E-09, -1.9150200000000002E-05, 25
DataValue, -6.687E-08, 28.9965, 1.19165E-09, -1.87365E-05, 25
DataValue, -4.0220000000000005E-08, 29.997, 1.17317E-09, -1.8603200000000002E-05, 25
DataValue, 2.361E-08, 30.999000000000002, 1.15567E-09, -1.83563E-05, 25
DataValue, -1.396E-08, 31.9995, 1.13937E-09, -1.81945E-05, 25
DataValue, -6.0560000000000008E-08, 33.003, 1.12356E-09, -1.82221E-05, 25
DataValue, -3.9490000000000005E-08, 33.999, 1.10848E-09, -1.76668E-05, 25
DataValue, -5.5430000000000007E-08, 34.995, 1.09361E-09, -1.74852E-05, 25
DataValue, 2.6270000000000003E-08, 36, 1.07961E-09, -1.71055E-05, 25
DataValue, -2.3560000000000004E-08, 36.999, 1.0661999999999999E-09, -1.65831E-05, 25
DataValue, -8.240000000000001E-08, 37.9965, 1.05302E-09, -1.67702E-05, 25
DataValue, -3.323E-08, 38.997, 1.04042E-09, -1.64545E-05, 25
DataValue, -5.4540000000000004E-08, 39.999, 1.02847E-09, -1.62943E-05, 25
DataValue, 1.4150000000000001E-08, 40.9995, 1.01644E-09, -1.6248600000000002E-05, 25
DataValue, -4.1590000000000004E-08, 41.9985, 1.00573E-09, -1.57962E-05, 25
DataValue, -4.6500000000000006E-08, 43.0005, 9.94626E-10, -1.5786E-05, 25
DataValue, 6.7030000000000012E-08, 43.9995, 9.8434000000000014E-10, -1.56698E-05, 25
DataValue, 2.771E-08, 44.9985, 9.74029E-10, -1.53917E-05, 25
DataValue, 5.001E-08, 46.0035, 9.64359E-10, -1.53328E-05, 25
DataValue, 4.14E-09, 47.001, 9.54879E-10, -1.53316E-05, 25
DataValue, -1.548E-08, 48, 9.46006E-10, -1.47804E-05, 25
DataValue, 2.4560000000000003E-08, 48.999, 9.3641600000000013E-10, -1.48901E-05, 25
DataValue, 6.2800000000000006E-09, 49.998, 9.27907E-10, -1.4718300000000001E-05, 25
DataValue, -7.910000000000001E-09, 50.9985, 9.19627E-10, -1.47026E-05, 25
DataValue, -3.3450000000000005E-08, 51.9945, 9.10985E-10, -1.43485E-05, 25
DataValue, -3.1420000000000006E-08, 53.001, 9.0329200000000011E-10, -1.43999E-05, 25
DataValue, 8.2520000000000014E-08, 54.0015, 8.95245E-10, -1.42843E-05, 25
DataValue, 8.4E-09, 54.9975, 8.8814900000000007E-10, -1.4319700000000001E-05, 25
DataValue, -9.1280000000000007E-08, 56.0025, 8.8035500000000011E-10, -1.4045300000000001E-05, 25
DataValue, -2.4630000000000003E-08, 57.0015, 8.72909E-10, -1.3788900000000001E-05, 25
DataValue, 9.57E-09, 58.0005, 8.6677100000000011E-10, -1.37412E-05, 25
DataValue, -4.8770000000000006E-08, 58.998000000000005, 8.5894600000000009E-10, -1.3675300000000001E-05, 25
DataValue, 3.9320000000000004E-08, 60.003, 8.5261600000000007E-10, -1.36031E-05, 25
DataValue, -8.019E-08, 61.0035, 8.4626400000000007E-10, -1.34209E-05, 25
DataValue, 3.8410000000000004E-08, 61.999500000000005, 8.3962500000000009E-10, -1.34658E-05, 25
DataValue, 4.8880000000000005E-08, 63.003, 8.33389E-10, -1.33351E-05, 25
DataValue, -2.4660000000000004E-08, 64.0005, 8.27229E-10, -1.31982E-05, 25
DataValue, -1.3090000000000002E-08, 64.9965, 8.21091E-10, -1.29849E-05, 25
DataValue, -2.532E-08, 66, 8.1587100000000011E-10, -1.2861000000000001E-05, 25
DataValue, 1.0040000000000001E-08, 67.0005, 8.09749E-10, -1.28728E-05, 25
DataValue, 6.390000000000001E-08, 68.004, 8.0434900000000011E-10, -1.27726E-05, 25
DataValue, -7.179000000000001E-08, 68.9985, 7.9877800000000009E-10, -1.2571300000000001E-05, 25
DataValue, 2.8070000000000003E-08, 70.0035, 7.9323000000000006E-10, -1.25212E-05, 25
DataValue, -7.5830000000000011E-08, 70.9995, 7.88042E-10, -1.2399700000000001E-05, 25
DataValue, -3.169E-08, 72, 7.830740000000001E-10, -1.25485E-05, 25
DataValue, -9.2100000000000011E-09, 73.002, 7.7791200000000007E-10, -1.23783E-05, 25
DataValue, -8.389E-08, 74.001, 7.7283800000000008E-10, -1.21631E-05, 25
DataValue, -1.637E-08, 75, 7.6807700000000008E-10, -1.2233600000000001E-05, 25
DataValue, -3.5820000000000006E-08, 76.0005, 7.63239E-10, -1.22774E-05, 25
DataValue, -4.271E-08, 76.9965, 7.585940000000001E-10, -1.18584E-05, 25
DataValue, 2.5290000000000003E-08, 78, 7.54126E-10, -1.2225100000000001E-05, 25
DataValue, -1.4860000000000002E-08, 79.008, 7.49571E-10, -1.20091E-05, 25
DataValue, -7.14E-08, 79.998, 7.4533200000000007E-10, -1.18722E-05, 25
DataValue, 4.366E-08, 81.003, 7.40856E-10, -1.1785E-05, 25
DataValue, -7.021E-08, 81.9975, 7.372240000000001E-10, -1.1493E-05, 25
DataValue, -6.002E-08, 83.0025, 7.3251200000000011E-10, -1.16269E-05, 25
DataValue, -1.6970000000000002E-08, 83.9985, 7.284130000000001E-10, -1.15926E-05, 25
DataValue, -2.5450000000000003E-08, 85.002, 7.245440000000001E-10, -1.1498E-05, 25
DataValue, 4.122E-08, 85.9995, 7.2022400000000006E-10, -1.15287E-05, 25
DataValue, -5.9700000000000007E-09, 87, 7.1665600000000005E-10, -1.14699E-05, 25
DataValue, -1.3400000000000001E-09, 87.996, 7.1262200000000009E-10, -1.13176E-05, 25
DataValue, 1.0340000000000001E-07, 89.0025, 7.08697E-10, -1.14281E-05, 25
DataValue, 1.2090000000000001E-08, 89.997, 7.05586E-10, -1.12407E-05, 25
DataValue, -1.754E-08, 91.0035, 7.0138800000000008E-10, -1.1211E-05, 25
DataValue, -9.84E-09, 92.001, 6.9798700000000006E-10, -1.13942E-05, 25
DataValue, -4.1120000000000007E-08, 93.001500000000007, 6.94331E-10, -1.12158E-05, 25
DataValue, 3.3520000000000005E-08, 94.0035, 6.91005E-10, -1.07614E-05, 25
DataValue, -2.132E-08, 95.004, 6.8693E-10, -1.10963E-05, 25
DataValue, -4.701E-08, 96, 6.8423600000000008E-10, -1.09685E-05, 25
DataValue, 2.324E-08, 97.005, 6.80797E-10, -1.08058E-05, 25
DataValue, -6.289E-08, 98.0025, 6.7715900000000006E-10, -1.0726300000000001E-05, 25
DataValue, -1.1610000000000001E-08, 99.001500000000007, 6.7404000000000008E-10, -1.07543E-05, 25
DataValue, -1.4390000000000002E-08, 99.999, 6.70936E-10, -1.06878E-05, 25
DataValue, -1.9330000000000002E-08, 100.9995, 6.6792600000000006E-10, -1.05801E-05, 25
DataValue, 2.127E-08, 101.9985, 6.65065E-10, -1.04401E-05, 25
DataValue, -3.3E-09, 102.9975, 6.6145500000000007E-10, -1.0717000000000001E-05, 25
DataValue, -6.979E-08, 103.998, 6.5868200000000006E-10, -1.05635E-05, 25
DataValue, 7.25E-09, 105.00450000000001, 6.559740000000001E-10, -1.05058E-05, 25
DataValue, -9.4590000000000015E-08, 105.999, 6.52929E-10, -1.02368E-05, 25
DataValue, 2.9680000000000002E-08, 107.0055, 6.4978700000000006E-10, -1.03027E-05, 25
DataValue, 9.65E-09, 107.9985, 6.4708800000000007E-10, -1.04996E-05, 25
DataValue, -1.619E-08, 109.0005, 6.4418100000000005E-10, -1.04176E-05, 25
DataValue, 2.1330000000000003E-08, 110.0025, 6.41429E-10, -1.01316E-05, 25
DataValue, 1.914E-08, 111, 6.386420000000001E-10, -1.04025E-05, 25
DataValue, -1.0450000000000001E-08, 111.99900000000001, 6.360020000000001E-10, -1.01002E-05, 25
DataValue, 2.0160000000000003E-08, 112.9995, 6.3331300000000009E-10, -9.90346E-06, 25
DataValue, -4.1120000000000007E-08, 113.994, 6.30266E-10, -1.011E-05, 25
DataValue, 3.277E-08, 115.0065, 6.27964E-10, -9.98012E-06, 25
DataValue, -6.4260000000000008E-08, 115.9965, 6.2543000000000008E-10, -9.88938E-06, 25
DataValue, 3.2060000000000004E-08, 117.00450000000001, 6.229610000000001E-10, -9.85425E-06, 25
DataValue, 1.9900000000000003E-08, 117.9975, 6.205140000000001E-10, -9.87009E-06, 25
DataValue, -1.2770000000000001E-08, 118.998, 6.1741200000000006E-10, -9.6827099999999986E-06, 25
DataValue, -8.725E-08, 119.9955, 6.15638E-10, -9.88559E-06, 25
DataValue, 2.5840000000000002E-08, 120.9975, 6.1311100000000008E-10, -9.73731E-06, 25
DataValue, -4.921E-08, 122.001, 6.10789E-10, -9.8071399999999991E-06, 25
DataValue, -1.7070000000000003E-08, 122.997, 6.0865300000000009E-10, -9.67842E-06, 25
DataValue, -2.8800000000000004E-09, 124.00200000000001, 6.06309E-10, -9.60233E-06, 25
DataValue, -3.762E-08, 124.9995, 6.03646E-10, -9.7463499999999986E-06, 25
DataValue, 2.8790000000000002E-08, 126, 6.0156600000000009E-10, -9.7175599999999988E-06, 25
DataValue, 1.0650000000000001E-08, 127.00200000000001, 5.99543E-10, -9.72186E-06, 25
DataValue, -6.8700000000000013E-08, 127.9965, 5.9697400000000009E-10, -9.5593099999999991E-06, 25
DataValue, 7.9000000000000006E-10, 129, 5.94689E-10, -9.63071E-06, 25
DataValue, 1.6180000000000003E-08, 130.0035, 5.92473E-10, -9.57351E-06, 25
DataValue, -1.156E-08, 130.9995, 5.90418E-10, -9.40343E-06, 25
DataValue, -5.671E-08, 132.00300000000001, 5.8832800000000006E-10, -9.50219E-06, 25
DataValue, -1.0271000000000001E-07, 133.00050000000002, 5.86309E-10, -9.48389E-06, 25
DataValue, -2.087E-08, 134.001, 5.84421E-10, -9.30624E-06, 25
DataValue, 1.7650000000000003E-08, 134.997, 5.82523E-10, -9.31529E-06, 25
DataValue, -2.4300000000000003E-08, 135.999, 5.8016000000000009E-10, -9.16644E-06, 25
DataValue, -2.1440000000000002E-08, 136.998, 5.7805900000000006E-10, -9.3091499999999988E-06, 25
DataValue, 2.2430000000000003E-08, 138.0015, 5.7649600000000009E-10, -8.91752E-06, 25
DataValue, 2.5690000000000004E-08, 138.9975, 5.73946E-10, -9.11596E-06, 25
DataValue, 9.9500000000000014E-09, 139.9995, 5.7219300000000009E-10, -8.93022E-06, 25
DataValue, 1.3880000000000001E-08, 141.0045, 5.7041E-10, -9.246189999999999E-06, 25
DataValue, -1.6320000000000003E-08, 142.00050000000002, 5.6835800000000008E-10, -9.14916E-06, 25
DataValue, -1.217E-08, 143.001, 5.66507E-10, -9.01396E-06, 25
DataValue, 2.0300000000000002E-09, 143.997, 5.6469200000000006E-10, -9.16207E-06, 25
DataValue, -1.6500000000000002E-08, 144.999, 5.6282600000000008E-10, -9.10207E-06, 25
DataValue, -8.4000000000000011E-08, 145.998, 5.6073800000000005E-10, -9.03516E-06, 25
DataValue, 3.776E-08, 146.9985, 5.5916300000000009E-10, -8.8432E-06, 25
DataValue, -3.8800000000000007E-09, 148.002, 5.57348E-10, -8.7203E-06, 25
DataValue, -8.3430000000000013E-08, 148.998, 5.55672E-10, -8.81909E-06, 25
DataValue, -1.1610000000000001E-08, 149.997, 5.5364100000000007E-10, -8.83065E-06, 25
DataValue, -3.0000000000000004E-08, 150.999, 5.52113E-10, -8.6440699999999987E-06, 25
DataValue, 5.0790000000000007E-08, 151.9995, 5.50365E-10, -8.7493899999999989E-06, 25
DataValue, -1.01E-09, 153.00300000000001, 5.4843400000000007E-10, -8.70864E-06, 25
DataValue, -3.636E-08, 153.999, 5.47055E-10, -8.7340099999999987E-06, 25
DataValue, 4.882E-08, 155.001, 5.45098E-10, -8.5612799999999991E-06, 25
DataValue, 7.81E-09, 156, 5.43609E-10, -8.65333E-06, 25
DataValue, -2.4280000000000003E-08, 156.999, 5.4200900000000007E-10, -8.7008099999999988E-06, 25
DataValue, -8.1900000000000009E-09, 157.9935, 5.40004E-10, -8.6447299999999991E-06, 25
DataValue, -1.518E-08, 158.9985, 5.38544E-10, -8.35072E-06, 25
DataValue, 2.099E-08, 159.999, 5.3712700000000006E-10, -8.54264E-06, 25
DataValue, 6.4520000000000011E-08, 160.9965, 5.3544000000000007E-10, -8.46363E-06, 25
DataValue, -1.0218E-07, 161.997, 5.33771E-10, -8.3684E-06, 25
DataValue, -4.2500000000000008E-09, 163.00050000000002, 5.32467E-10, -8.786659999999999E-06, 25
DataValue, -2.4120000000000004E-08, 164.001, 5.3072700000000006E-10, -8.75396E-06, 25
DataValue, 5.2150000000000007E-08, 165.006, 5.29453E-10, -8.53129E-06, 25
DataValue, -6.2200000000000004E-09, 166.00050000000002, 5.2772800000000008E-10, -8.2738E-06, 25
DataValue, -5.0860000000000007E-08, 167.0025, 5.26505E-10, -8.419539999999999E-06, 25
DataValue, 3.2830000000000003E-08, 168.0045, 5.24687E-10, -8.5816E-06, 25
DataValue, 7.46E-09, 169.00050000000002, 5.23149E-10, -8.21057E-06, 25
DataValue, 2.0000000000000003E-10, 170.001, 5.21975E-10, -8.40287E-06, 25
DataValue, 3.445E-08, 171, 5.2020800000000009E-10, -8.2672899999999989E-06, 25
DataValue, -8.8210000000000007E-08, 171.99450000000002, 5.1883300000000008E-10, -8.207669999999999E-06, 25
DataValue, 2.0090000000000003E-08, 172.9995, 5.1781800000000006E-10, -8.17492E-06, 25
DataValue, 2.5700000000000002E-08, 173.997, 5.1619300000000008E-10, -8.35221E-06, 25
DataValue, -8.7640000000000009E-08, 175.00050000000002, 5.1458900000000007E-10, -8.17439E-06, 25
DataValue, 5.7700000000000005E-09, 175.9965, 5.1317900000000007E-10, -8.0606499999999988E-06, 25
DataValue, -1.534E-08, 176.9985, 5.1155300000000008E-10, -8.2303E-06, 25
DataValue, -5.5600000000000008E-08, 177.9975, 5.10496E-10, -8.0308899999999989E-06, 25
DataValue, -4.9230000000000005E-08, 178.998, 5.0929600000000006E-10, -8.19475E-06, 25
DataValue, -5.5670000000000008E-08, 180.0015, 5.07895E-10, -7.9920699999999989E-06, 25
DataValue, -2.1100000000000004E-09, 180.9975, 5.06616E-10, -8.24185E-06, 25
DataValue, -1.6240000000000002E-08, 181.9965, 5.0526200000000009E-10, -8.01151E-06, 25
DataValue, -6.9060000000000011E-08, 182.9985, 5.04048E-10, -8.0353699999999989E-06, 25
DataValue, 2.7870000000000004E-08, 184.002, 5.0264E-10, -7.96688E-06, 25
DataValue, 3.4960000000000003E-08, 185.0025, 5.0113600000000006E-10, -8.03691E-06, 25
DataValue, 1.738E-08, 186.0045, 4.9976E-10, -7.8206399999999987E-06, 25
DataValue, 3.8920000000000007E-08, 187.00050000000002, 4.98743E-10, -8.07202E-06, 25
DataValue, -5.1170000000000008E-08, 188.001, 4.97252E-10, -8.054259999999999E-06, 25
DataValue, -1.7000000000000003E-08, 189.00300000000001, 4.9615800000000006E-10, -8.032319999999999E-06, 25
DataValue, 5.7450000000000008E-08, 190.002, 4.94885E-10, -7.727289999999999E-06, 25
DataValue, -1.9550000000000003E-08, 191.0025, 4.9409900000000007E-10, -7.57159E-06, 25
DataValue, -2.7450000000000004E-08, 192, 4.9263000000000009E-10, -8.00514E-06, 25
DataValue, -3.94E-08, 193.00050000000002, 4.9149E-10, -7.70381E-06, 25
DataValue, -6.4900000000000005E-09, 193.9965, 4.89972E-10, -7.9228099999999988E-06, 25
DataValue, 6.706E-08, 195.0015, 4.88755E-10, -7.7873699999999989E-06, 25
DataValue, -1.2367000000000002E-07, 196.00050000000002, 4.87655E-10, -7.62501E-06, 25
DataValue, 1.3940000000000001E-08, 196.998, 4.86364E-10, -7.87809E-06, 25
DataValue, -3.025E-08, 197.9955, 4.85363E-10, -7.85318E-06, 25
DataValue, 2.17E-09, 199.0035, 4.8433600000000007E-10, -7.67674E-06, 25
DataValue, -2.2800000000000002E-08, 199.9995, 4.8284200000000008E-10, -7.70354E-06, 25
DataValue, -4.6390000000000007E-08, 201.0045, 4.8146700000000007E-10, -7.57325E-06, 25
DataValue, -6.017E-08, 201.999, 4.8082E-10, -7.7082999999999987E-06, 25
DataValue, 4.2410000000000007E-08, 202.9995, 4.79385E-10, -7.83771E-06, 25
DataValue, -6.218E-08, 204.0045, 4.7835E-10, -7.73548E-06, 25
DataValue, 3.3E-09, 204.9975, 4.7749000000000007E-10, -7.4172999999999993E-06, 25
DataValue, -2.9460000000000004E-08, 205.998, 4.7616400000000007E-10, -7.51336E-06, 25
DataValue, -3.5090000000000005E-08, 207.0015, 4.7511500000000007E-10, -7.7318199999999991E-06, 25
DataValue, 1.6030000000000002E-08, 207.999, 4.73894E-10, -7.66233E-06, 25
DataValue, -8.62E-09, 209.001, 4.7304200000000007E-10, -7.39526E-06, 25
DataValue, -4.47E-08, 209.9985, 4.7172600000000005E-10, -7.4422099999999995E-06, 25
DataValue, 4.1470000000000007E-08, 211.00050000000002, 4.70949E-10, -7.47693E-06, 25
DataValue, 2.0910000000000003E-08, 211.9965, 4.69696E-10, -7.65181E-06, 25
DataValue, -4.2200000000000007E-09, 213.0015, 4.6887300000000008E-10, -7.2707E-06, 25
DataValue, -1.7020000000000003E-08, 214.00050000000002, 4.67902E-10, -7.3947199999999994E-06, 25
DataValue, 2.9380000000000002E-08, 214.9995, 4.66516E-10, -7.1619299999999995E-06, 25
DataValue, -1.0125000000000001E-07, 216.00300000000001, 4.65705E-10, -7.28666E-06, 25
DataValue, 1.0720000000000001E-08, 216.9975, 4.6478700000000003E-10, -7.52064E-06, 25
DataValue, -1.7810000000000002E-08, 218.001, 4.6341000000000006E-10, -7.37143E-06, 25
DataValue, 2.162E-08, 219, 4.62995E-10, -7.35294E-06, 25
DataValue, 5.1670000000000005E-08, 220.002, 4.6145000000000005E-10, -7.45587E-06, 25
DataValue, -3.929E-08, 221.004, 4.60778E-10, -7.2231599999999995E-06, 25
DataValue, 3.5200000000000004E-08, 222, 4.5938200000000004E-10, -7.2012399999999992E-06, 25
DataValue, -1.2890000000000002E-08, 223.00650000000002, 4.5868900000000004E-10, -7.34955E-06, 25
DataValue, -4.425E-08, 224.004, 4.57475E-10, -7.3438899999999994E-06, 25
DataValue, 4.3020000000000004E-08, 225, 4.56529E-10, -7.2994E-06, 25
DataValue, 3.8580000000000005E-08, 226.005, 4.5581700000000006E-10, -7.1840999999999995E-06, 25
DataValue, -3.455E-08, 226.9965, 4.5490100000000006E-10, -7.2616599999999992E-06, 25
DataValue, -4.3780000000000006E-08, 228, 4.5381000000000006E-10, -7.3956899999999995E-06, 25
DataValue, -4.2980000000000005E-08, 228.999, 4.52702E-10, -7.27616E-06, 25
DataValue, -1.754E-08, 230.0055, 4.5220000000000005E-10, -7.15283E-06, 25
DataValue, 6.26E-09, 231.0015, 4.5084200000000003E-10, -7.4010999999999993E-06, 25
DataValue, -1.0510000000000001E-08, 232.00650000000002, 4.50045E-10, -7.1788399999999992E-06, 25
DataValue, 5.9280000000000005E-08, 233.0025, 4.4928E-10, -7.1401199999999993E-06, 25
DataValue, 8.0400000000000012E-09, 234, 4.4822200000000005E-10, -7.2635499999999993E-06, 25
DataValue, 7.788E-08, 234.999, 4.4742100000000005E-10, -7.18403E-06, 25
DataValue, 2.661E-08, 235.9995, 4.4653400000000004E-10, -7.1940599999999992E-06, 25
DataValue, -1.1156000000000001E-07, 236.9955, 4.4588E-10, -7.0922E-06, 25
DataValue, 9.23E-09, 238.00050000000002, 4.4491800000000003E-10, -7.1355199999999994E-06, 25
