
SetupTitle, Cds
ApplicationTest, Cds, Public
TestParameter, Name, Memo, IntegTime, Frequency, OscLevel, Scale, Drain, VdBias, VdStart, VdStop, VdLinearStep, IdLimit, HoldTime, DelayTime, IdMinRange
TestParameter, Value, , SHORT, 100000, 0.025, LINEAR, CMU1:MF	MFCMU, SMU6:HV	HVSMU, 0, 1000, 1, 0.004, 0, 0.08, 10uA
DutParameter, Name, Polarity, Temp, YAxisCdsMin, YAxisCdsMax
DutParameter, Value, 1, 25, 1E-12, 1E-09
MetaData, TestRecord.EntryPoint, true
MetaData, TestRecord.RecordTime, 04/22/2021 08:23:34
MetaData, TestRecord.TestTarget, 
MetaData, TestRecord.IterationIndex, 9
MetaData, TestRecord.Preservation, true
MetaData, TestRecord.Flag, 
MetaData, TestRecord.Remarks, 
MetaData, TestRecord.LinkKey, b05cebc6-a1d8-4e53-b0e8-922cecc37875
Dimension1, 1001, 1001, 1001, 1001, 1001
Dimension2, 1, 1, 1, 1, 1
DataName, Ids, Vdrain, Cds, G, Ta
DataValue, -5.2860000000000005E-08, 0.003, 1.73449E-09, -2.1669100000000002E-05, 25
DataValue, 2.86E-08, 1.0005, 1.3821E-09, -1.96334E-05, 25
DataValue, 1.1403000000000001E-07, 2.004, 1.22413E-09, -1.78345E-05, 25
DataValue, -9.3650000000000008E-08, 3.0015, 1.12335E-09, -1.66495E-05, 25
DataValue, -1.8890000000000002E-08, 4.0035, 1.04368E-09, -1.5421700000000002E-05, 25
DataValue, 3.591E-08, 5.0025, 9.7807400000000015E-10, -1.4149800000000001E-05, 25
DataValue, -7.3730000000000012E-08, 5.9985, 9.22928E-10, -1.36818E-05, 25
DataValue, 6.847E-08, 6.9990000000000006, 8.752070000000001E-10, -1.2963000000000001E-05, 25
DataValue, 9.300000000000001E-10, 8.001, 8.33725E-10, -1.24406E-05, 25
DataValue, -2.9580000000000004E-08, 8.997, 7.93421E-10, -1.20138E-05, 25
DataValue, 6.3840000000000008E-08, 10.0005, 7.58499E-10, -1.15485E-05, 25
DataValue, -1.0863000000000001E-07, 11.001, 7.2516800000000008E-10, -1.05713E-05, 25
DataValue, -1.6850000000000002E-08, 11.997, 6.92187E-10, -1.02567E-05, 25
DataValue, 1.6310000000000002E-08, 12.999, 6.62729E-10, -9.99557E-06, 25
DataValue, -5.8520000000000004E-08, 14.001, 6.28389E-10, -9.20302E-06, 25
DataValue, 4.683E-08, 15, 5.51004E-10, -8.05003E-06, 25
DataValue, -2.8150000000000004E-08, 16.0005, 5.2580800000000005E-10, -8.06752E-06, 25
DataValue, -1.5310000000000003E-08, 16.995, 5.06677E-10, -7.1057E-06, 25
DataValue, 8.317000000000001E-08, 18.0015, 4.9089100000000006E-10, -7.47539E-06, 25
DataValue, -1.4000000000000001E-08, 19.0035, 4.76721E-10, -7.0558099999999993E-06, 25
DataValue, 2.5430000000000003E-08, 20.001, 4.6425100000000003E-10, -6.89227E-06, 25
DataValue, 4.512E-08, 21.0045, 4.5248E-10, -6.7603099999999993E-06, 25
DataValue, 3.3480000000000006E-08, 21.9975, 4.4175000000000005E-10, -6.4188599999999994E-06, 25
DataValue, -1.2703000000000002E-07, 23.004, 4.3262500000000004E-10, -6.65224E-06, 25
DataValue, 5.3940000000000005E-08, 23.9985, 4.2330900000000005E-10, -6.59751E-06, 25
DataValue, 3.6240000000000006E-08, 25.0065, 4.1464300000000005E-10, -6.0619599999999995E-06, 25
DataValue, -4.258E-08, 25.998, 4.0657700000000003E-10, -6.21413E-06, 25
DataValue, 7.167E-08, 27.0015, 3.9957400000000003E-10, -6.36491E-06, 25
DataValue, -8.966000000000001E-08, 28.005, 3.92841E-10, -5.87457E-06, 25
DataValue, 8.400000000000001E-10, 28.9965, 3.86488E-10, -5.54997E-06, 25
DataValue, -7.67E-09, 29.9985, 3.7982500000000003E-10, -5.72537E-06, 25
DataValue, -1.1437000000000001E-07, 31.002, 3.73821E-10, -5.87596E-06, 25
DataValue, 8.313E-08, 32.0025, 3.6776700000000004E-10, -5.83455E-06, 25
DataValue, -3.85E-08, 32.9985, 3.6226600000000005E-10, -5.91444E-06, 25
DataValue, 2.4930000000000002E-08, 34.0005, 3.5811100000000003E-10, -5.4477599999999995E-06, 25
DataValue, 6.9190000000000013E-08, 34.9995, 3.52325E-10, -5.12478E-06, 25
DataValue, -6.1330000000000007E-08, 36.0015, 3.4823600000000005E-10, -5.51208E-06, 25
DataValue, 3.0140000000000004E-08, 37.0005, 3.44109E-10, -5.58253E-06, 25
DataValue, -1.3E-09, 37.998, 3.3935800000000004E-10, -5.36624E-06, 25
DataValue, -4.8490000000000006E-08, 39.0045, 3.3506700000000004E-10, -5.2879E-06, 25
DataValue, 9.3910000000000012E-08, 40.002, 3.3091600000000005E-10, -5.15378E-06, 25
DataValue, -7.872E-08, 40.9935, 3.2751600000000004E-10, -5.09148E-06, 25
DataValue, -8.77E-09, 42.0015, 3.2389E-10, -5.03586E-06, 25
DataValue, -5.100000000000001E-10, 42.999, 3.1956700000000004E-10, -4.92252E-06, 25
DataValue, -4.7410000000000006E-08, 43.9995, 3.1639600000000003E-10, -5.0159E-06, 25
DataValue, 4.4090000000000006E-08, 45.0045, 3.12731E-10, -5.1219499999999993E-06, 25
DataValue, 1.591E-08, 45.996, 3.10661E-10, -4.6926E-06, 25
DataValue, 1.3460000000000001E-08, 47.007, 3.0666400000000004E-10, -4.5481E-06, 25
DataValue, 2.8800000000000004E-09, 47.997, 3.03455E-10, -4.50061E-06, 25
DataValue, -2.8500000000000004E-08, 48.9945, 3.0038900000000003E-10, -4.6377199999999994E-06, 25
DataValue, -8.3000000000000013E-10, 49.998, 2.9774E-10, -4.2694999999999995E-06, 25
DataValue, -2.0290000000000002E-08, 51.003, 2.95089E-10, -4.50657E-06, 25
DataValue, -7.05E-08, 52.0005, 2.91733E-10, -4.22909E-06, 25
DataValue, 7.5990000000000007E-08, 53.0025, 2.89461E-10, -4.33633E-06, 25
DataValue, 1.4720000000000002E-08, 54, 2.8738500000000004E-10, -4.7905999999999995E-06, 25
DataValue, 8.6600000000000011E-09, 54.999, 2.84271E-10, -4.3708799999999994E-06, 25
DataValue, 1.2181E-07, 56.0025, 2.81797E-10, -4.43108E-06, 25
DataValue, -8.362E-08, 56.9985, 2.79163E-10, -3.9514999999999994E-06, 25
DataValue, -2.3230000000000004E-08, 58.005, 2.7747E-10, -4.20929E-06, 25
DataValue, 5.4880000000000006E-08, 59.0025, 2.7483800000000004E-10, -4.1859899999999995E-06, 25
DataValue, -1.2082000000000002E-07, 60, 2.7283600000000003E-10, -3.9769E-06, 25
DataValue, 9.2380000000000011E-08, 61.0035, 2.70526E-10, -3.90031E-06, 25
DataValue, -4.676E-08, 61.996500000000005, 2.68834E-10, -4.08219E-06, 25
DataValue, -3.2370000000000005E-08, 63.006, 2.67199E-10, -4.28549E-06, 25
DataValue, 6.7790000000000013E-08, 63.999, 2.6511600000000003E-10, -4.30088E-06, 25
DataValue, -8.9180000000000008E-08, 64.9995, 2.6210400000000004E-10, -4.3845E-06, 25
DataValue, 2.6600000000000003E-09, 65.9985, 2.6114600000000004E-10, -4.2647E-06, 25
DataValue, -4.4060000000000005E-08, 67.0035, 2.58818E-10, -4.12136E-06, 25
DataValue, -7.9530000000000011E-08, 68.001, 2.57346E-10, -3.8138599999999998E-06, 25
DataValue, 9.9150000000000011E-08, 69.004500000000007, 2.55169E-10, -4.25841E-06, 25
DataValue, -6.0610000000000011E-08, 70.0035, 2.53206E-10, -3.92313E-06, 25
DataValue, 9.1500000000000009E-09, 70.998, 2.52077E-10, -3.66645E-06, 25
DataValue, 4.9790000000000004E-08, 72, 2.49934E-10, -4.18372E-06, 25
DataValue, -2.6320000000000003E-08, 72.999, 2.4834600000000004E-10, -3.87916E-06, 25
DataValue, 4.5880000000000005E-08, 74.001, 2.4722E-10, -4.2429199999999994E-06, 25
DataValue, 7.0240000000000012E-08, 75.004500000000007, 2.4610900000000003E-10, -4.00218E-06, 25
DataValue, -7.5770000000000009E-08, 75.999, 2.44142E-10, -3.77167E-06, 25
DataValue, 4.519E-08, 77.001, 2.4238400000000003E-10, -3.79711E-06, 25
DataValue, -3.312E-08, 78.003, 2.41232E-10, -3.6316299999999997E-06, 25
DataValue, -3.2790000000000004E-08, 78.999, 2.39441E-10, -3.84665E-06, 25
DataValue, 1.0013000000000001E-07, 80.001, 2.38297E-10, -3.97966E-06, 25
DataValue, -4.093E-08, 80.9985, 2.3640700000000004E-10, -3.6479899999999998E-06, 25
DataValue, -1.893E-08, 82.0005, 2.35031E-10, -3.83951E-06, 25
DataValue, -6.7000000000000004E-09, 82.9995, 2.33185E-10, -3.46913E-06, 25
DataValue, -6.9620000000000011E-08, 84.001500000000007, 2.32504E-10, -3.63003E-06, 25
DataValue, 1.4691E-07, 84.996, 2.3131800000000002E-10, -3.3951E-06, 25
DataValue, -5.0280000000000004E-08, 86.004, 2.3017600000000002E-10, -3.52298E-06, 25
DataValue, 6.3200000000000005E-09, 87.003, 2.2931400000000002E-10, -3.6377999999999997E-06, 25
DataValue, 1.3400000000000001E-09, 88.002, 2.28075E-10, -3.48398E-06, 25
DataValue, -1.7035000000000001E-07, 88.9995, 2.2639500000000002E-10, -3.1795099999999996E-06, 25
DataValue, 1.1654000000000001E-07, 90.004500000000007, 2.2480900000000001E-10, -3.1328E-06, 25
DataValue, -4.4620000000000005E-08, 91.002, 2.2442500000000003E-10, -3.02058E-06, 25
DataValue, -7.7460000000000007E-08, 91.9995, 2.2343900000000002E-10, -3.5044E-06, 25
DataValue, 4.2940000000000006E-08, 92.9955, 2.2132900000000002E-10, -2.9120099999999997E-06, 25
DataValue, -4.1660000000000004E-08, 94.005, 2.2114500000000002E-10, -3.29289E-06, 25
DataValue, 1.3720000000000001E-08, 95.001, 2.19285E-10, -3.6915099999999996E-06, 25
DataValue, -6.1100000000000006E-09, 96.003, 2.1828400000000003E-10, -3.5035199999999997E-06, 25
DataValue, -4.8690000000000008E-08, 97.0035, 2.17586E-10, -3.2344399999999997E-06, 25
DataValue, 1.327E-08, 98.0055, 2.1571000000000002E-10, -3.88014E-06, 25
DataValue, 4.1E-09, 99, 2.156E-10, -2.5522699999999997E-06, 25
DataValue, -7.817E-08, 99.9975, 2.1441200000000003E-10, -3.24144E-06, 25
DataValue, 1.0659000000000002E-07, 101.0025, 2.13828E-10, -3.08007E-06, 25
DataValue, -5.4760000000000009E-08, 102.00150000000001, 2.1274100000000002E-10, -3.1577399999999997E-06, 25
DataValue, 2.4560000000000003E-08, 103.002, 2.1084600000000002E-10, -3.50483E-06, 25
DataValue, 3.351E-08, 103.998, 2.1037400000000003E-10, -3.24683E-06, 25
DataValue, -3.0860000000000006E-08, 104.997, 2.0915600000000002E-10, -3.3504299999999997E-06, 25
DataValue, 5.8990000000000007E-08, 105.999, 2.0805600000000002E-10, -3.54796E-06, 25
DataValue, -8.738E-08, 106.998, 2.0699200000000002E-10, -3.3582099999999997E-06, 25
DataValue, -4.7400000000000006E-09, 108.00150000000001, 2.06412E-10, -3.5357699999999997E-06, 25
DataValue, 6.313000000000001E-08, 108.9975, 2.0555500000000002E-10, -3.1236199999999997E-06, 25
DataValue, -9.918E-08, 110.001, 2.0492500000000002E-10, -3.10204E-06, 25
DataValue, 6.1950000000000009E-08, 111.00150000000001, 2.0407000000000003E-10, -3.36529E-06, 25
DataValue, -2.4870000000000004E-08, 111.9975, 2.0300200000000001E-10, -3.51522E-06, 25
DataValue, -2.2590000000000002E-08, 113.004, 2.02079E-10, -3.23291E-06, 25
DataValue, -3.94E-09, 114.003, 2.00347E-10, -2.70204E-06, 25
DataValue, -4.3790000000000004E-08, 114.99900000000001, 2.0311500000000003E-10, -3.0418E-06, 25
DataValue, 3.3E-09, 115.9995, 1.9819000000000002E-10, -2.3235699999999997E-06, 25
DataValue, 2.8760000000000004E-08, 117.003, 1.9908200000000002E-10, -2.99976E-06, 25
DataValue, -9.6130000000000014E-08, 117.9975, 1.97493E-10, -2.8789299999999996E-06, 25
DataValue, 7.330000000000001E-09, 118.9995, 1.9546600000000002E-10, -2.9744E-06, 25
DataValue, 5.4140000000000007E-08, 120.00450000000001, 1.984E-10, -2.4654599999999997E-06, 25
DataValue, -1.5430000000000003E-08, 121.0005, 1.9595100000000001E-10, -3.23756E-06, 25
DataValue, 1.4820000000000001E-08, 121.9995, 1.9465900000000002E-10, -2.8459899999999997E-06, 25
DataValue, -5.748E-08, 123.003, 1.942E-10, -2.9826499999999997E-06, 25
DataValue, 5.266E-08, 124.00500000000001, 1.9327600000000002E-10, -2.87309E-06, 25
DataValue, 1.7600000000000001E-09, 125.0025, 1.9264700000000003E-10, -2.97143E-06, 25
DataValue, -9.036000000000001E-08, 126.003, 1.9110900000000002E-10, -3.2875399999999997E-06, 25
DataValue, 4.2620000000000007E-08, 127.0005, 1.9114600000000002E-10, -3.02328E-06, 25
DataValue, -5.1680000000000004E-08, 127.998, 1.9051800000000001E-10, -3.33074E-06, 25
DataValue, 8.400000000000001E-10, 129, 1.9020500000000002E-10, -2.95051E-06, 25
DataValue, 4.617E-08, 130.0035, 1.8933100000000002E-10, -2.7907099999999997E-06, 25
DataValue, -1.0814000000000001E-07, 130.9995, 1.88294E-10, -2.8473399999999997E-06, 25
DataValue, -1.579E-08, 132, 1.87727E-10, -3.1487799999999997E-06, 25
DataValue, 1.0030000000000001E-08, 133.002, 1.87266E-10, -2.0973599999999998E-06, 25
DataValue, -6.8910000000000013E-08, 133.995, 1.86254E-10, -2.95785E-06, 25
DataValue, 7.2490000000000009E-08, 135, 1.8596500000000001E-10, -2.8012199999999997E-06, 25
DataValue, -1.609E-08, 136.00050000000002, 1.86293E-10, -3.29163E-06, 25
DataValue, -5.3040000000000004E-08, 136.998, 1.8405900000000003E-10, -2.74058E-06, 25
DataValue, 5.2720000000000005E-08, 138.00300000000001, 1.8400700000000002E-10, -3.2194299999999996E-06, 25
DataValue, -7.707E-08, 138.9975, 1.8334500000000003E-10, -2.7363199999999997E-06, 25
DataValue, -3.6840000000000004E-08, 139.998, 1.8272100000000003E-10, -2.9364799999999996E-06, 25
DataValue, -1.129E-08, 141.0015, 1.80971E-10, -2.5380799999999998E-06, 25
DataValue, -1.1829000000000001E-07, 142.00050000000002, 1.8176200000000002E-10, -3.07881E-06, 25
DataValue, 4.9970000000000003E-08, 143.001, 1.8091000000000003E-10, -2.7541799999999997E-06, 25
DataValue, -1.2810000000000002E-08, 143.9985, 1.7932800000000002E-10, -3.03821E-06, 25
DataValue, 1.1880000000000001E-08, 145.002, 1.80124E-10, -2.56632E-06, 25
DataValue, 9.6840000000000012E-08, 146.001, 1.7924600000000002E-10, -2.7999799999999997E-06, 25
DataValue, -9.3470000000000016E-08, 147.00300000000001, 1.77834E-10, -2.2325E-06, 25
DataValue, 7.665E-08, 148.0035, 1.7753800000000002E-10, -3.0696E-06, 25
DataValue, 8.0000000000000008E-11, 149.0025, 1.7746900000000003E-10, -2.9991699999999996E-06, 25
DataValue, -1.595E-08, 150.0015, 1.77476E-10, -2.83328E-06, 25
DataValue, -8.100000000000001E-10, 150.996, 1.76237E-10, -2.6897E-06, 25
DataValue, -8.612E-08, 152.001, 1.7550300000000001E-10, -2.90858E-06, 25
DataValue, -1.35E-09, 153.0015, 1.74694E-10, -2.71203E-06, 25
DataValue, -3.378E-08, 154.00050000000002, 1.7506000000000001E-10, -2.56484E-06, 25
DataValue, -6.297E-08, 154.9965, 1.74008E-10, -2.6385599999999998E-06, 25
DataValue, -3.0970000000000005E-08, 155.997, 1.7366300000000002E-10, -2.6677999999999997E-06, 25
DataValue, -3.717E-08, 157.00050000000002, 1.7255100000000002E-10, -2.65811E-06, 25
DataValue, -1.6080000000000002E-08, 158.001, 1.72378E-10, -2.40203E-06, 25
DataValue, 5.7580000000000003E-08, 158.9985, 1.7225900000000003E-10, -2.80625E-06, 25
DataValue, -3.263E-08, 160.00050000000002, 1.7124300000000002E-10, -2.4989399999999997E-06, 25
DataValue, -1.583E-08, 160.995, 1.70811E-10, -2.7664699999999997E-06, 25
DataValue, 1.64E-08, 162, 1.69868E-10, -2.9079599999999997E-06, 25
DataValue, -1.2963E-07, 162.996, 1.7007400000000002E-10, -2.56355E-06, 25
DataValue, 9.685000000000001E-08, 163.998, 1.6944E-10, -2.48571E-06, 25
DataValue, -2.991E-08, 165, 1.6890500000000002E-10, -2.38539E-06, 25
DataValue, 4.99E-09, 165.9975, 1.68403E-10, -2.61142E-06, 25
DataValue, 7.1490000000000013E-08, 166.998, 1.6811800000000002E-10, -2.57503E-06, 25
DataValue, -5.3250000000000004E-08, 168.0015, 1.67863E-10, -2.694E-06, 25
DataValue, 3.3310000000000005E-08, 169.00050000000002, 1.66872E-10, -2.74659E-06, 25
DataValue, -8.7900000000000013E-09, 170.0025, 1.66749E-10, -2.8137899999999998E-06, 25
DataValue, -1.1344000000000002E-07, 170.997, 1.6626E-10, -2.4532199999999998E-06, 25
DataValue, 1.0379E-07, 172.00050000000002, 1.6520200000000003E-10, -2.47879E-06, 25
DataValue, -5.7080000000000006E-08, 172.9965, 1.65052E-10, -3.1204699999999996E-06, 25
DataValue, 4.46E-08, 174.00300000000001, 1.65377E-10, -2.69659E-06, 25
DataValue, 1.0449E-07, 174.999, 1.6519200000000002E-10, -2.4162699999999997E-06, 25
DataValue, -1.2858E-07, 175.9995, 1.6399000000000002E-10, -2.78372E-06, 25
DataValue, 2.4670000000000002E-08, 176.997, 1.63853E-10, -2.50283E-06, 25
DataValue, -8.896000000000001E-08, 178.00050000000002, 1.6271900000000003E-10, -2.58994E-06, 25
DataValue, -5.6190000000000009E-08, 179.001, 1.62226E-10, -2.61695E-06, 25
DataValue, 1.6100000000000002E-08, 180, 1.62096E-10, -2.5547399999999997E-06, 25
DataValue, -8.3990000000000013E-08, 180.999, 1.6230300000000002E-10, -2.5966399999999997E-06, 25
DataValue, 1.0560000000000002E-08, 181.9995, 1.6094300000000002E-10, -2.8158E-06, 25
DataValue, -6.0760000000000009E-08, 183, 1.60797E-10, -2.99076E-06, 25
DataValue, -2.8770000000000002E-08, 184.0035, 1.60032E-10, -2.29825E-06, 25
DataValue, 1.5170000000000003E-08, 184.998, 1.59481E-10, -2.70041E-06, 25
DataValue, 2.3E-08, 185.9985, 1.60791E-10, -2.6237699999999998E-06, 25
DataValue, -3.1400000000000003E-09, 186.999, 1.59125E-10, -2.5823899999999998E-06, 25
DataValue, 6.8710000000000011E-08, 187.9965, 1.59222E-10, -2.62729E-06, 25
DataValue, -1.9870000000000002E-08, 189, 1.5787600000000002E-10, -2.19214E-06, 25
DataValue, 5.8540000000000007E-08, 190.002, 1.58047E-10, -2.26568E-06, 25
DataValue, 7.446E-08, 191.004, 1.5709200000000001E-10, -2.03823E-06, 25
DataValue, -6.0350000000000008E-08, 192, 1.57824E-10, -2.1234E-06, 25
DataValue, 2.1040000000000002E-08, 193.002, 1.5660400000000002E-10, -2.57451E-06, 25
DataValue, -3.8190000000000006E-08, 193.9995, 1.5614400000000003E-10, -2.6459999999999997E-06, 25
DataValue, 3.4820000000000003E-08, 195, 1.5613100000000002E-10, -2.62002E-06, 25
DataValue, 3.5370000000000005E-08, 196.00050000000002, 1.5519700000000002E-10, -2.61041E-06, 25
DataValue, -9.1030000000000015E-08, 196.998, 1.55536E-10, -2.37129E-06, 25
DataValue, -1.7200000000000003E-09, 198.00300000000001, 1.55006E-10, -2.3371799999999997E-06, 25
DataValue, 1.4260000000000002E-08, 199.002, 1.54548E-10, -2.62528E-06, 25
DataValue, -4.3090000000000004E-08, 199.9995, 1.5435300000000002E-10, -2.6528699999999996E-06, 25
DataValue, 9.0100000000000009E-09, 200.9985, 1.54081E-10, -1.90338E-06, 25
DataValue, -8.8280000000000007E-08, 201.9975, 1.5353400000000002E-10, -2.6197299999999996E-06, 25
DataValue, 2.942E-08, 202.9995, 1.5272300000000002E-10, -2.74208E-06, 25
DataValue, 3.274E-08, 204.0015, 1.52888E-10, -2.5721399999999997E-06, 25
DataValue, -5.3040000000000004E-08, 204.996, 1.5211800000000002E-10, -1.99253E-06, 25
DataValue, 2.9620000000000003E-08, 205.9965, 1.51998E-10, -2.6212199999999997E-06, 25
DataValue, -2.9360000000000003E-08, 207.0015, 1.5200000000000002E-10, -1.9008199999999998E-06, 25
DataValue, -6.909E-08, 208.00050000000002, 1.51616E-10, -2.2048799999999997E-06, 25
DataValue, 2.6220000000000003E-08, 208.998, 1.5053600000000002E-10, -2.1698E-06, 25
DataValue, -9.413000000000001E-08, 210, 1.51155E-10, -2.40316E-06, 25
DataValue, -2.9630000000000005E-08, 210.9975, 1.5072800000000001E-10, -2.44011E-06, 25
DataValue, 3.951E-08, 212.001, 1.502E-10, -2.28717E-06, 25
DataValue, -1.0226E-07, 213.0015, 1.49561E-10, -2.5885E-06, 25
DataValue, 7.3030000000000013E-08, 214.005, 1.4957200000000002E-10, -2.12331E-06, 25
DataValue, -5.7090000000000004E-08, 214.998, 1.48624E-10, -1.91872E-06, 25
DataValue, 1.3460000000000001E-08, 216.00300000000001, 1.48964E-10, -2.27816E-06, 25
DataValue, 2.5340000000000004E-08, 217.00050000000002, 1.48531E-10, -2.6699499999999997E-06, 25
DataValue, -3.856E-08, 217.998, 1.4847500000000002E-10, -2.17179E-06, 25
DataValue, 6.918E-08, 218.9985, 1.4761300000000002E-10, -1.8249599999999999E-06, 25
DataValue, -1.0494000000000001E-07, 220.002, 1.4747400000000002E-10, -2.6584E-06, 25
DataValue, -1.525E-08, 220.9965, 1.4724200000000002E-10, -2.12238E-06, 25
DataValue, 2.0280000000000004E-08, 222.00300000000001, 1.47301E-10, -2.6739999999999997E-06, 25
DataValue, -1.6270000000000003E-08, 222.999, 1.45963E-10, -2.40259E-06, 25
DataValue, -1.4650000000000002E-08, 223.9995, 1.46062E-10, -2.2933899999999997E-06, 25
DataValue, -1.5746E-07, 224.9985, 1.4563000000000002E-10, -2.0859899999999997E-06, 25
DataValue, 4.7300000000000007E-08, 225.996, 1.45942E-10, -2.3411699999999997E-06, 25
DataValue, -4.7030000000000005E-08, 227.001, 1.45688E-10, -1.94513E-06, 25
DataValue, 4.9000000000000007E-10, 228.00300000000001, 1.4521400000000002E-10, -2.2938699999999998E-06, 25
DataValue, 3.1360000000000004E-08, 229.0035, 1.44531E-10, -1.98299E-06, 25
DataValue, -1.1031000000000001E-07, 230.004, 1.44861E-10, -2.02774E-06, 25
DataValue, 1.0181000000000001E-07, 231, 1.4393300000000001E-10, -2.46716E-06, 25
DataValue, -1.5920000000000003E-08, 232.00650000000002, 1.44323E-10, -2.14879E-06, 25
