
SetupTitle, Cds
ApplicationTest, Cds, Public
TestParameter, Name, Memo, IntegTime, Frequency, OscLevel, Scale, Drain, VdBias, VdStart, VdStop, VdLinearStep, IdLimit, HoldTime, DelayTime, IdMinRange
TestParameter, Value, , SHORT, 100000, 0.025, LINEAR, CMU1:MF	MFCMU, SMU6:HV	HVSMU, 0, 1000, 1, 0.004, 0, 0.08, 10uA
DutParameter, Name, Polarity, Temp, YAxisCdsMin, YAxisCdsMax
DutParameter, Value, 1, 25, 1E-12, 1E-09
MetaData, TestRecord.EntryPoint, true
MetaData, TestRecord.RecordTime, 04/22/2021 09:34:18
MetaData, TestRecord.TestTarget, 
MetaData, TestRecord.IterationIndex, 22
MetaData, TestRecord.Preservation, true
MetaData, TestRecord.Flag, 
MetaData, TestRecord.Remarks, 
MetaData, TestRecord.LinkKey, e091f0d9-ea5c-45d5-8478-69c616eaaae3
Dimension1, 1001, 1001, 1001, 1001, 1001
Dimension2, 1, 1, 1, 1, 1
DataName, Ids, Vdrain, Cds, G, Ta
DataValue, -7.72E-09, -0.0015, 4.40458E-09, -6.88234E-05, 25
DataValue, -5.1630000000000006E-08, 1.0005, 3.64323E-09, -5.83055E-05, 25
DataValue, -6.1100000000000011E-08, 1.9965, 3.26406E-09, -5.0646600000000004E-05, 25
DataValue, -1.4780000000000002E-08, 3.003, 2.99634E-09, -4.64079E-05, 25
DataValue, 2.546E-08, 4.0005, 2.78865E-09, -4.3145E-05, 25
DataValue, 3.5200000000000003E-09, 5.001, 2.61931E-09, -4.1134800000000005E-05, 25
DataValue, 5.0260000000000008E-08, 6, 2.47748E-09, -3.87563E-05, 25
DataValue, 7.4200000000000004E-09, 7.005, 2.35538E-09, -3.67759E-05, 25
DataValue, 4.7580000000000007E-08, 7.9995, 2.24639E-09, -3.5203E-05, 25
DataValue, 3.1920000000000004E-08, 9, 2.14557E-09, -3.3627E-05, 25
DataValue, 1.5500000000000003E-08, 10.0035, 2.05E-09, -2.5428300000000002E-05, 25
DataValue, 2.2540000000000002E-08, 11.0025, 1.81833E-09, 1.00814E-05, 25
DataValue, -9.84E-09, 12, 1.60443E-09, -1.23252E-05, 25
DataValue, 2.7770000000000003E-08, 13.0005, 1.51465E-09, -2.132E-05, 25
DataValue, 9.65E-09, 13.999500000000001, 1.4611299999999999E-09, -2.23694E-05, 25
DataValue, 4.4030000000000004E-08, 14.997, 1.41554E-09, -2.16679E-05, 25
DataValue, 6.819E-08, 15.999, 1.37492E-09, -2.10767E-05, 25
DataValue, 2.7660000000000004E-08, 16.9965, 1.33774E-09, -2.04459E-05, 25
DataValue, 8.216E-08, 17.997, 1.30358E-09, -2.00129E-05, 25
DataValue, 2.4840000000000003E-08, 19.0035, 1.27243E-09, -1.95183E-05, 25
DataValue, 5.8300000000000008E-09, 20.0025, 1.24317E-09, -1.90411E-05, 25
DataValue, 3.6000000000000004E-09, 21, 1.21609E-09, -1.87173E-05, 25
DataValue, -2.6440000000000004E-08, 22.005, 1.1907E-09, -1.8320500000000002E-05, 25
DataValue, 5.7600000000000008E-09, 22.998, 1.16691E-09, -1.79802E-05, 25
DataValue, -2.612E-08, 23.9985, 1.14498E-09, -1.76891E-05, 25
DataValue, -2.9890000000000005E-08, 25.002, 1.12387E-09, -1.7694800000000002E-05, 25
DataValue, -9.9E-10, 25.9995, 1.10383E-09, -1.70444E-05, 25
DataValue, 4.5920000000000004E-08, 26.9985, 1.08496E-09, -1.6738400000000002E-05, 25
DataValue, 3.2540000000000006E-08, 27.997500000000002, 1.06715E-09, -1.65333E-05, 25
DataValue, 2.4800000000000004E-08, 29.0025, 1.05026E-09, -1.61405E-05, 25
DataValue, 7.7800000000000008E-09, 29.9985, 1.03393E-09, -1.5976400000000002E-05, 25
DataValue, 8.0090000000000011E-08, 30.999000000000002, 1.01814E-09, -1.57167E-05, 25
DataValue, -1.1370000000000002E-08, 31.9995, 1.00351E-09, -1.55709E-05, 25
DataValue, -7.5890000000000013E-08, 32.997, 9.89394E-10, -1.5341E-05, 25
DataValue, 1.375E-08, 33.999, 9.7597200000000011E-10, -1.49752E-05, 25
DataValue, -3.552E-08, 34.9995, 9.6285E-10, -1.49866E-05, 25
DataValue, -4.0420000000000007E-08, 36, 9.50598E-10, -1.46595E-05, 25
DataValue, -2.8920000000000004E-08, 37.002, 9.38582E-10, -1.45686E-05, 25
DataValue, -6.378E-08, 37.995, 9.271560000000001E-10, -1.43948E-05, 25
DataValue, 2.4420000000000003E-08, 39, 9.1594300000000007E-10, -1.4242E-05, 25
DataValue, 8.0780000000000013E-08, 40.0065, 9.0526500000000008E-10, -1.4037700000000001E-05, 25
DataValue, -8.96E-09, 41.001, 8.95015E-10, -1.39764E-05, 25
DataValue, 4.8700000000000006E-08, 42.003, 8.85217E-10, -1.3731800000000001E-05, 25
DataValue, -2.8650000000000002E-08, 43.002, 8.75512E-10, -1.35052E-05, 25
DataValue, 2.3930000000000003E-08, 43.9995, 8.662030000000001E-10, -1.3440500000000001E-05, 25
DataValue, 1.584E-08, 45, 8.57179E-10, -1.33074E-05, 25
DataValue, -4.09E-08, 45.9975, 8.4853000000000007E-10, -1.3141E-05, 25
DataValue, 4.34E-09, 47.001, 8.3991500000000009E-10, -1.29508E-05, 25
DataValue, -6.0400000000000011E-08, 47.997, 8.31749E-10, -1.28844E-05, 25
DataValue, -4.408E-08, 48.996, 8.2379800000000007E-10, -1.27462E-05, 25
DataValue, 7.07E-08, 49.998, 8.16077E-10, -1.26372E-05, 25
DataValue, -5.4600000000000006E-09, 51.003, 8.0860900000000006E-10, -1.25169E-05, 25
DataValue, -1.35E-09, 51.9975, 8.009480000000001E-10, -1.2458600000000001E-05, 25
DataValue, -3.253E-08, 52.998, 7.9430300000000006E-10, -1.2299300000000001E-05, 25
DataValue, -4.708E-08, 53.997, 7.87234E-10, -1.2195100000000001E-05, 25
DataValue, 5.3350000000000005E-08, 55.0035, 7.8066000000000007E-10, -1.21831E-05, 25
DataValue, 2.3620000000000002E-08, 55.999500000000005, 7.74028E-10, -1.21824E-05, 25
DataValue, -4.9850000000000006E-08, 56.9985, 7.6758100000000006E-10, -1.20122E-05, 25
DataValue, 1.2400000000000002E-08, 57.996, 7.6140900000000005E-10, -1.1811800000000001E-05, 25
DataValue, -4.5620000000000007E-08, 58.999500000000005, 7.5521700000000008E-10, -1.1750000000000001E-05, 25
DataValue, -2.057E-08, 59.997, 7.49653E-10, -1.16392E-05, 25
DataValue, -3.284E-08, 60.999, 7.4361300000000011E-10, -1.15542E-05, 25
DataValue, -2.204E-08, 62.001000000000005, 7.378630000000001E-10, -1.1523700000000001E-05, 25
DataValue, -7.46E-09, 62.997, 7.3231300000000005E-10, -1.13516E-05, 25
DataValue, 3.301E-08, 63.9975, 7.2686600000000006E-10, -1.1296500000000001E-05, 25
DataValue, -2.4E-10, 65.001, 7.21946E-10, -1.1257100000000001E-05, 25
DataValue, 4.575E-08, 65.9985, 7.16639E-10, -1.1144300000000001E-05, 25
DataValue, -7.015E-08, 66.996, 7.114310000000001E-10, -1.11399E-05, 25
DataValue, -2.4400000000000003E-08, 67.995, 7.06699E-10, -1.10135E-05, 25
DataValue, -5.8100000000000004E-08, 69.001500000000007, 7.02066E-10, -1.0994E-05, 25
DataValue, -4.0040000000000006E-08, 69.9975, 6.9695100000000007E-10, -1.10209E-05, 25
DataValue, -2.8360000000000004E-08, 70.9995, 6.9254100000000008E-10, -1.0871600000000001E-05, 25
DataValue, -4.453E-08, 72.003, 6.8780100000000005E-10, -1.06721E-05, 25
DataValue, -1.89E-08, 72.999, 6.8341E-10, -1.05769E-05, 25
DataValue, 7.3310000000000013E-08, 73.9995, 6.7912E-10, -1.05887E-05, 25
DataValue, 1.7510000000000003E-08, 74.9985, 6.7490500000000006E-10, -1.0584E-05, 25
DataValue, 1.745E-08, 76.0035, 6.70384E-10, -1.0514E-05, 25
DataValue, 1.1790000000000002E-08, 76.998, 6.66196E-10, -1.05219E-05, 25
DataValue, -2.839E-08, 77.997, 6.62581E-10, -1.02849E-05, 25
DataValue, 3.3490000000000004E-08, 78.999, 6.5863500000000007E-10, -1.02695E-05, 25
DataValue, -2.3020000000000004E-08, 80.001, 6.54698E-10, -1.0183200000000001E-05, 25
DataValue, -2.7500000000000002E-09, 80.9985, 6.50841E-10, -1.02112E-05, 25
DataValue, -3.5030000000000003E-08, 81.9945, 6.4704000000000007E-10, -1.01735E-05, 25
DataValue, -9.4910000000000007E-08, 83.004, 6.43215E-10, -9.987E-06, 25
DataValue, 2.5500000000000003E-08, 83.997, 6.39732E-10, -9.91869E-06, 25
DataValue, -3.985E-08, 84.999, 6.3611900000000007E-10, -9.9234699999999987E-06, 25
DataValue, -1.3E-08, 86.0025, 6.3259800000000005E-10, -9.87028E-06, 25
DataValue, 3.8340000000000004E-08, 86.997, 6.291E-10, -9.87883E-06, 25
DataValue, -6.3540000000000012E-08, 87.9975, 6.25734E-10, -9.6679399999999988E-06, 25
DataValue, 2.1910000000000002E-08, 88.9995, 6.22383E-10, -9.79621E-06, 25
DataValue, 6.1940000000000011E-08, 90.001500000000007, 6.1929E-10, -9.64204E-06, 25
DataValue, -3.7530000000000006E-08, 90.999, 6.1582500000000009E-10, -9.5601999999999987E-06, 25
DataValue, 1.3370000000000002E-08, 91.998, 6.1286000000000009E-10, -9.5393999999999988E-06, 25
DataValue, 2.9500000000000003E-08, 93.001500000000007, 6.09486E-10, -9.433189999999999E-06, 25
DataValue, 9.4700000000000014E-09, 94.0035, 6.0663800000000007E-10, -9.5722899999999991E-06, 25
DataValue, 1.012E-08, 95.0025, 6.03652E-10, -9.363179999999999E-06, 25
DataValue, -3.2540000000000006E-08, 96.004500000000007, 6.005420000000001E-10, -9.3713399999999989E-06, 25
DataValue, -4.121E-08, 97.0005, 5.97521E-10, -9.16164E-06, 25
DataValue, -5.4990000000000005E-08, 97.998, 5.94759E-10, -9.30522E-06, 25
DataValue, 2.7420000000000003E-08, 99.004500000000007, 5.9199500000000008E-10, -9.2011499999999991E-06, 25
DataValue, 2.1420000000000003E-08, 99.996, 5.8899400000000009E-10, -9.21429E-06, 25
DataValue, -4.93E-09, 101.0055, 5.8614600000000006E-10, -9.13294E-06, 25
DataValue, -2.434E-08, 102.006, 5.83536E-10, -9.1111299999999986E-06, 25
DataValue, 1.0774000000000001E-07, 103.002, 5.8070000000000007E-10, -9.08981E-06, 25
DataValue, 1.6180000000000003E-08, 104.001, 5.78211E-10, -8.9960799999999987E-06, 25
DataValue, 2.5970000000000004E-08, 104.997, 5.75473E-10, -8.96367E-06, 25
DataValue, -4.0350000000000007E-08, 105.9945, 5.7297200000000006E-10, -9.0401299999999988E-06, 25
DataValue, -2.8000000000000003E-08, 107.0025, 5.7043200000000008E-10, -8.93204E-06, 25
DataValue, 4.24E-09, 108, 5.6799500000000006E-10, -8.85493E-06, 25
DataValue, -1.6380000000000002E-08, 109.0005, 5.65374E-10, -8.85828E-06, 25
DataValue, -3.3030000000000005E-08, 109.9965, 5.6305400000000007E-10, -8.9084E-06, 25
DataValue, -4.4650000000000006E-08, 111.00150000000001, 5.60593E-10, -8.768739999999999E-06, 25
DataValue, -2.284E-08, 111.9975, 5.5825800000000008E-10, -8.72678E-06, 25
DataValue, 7.381000000000001E-08, 113.001, 5.5592000000000008E-10, -8.74535E-06, 25
DataValue, 1.947E-08, 113.9985, 5.53493E-10, -8.7145E-06, 25
DataValue, -1.907E-08, 115.0005, 5.5121700000000006E-10, -8.5194999999999986E-06, 25
DataValue, 2.5970000000000004E-08, 115.9965, 5.49226E-10, -8.61539E-06, 25
DataValue, 6.804E-08, 117.003, 5.4685600000000008E-10, -8.50055E-06, 25
DataValue, -2.4860000000000002E-08, 118.0005, 5.44824E-10, -8.5291899999999989E-06, 25
DataValue, -4.7E-10, 119.001, 5.42597E-10, -8.516549999999999E-06, 25
DataValue, -4.8E-10, 120, 5.40147E-10, -8.467439999999999E-06, 25
DataValue, 2.1250000000000002E-08, 121.00200000000001, 5.38233E-10, -8.39775E-06, 25
DataValue, 8.9000000000000013E-10, 122.004, 5.3609400000000009E-10, -8.3483699999999992E-06, 25
DataValue, -2.2450000000000003E-08, 123.00450000000001, 5.3393E-10, -8.42144E-06, 25
DataValue, 3.0970000000000005E-08, 124.00200000000001, 5.3195600000000006E-10, -8.32338E-06, 25
DataValue, 1.2920000000000001E-08, 124.998, 5.3007600000000006E-10, -8.2923999999999987E-06, 25
DataValue, -2.38E-09, 126, 5.27996E-10, -8.269179999999999E-06, 25
DataValue, -1.204E-08, 127.00200000000001, 5.25973E-10, -8.09963E-06, 25
DataValue, -3.291E-08, 127.9965, 5.24095E-10, -8.117439999999999E-06, 25
DataValue, -5.8740000000000008E-08, 128.994, 5.22104E-10, -8.1867699999999989E-06, 25
DataValue, 2.593E-08, 130.00650000000002, 5.19884E-10, -8.21206E-06, 25
DataValue, 6.600000000000001E-10, 130.998, 5.1842400000000009E-10, -8.01421E-06, 25
DataValue, 1.769E-08, 132.00300000000001, 5.1625100000000006E-10, -8.04078E-06, 25
DataValue, 3.7E-08, 133.00050000000002, 5.1464700000000005E-10, -7.94285E-06, 25
DataValue, 4.3E-08, 134.0025, 5.1294800000000006E-10, -8.039269999999999E-06, 25
DataValue, 1.3020000000000002E-08, 135, 5.10944E-10, -8.00523E-06, 25
DataValue, -6.706E-08, 136.00050000000002, 5.0958800000000008E-10, -7.9907899999999991E-06, 25
DataValue, 1.682E-08, 137.001, 5.07458E-10, -7.92176E-06, 25
DataValue, 1.8190000000000003E-08, 138, 5.05738E-10, -7.96106E-06, 25
DataValue, -4.987E-08, 138.9975, 5.0391200000000009E-10, -7.90256E-06, 25
DataValue, -2.0160000000000003E-08, 139.998, 5.0192200000000008E-10, -7.7751399999999989E-06, 25
DataValue, -7.302E-08, 141.0015, 5.0035300000000006E-10, -7.77604E-06, 25
DataValue, -6.1500000000000005E-09, 142.002, 4.9894E-10, -7.63315E-06, 25
DataValue, -2.981E-08, 142.9995, 4.97143E-10, -7.8098899999999988E-06, 25
DataValue, 6.8000000000000005E-09, 144.0015, 4.95271E-10, -7.7917999999999988E-06, 25
DataValue, -8.2500000000000011E-09, 144.996, 4.93669E-10, -7.70359E-06, 25
DataValue, 5.6400000000000009E-08, 146.0025, 4.92076E-10, -7.69962E-06, 25
DataValue, -2.1650000000000002E-08, 146.9985, 4.90765E-10, -7.6689999999999989E-06, 25
DataValue, -7.46E-09, 148.002, 4.8915800000000008E-10, -7.6559699999999988E-06, 25
DataValue, -2.8260000000000003E-08, 148.9995, 4.8762500000000006E-10, -7.63791E-06, 25
DataValue, 1.4910000000000002E-08, 149.9985, 4.85885E-10, -7.66424E-06, 25
DataValue, 7.239E-08, 151.008, 4.84425E-10, -7.62783E-06, 25
DataValue, -5.6940000000000006E-08, 151.995, 4.82764E-10, -7.67776E-06, 25
DataValue, 2.1860000000000002E-08, 152.997, 4.8134500000000006E-10, -7.763E-06, 25
DataValue, -4.6270000000000003E-08, 154.00050000000002, 4.79931E-10, -7.6080299999999994E-06, 25
DataValue, -8.7700000000000011E-08, 154.995, 4.7855100000000008E-10, -7.51341E-06, 25
DataValue, -7.751000000000001E-08, 155.997, 4.76884E-10, -7.4318199999999994E-06, 25
DataValue, -4.285E-08, 157.002, 4.7552E-10, -7.4942499999999994E-06, 25
DataValue, 1.4290000000000001E-08, 157.9995, 4.74169E-10, -7.48062E-06, 25
DataValue, -4.0000000000000004E-11, 159.0015, 4.72647E-10, -7.4476299999999992E-06, 25
DataValue, -4.903E-08, 160.002, 4.7137800000000007E-10, -7.4042599999999993E-06, 25
DataValue, -1.6290000000000002E-08, 160.998, 4.6965700000000009E-10, -7.24387E-06, 25
DataValue, -2.6600000000000003E-08, 162, 4.68516E-10, -7.34255E-06, 25
DataValue, 3.985E-08, 163.002, 4.6723100000000006E-10, -7.4252E-06, 25
DataValue, -5.577E-08, 163.998, 4.65972E-10, -7.2885E-06, 25
DataValue, 5.1000000000000007E-08, 165, 4.6447600000000005E-10, -7.22763E-06, 25
DataValue, -2.3580000000000003E-08, 165.999, 4.6316000000000003E-10, -7.39757E-06, 25
DataValue, 1.935E-08, 167.001, 4.6191E-10, -7.21314E-06, 25
DataValue, 1.872E-08, 168.0015, 4.6054700000000005E-10, -7.25564E-06, 25
DataValue, -2.1660000000000003E-08, 168.996, 4.5923900000000005E-10, -7.16518E-06, 25
DataValue, 9.77E-09, 169.998, 4.57952E-10, -7.1345599999999992E-06, 25
DataValue, -2.087E-08, 171.0015, 4.5678400000000003E-10, -7.2458599999999993E-06, 25
DataValue, -4.0770000000000007E-08, 171.999, 4.55396E-10, -7.2045499999999995E-06, 25
DataValue, 2.3130000000000003E-08, 172.998, 4.5415600000000003E-10, -7.1724099999999991E-06, 25
DataValue, -7.2570000000000007E-08, 173.9955, 4.52895E-10, -7.22681E-06, 25
DataValue, 2.4300000000000003E-08, 175.00050000000002, 4.5173600000000005E-10, -7.1777399999999993E-06, 25
DataValue, -2.0530000000000003E-08, 175.998, 4.5042700000000004E-10, -7.1239699999999995E-06, 25
DataValue, -8.4150000000000009E-08, 176.997, 4.4911200000000003E-10, -7.1600399999999995E-06, 25
DataValue, -3.0900000000000003E-09, 178.0035, 4.4817900000000004E-10, -6.9498299999999995E-06, 25
DataValue, -4.4990000000000008E-08, 179.001, 4.4690100000000004E-10, -7.1214599999999992E-06, 25
DataValue, -2.1510000000000002E-08, 180.0015, 4.4582E-10, -6.9911199999999996E-06, 25
DataValue, 5.7960000000000004E-08, 181.00050000000002, 4.4426400000000006E-10, -6.97422E-06, 25
DataValue, 1.577E-08, 181.9995, 4.4341E-10, -6.9567399999999992E-06, 25
DataValue, -3.514E-08, 182.997, 4.4213400000000004E-10, -6.9456399999999995E-06, 25
DataValue, 2.9710000000000003E-08, 184.0035, 4.4115200000000004E-10, -6.95964E-06, 25
DataValue, -3.5990000000000007E-08, 185.0025, 4.3992400000000005E-10, -6.84345E-06, 25
DataValue, -2.921E-08, 185.994, 4.38872E-10, -6.8620799999999994E-06, 25
DataValue, -7.102000000000001E-08, 187.00050000000002, 4.3794200000000006E-10, -6.7860299999999995E-06, 25
DataValue, -3.4210000000000007E-08, 187.9995, 4.36575E-10, -6.8358299999999994E-06, 25
DataValue, 3.245E-08, 189.0045, 4.3551200000000005E-10, -6.9120499999999993E-06, 25
DataValue, -3.0170000000000005E-08, 189.999, 4.3449400000000005E-10, -6.7636E-06, 25
DataValue, -3.657E-08, 190.9995, 4.3315400000000003E-10, -6.7030999999999994E-06, 25
DataValue, -6.6800000000000009E-09, 192.0015, 4.32411E-10, -6.7470999999999993E-06, 25
DataValue, -1.679E-08, 193.005, 4.3122500000000003E-10, -6.7759799999999995E-06, 25
DataValue, 6.218E-08, 193.9995, 4.3005200000000005E-10, -6.79021E-06, 25
DataValue, 3.6760000000000006E-08, 195.0015, 4.2923800000000004E-10, -6.7860399999999993E-06, 25
DataValue, -1.4510000000000002E-08, 195.9975, 4.2784000000000004E-10, -6.7253799999999995E-06, 25
DataValue, 2.5960000000000002E-08, 196.998, 4.26806E-10, -6.67314E-06, 25
DataValue, -3.075E-08, 198, 4.2594900000000006E-10, -6.6958699999999993E-06, 25
DataValue, -5.8010000000000008E-08, 198.999, 4.25064E-10, -6.5337899999999993E-06, 25
DataValue, 1.252E-08, 200.001, 4.2383200000000004E-10, -6.6049499999999993E-06, 25
DataValue, -5.1280000000000007E-08, 201.0075, 4.23123E-10, -6.64456E-06, 25
DataValue, -1.04E-08, 202.005, 4.2189300000000005E-10, -6.5906399999999995E-06, 25
DataValue, -5.6560000000000005E-08, 202.998, 4.20997E-10, -6.6500899999999994E-06, 25
DataValue, -5.8720000000000006E-08, 204.0015, 4.2028300000000005E-10, -6.6534199999999994E-06, 25
DataValue, -4.55E-09, 205.00050000000002, 4.1911300000000004E-10, -6.5572899999999992E-06, 25
DataValue, 1.8000000000000002E-09, 205.9995, 4.1811E-10, -6.5764099999999993E-06, 25
DataValue, 1.998E-08, 206.9955, 4.17031E-10, -6.5612E-06, 25
DataValue, 2.907E-08, 207.999, 4.1608800000000004E-10, -6.62024E-06, 25
DataValue, -1.825E-08, 208.9995, 4.1513000000000004E-10, -6.57855E-06, 25
DataValue, -2.3290000000000002E-08, 210.006, 4.14108E-10, -6.5728299999999995E-06, 25
DataValue, 2.0150000000000002E-08, 210.999, 4.1331400000000003E-10, -6.45231E-06, 25
DataValue, -2.4610000000000003E-08, 212.004, 4.12263E-10, -6.3708399999999995E-06, 25
DataValue, 4.7730000000000005E-08, 213.00300000000001, 4.11312E-10, -6.57179E-06, 25
DataValue, -3.723E-08, 214.00050000000002, 4.1030800000000004E-10, -6.49257E-06, 25
DataValue, 1.0510000000000001E-08, 215.0025, 4.0948E-10, -6.43866E-06, 25
DataValue, 5.4320000000000006E-08, 215.9985, 4.0840300000000003E-10, -6.42922E-06, 25
DataValue, -1.9600000000000003E-09, 216.999, 4.07691E-10, -6.1717199999999994E-06, 25
DataValue, -1.1320000000000001E-08, 218.001, 4.06689E-10, -6.3604499999999994E-06, 25
DataValue, 4.0000000000000004E-11, 218.997, 4.0618100000000005E-10, -6.3197399999999992E-06, 25
DataValue, 2.3060000000000003E-08, 220.002, 4.0471000000000004E-10, -6.54984E-06, 25
DataValue, 1.3520000000000001E-08, 221.001, 4.04316E-10, -6.39593E-06, 25
DataValue, -1.7750000000000003E-08, 221.994, 4.03496E-10, -6.3920299999999995E-06, 25
DataValue, -1.19E-08, 222.9975, 4.0254500000000003E-10, -6.3330499999999994E-06, 25
DataValue, -4.0370000000000003E-08, 223.9965, 4.0174500000000004E-10, -6.43812E-06, 25
DataValue, -9.207E-08, 225.0015, 4.0097400000000005E-10, -6.26014E-06, 25
DataValue, -3.224E-08, 226.0035, 4.0000300000000004E-10, -6.29432E-06, 25
DataValue, -3.566E-08, 226.9935, 3.99205E-10, -6.30708E-06, 25
DataValue, -6.938E-08, 228.0015, 3.98234E-10, -6.31431E-06, 25
DataValue, 3.259E-08, 229.00050000000002, 3.97366E-10, -6.21058E-06, 25
DataValue, 1.2130000000000002E-08, 230.001, 3.9661500000000003E-10, -6.34929E-06, 25
DataValue, 2.9620000000000003E-08, 231, 3.9592E-10, -6.25417E-06, 25
DataValue, 3.036E-08, 232.0035, 3.9501400000000005E-10, -6.16268E-06, 25
DataValue, -9.7000000000000017E-10, 232.99800000000002, 3.9426000000000004E-10, -6.23229E-06, 25
DataValue, -2.8450000000000003E-08, 233.991, 3.93444E-10, -6.27012E-06, 25
DataValue, -1.0650000000000001E-08, 235.00050000000002, 3.9273500000000004E-10, -6.1775699999999995E-06, 25
DataValue, -5.1070000000000007E-08, 235.995, 3.91841E-10, -6.2300099999999995E-06, 25
