
SetupTitle, Cds
ApplicationTest, Cds, Public
TestParameter, Name, Memo, IntegTime, Frequency, OscLevel, Scale, Drain, VdBias, VdStart, VdStop, VdLinearStep, IdLimit, HoldTime, DelayTime, IdMinRange
TestParameter, Value, , SHORT, 100000, 0.025, LINEAR, CMU1:MF	MFCMU, SMU6:HV	HVSMU, 0, 1000, 1, 0.004, 0, 0.08, 10uA
DutParameter, Name, Polarity, Temp, YAxisCdsMin, YAxisCdsMax
DutParameter, Value, 1, 25, 1E-12, 1E-09
MetaData, TestRecord.EntryPoint, true
MetaData, TestRecord.RecordTime, 04/22/2021 11:41:36
MetaData, TestRecord.TestTarget, 
MetaData, TestRecord.IterationIndex, 54
MetaData, TestRecord.Preservation, true
MetaData, TestRecord.Flag, 
MetaData, TestRecord.Remarks, 
MetaData, TestRecord.LinkKey, 619abdeb-6d1d-4b0a-9ee5-f72d38cf95d6
Dimension1, 1001, 1001, 1001, 1001, 1001
Dimension2, 1, 1, 1, 1, 1
DataName, Ids, Vdrain, Cds, G, Ta
DataValue, -5.1360000000000005E-08, -0.0075, 2.73823E-09, -4.4700500000000003E-05, 25
DataValue, -7.3730000000000012E-08, 0.999, 2.3067E-09, -3.75655E-05, 25
DataValue, 2.8330000000000003E-08, 2.0025, 2.06676E-09, -3.3676E-05, 25
DataValue, -2.1100000000000004E-08, 3, 1.89567E-09, -3.0586E-05, 25
DataValue, -7.656E-08, 4.0005, 1.76355E-09, -2.8691900000000002E-05, 25
DataValue, -4.073E-08, 4.9965, 1.65641E-09, -2.68434E-05, 25
DataValue, -1.6670000000000003E-08, 5.9985, 1.56606E-09, -2.53345E-05, 25
DataValue, -2.9080000000000003E-08, 7.002, 1.48998E-09, -2.41869E-05, 25
DataValue, 2.9390000000000004E-08, 7.998, 1.42312E-09, -2.32195E-05, 25
DataValue, 8.3370000000000011E-08, 8.9985, 1.36347E-09, -2.2152500000000002E-05, 25
DataValue, -2.5080000000000004E-08, 10.0035, 1.3107E-09, -2.13498E-05, 25
DataValue, 2.232E-08, 10.998000000000001, 1.26161E-09, -2.06903E-05, 25
DataValue, 1.9760000000000003E-08, 11.9985, 1.2167E-09, -1.9705000000000002E-05, 25
DataValue, -7.567E-08, 12.999, 1.17198E-09, -1.89967E-05, 25
DataValue, 7.1220000000000012E-08, 13.998000000000001, 1.11518E-09, -1.79395E-05, 25
DataValue, -3.1100000000000002E-09, 15.0015, 1.01467E-09, -1.5916200000000002E-05, 25
DataValue, 3.6980000000000004E-08, 16.002, 9.8118600000000017E-10, -1.58758E-05, 25
DataValue, 4.2220000000000004E-08, 16.9995, 9.52814E-10, -1.53619E-05, 25
DataValue, -1.06E-09, 18.003, 9.27255E-10, -1.50417E-05, 25
DataValue, 3.0130000000000006E-08, 19.002, 9.0419200000000008E-10, -1.45915E-05, 25
DataValue, 3.689E-08, 19.9995, 8.8295800000000011E-10, -1.4367500000000001E-05, 25
DataValue, -6.8520000000000007E-08, 21.0015, 8.6331800000000006E-10, -1.38216E-05, 25
DataValue, -3.1700000000000004E-09, 22.0005, 8.4486500000000006E-10, -1.35877E-05, 25
DataValue, 1.694E-08, 22.9995, 8.27892E-10, -1.33256E-05, 25
DataValue, -2.4350000000000003E-08, 23.9955, 8.12474E-10, -1.3180200000000001E-05, 25
DataValue, 4.0250000000000006E-08, 25.0005, 7.9714700000000006E-10, -1.2933600000000001E-05, 25
DataValue, 2.2430000000000003E-08, 25.9995, 7.8317900000000007E-10, -1.2521100000000001E-05, 25
DataValue, 1.095E-08, 26.997, 7.69712E-10, -1.2459200000000001E-05, 25
DataValue, -2.48E-09, 28.002, 7.56768E-10, -1.2086200000000001E-05, 25
DataValue, 2.703E-08, 28.9995, 7.45012E-10, -1.19992E-05, 25
DataValue, 8.7700000000000011E-08, 29.9985, 7.33432E-10, -1.17064E-05, 25
DataValue, -4.9750000000000005E-08, 30.997500000000002, 7.2266100000000008E-10, -1.1658000000000001E-05, 25
DataValue, 4.6720000000000004E-08, 31.998, 7.1186100000000007E-10, -1.15543E-05, 25
DataValue, 8.264E-08, 33.0045, 7.02369E-10, -1.13734E-05, 25
DataValue, 9.000000000000001E-10, 34.0005, 6.92581E-10, -1.1153500000000001E-05, 25
DataValue, 8.298E-08, 34.9965, 6.8364500000000007E-10, -1.10677E-05, 25
DataValue, -3.4910000000000006E-08, 35.997, 6.7457100000000009E-10, -1.09822E-05, 25
DataValue, 3.9840000000000005E-08, 37.0005, 6.66597E-10, -1.08563E-05, 25
DataValue, -8.7800000000000015E-09, 37.9995, 6.58218E-10, -1.05515E-05, 25
DataValue, -3.068E-08, 39.006, 6.50483E-10, -1.06697E-05, 25
DataValue, 3.4630000000000006E-08, 40.0005, 6.42853E-10, -1.04704E-05, 25
DataValue, 2.204E-08, 41.001, 6.35607E-10, -1.02951E-05, 25
DataValue, -7.8200000000000012E-08, 41.997, 6.28414E-10, -1.00616E-05, 25
DataValue, -1.471E-08, 42.9945, 6.21904E-10, -9.8937099999999988E-06, 25
DataValue, 4.9830000000000003E-08, 43.9995, 6.152830000000001E-10, -9.88452E-06, 25
DataValue, 6.087E-08, 45.003, 6.0895300000000008E-10, -9.81005E-06, 25
DataValue, 8.9300000000000012E-09, 45.9975, 6.02319E-10, -9.89248E-06, 25
DataValue, -3.41E-08, 47.001, 5.96917E-10, -9.765679999999999E-06, 25
DataValue, 1.0480000000000002E-08, 48.0015, 5.91108E-10, -9.6997099999999986E-06, 25
DataValue, -4.5590000000000007E-08, 48.9975, 5.85395E-10, -9.47505E-06, 25
DataValue, -1.9530000000000003E-08, 50.0025, 5.7989300000000008E-10, -9.30147E-06, 25
DataValue, 5.9490000000000005E-08, 51.0015, 5.74364E-10, -9.3986299999999988E-06, 25
DataValue, 2.4590000000000004E-08, 52.0035, 5.69452E-10, -9.3236599999999991E-06, 25
DataValue, -2.1000000000000002E-10, 52.996500000000005, 5.6446700000000009E-10, -9.06554E-06, 25
DataValue, -3.86E-09, 53.9985, 5.59443E-10, -9.04167E-06, 25
DataValue, -2.5240000000000003E-08, 55.0035, 5.5453400000000008E-10, -8.87998E-06, 25
DataValue, 7.622E-08, 55.998000000000005, 5.49959E-10, -8.921109999999999E-06, 25
DataValue, -1.4540000000000002E-08, 57.0015, 5.45694E-10, -8.6726699999999987E-06, 25
DataValue, 3.7610000000000004E-08, 57.9945, 5.41265E-10, -8.65063E-06, 25
DataValue, -3.1900000000000004E-09, 58.998000000000005, 5.36618E-10, -8.58878E-06, 25
DataValue, -1.8350000000000002E-08, 60.003, 5.32652E-10, -8.5081199999999988E-06, 25
DataValue, 5.043E-08, 61.0005, 5.28471E-10, -8.7175899999999986E-06, 25
DataValue, 5.35E-08, 61.998000000000005, 5.24397E-10, -8.46486E-06, 25
DataValue, -2.2730000000000002E-08, 63, 5.21017E-10, -8.44577E-06, 25
DataValue, 7.112E-08, 64.0035, 5.16813E-10, -8.45069E-06, 25
DataValue, 3.1010000000000004E-08, 65.001, 5.13209E-10, -8.24229E-06, 25
DataValue, 2.7950000000000002E-08, 65.9985, 5.0964900000000009E-10, -8.1473199999999988E-06, 25
DataValue, -2.6160000000000004E-08, 66.999, 5.05917E-10, -8.1520199999999989E-06, 25
DataValue, 8.5900000000000011E-09, 67.9995, 5.02351E-10, -8.12944E-06, 25
DataValue, 5.1750000000000003E-08, 69.001500000000007, 4.98973E-10, -8.07526E-06, 25
DataValue, -4.0330000000000004E-08, 70.0005, 4.95704E-10, -7.98496E-06, 25
DataValue, 5.6040000000000004E-08, 71.001, 4.92547E-10, -8.08726E-06, 25
DataValue, 7.586E-08, 72, 4.89367E-10, -7.87649E-06, 25
DataValue, -4.066E-08, 73.0005, 4.86279E-10, -7.8196499999999989E-06, 25
DataValue, 3.814E-08, 73.9965, 4.8280300000000005E-10, -7.810569999999999E-06, 25
DataValue, -1.1660000000000002E-08, 75.001500000000007, 4.7990100000000008E-10, -7.6228499999999994E-06, 25
DataValue, -2.2660000000000002E-08, 76.0005, 4.77022E-10, -7.7940799999999991E-06, 25
DataValue, 1.1523000000000001E-07, 77.004, 4.74119E-10, -7.73844E-06, 25
DataValue, -1.581E-08, 78, 4.71273E-10, -7.62513E-06, 25
DataValue, -4.0290000000000005E-08, 78.999, 4.68754E-10, -7.6231899999999994E-06, 25
DataValue, 7.0300000000000007E-09, 80.004, 4.6565500000000003E-10, -7.63407E-06, 25
DataValue, 6.574E-08, 80.9985, 4.6321100000000006E-10, -7.45758E-06, 25
DataValue, 4.5000000000000006E-09, 82.002, 4.6015300000000003E-10, -7.51721E-06, 25
DataValue, 2.9050000000000002E-08, 83.0025, 4.5767800000000005E-10, -7.48394E-06, 25
DataValue, -6.9050000000000013E-08, 83.997, 4.5515400000000006E-10, -7.4096999999999995E-06, 25
DataValue, 4.9880000000000007E-08, 84.9975, 4.5252400000000004E-10, -7.35919E-06, 25
DataValue, 4.463E-08, 86.001, 4.5017500000000005E-10, -7.2099499999999995E-06, 25
DataValue, -4.244E-08, 87, 4.4759400000000004E-10, -7.15216E-06, 25
DataValue, 5.6130000000000007E-08, 87.9945, 4.4532700000000003E-10, -7.16225E-06, 25
DataValue, 5.7590000000000008E-08, 88.998, 4.43139E-10, -7.2890999999999994E-06, 25
DataValue, 6.7500000000000009E-09, 89.9985, 4.4065700000000003E-10, -7.08284E-06, 25
DataValue, 5.081E-08, 90.9975, 4.3825300000000004E-10, -7.0860199999999993E-06, 25
DataValue, 6.641000000000001E-08, 92.001, 4.3624600000000004E-10, -7.02517E-06, 25
DataValue, 5.078E-08, 93.003, 4.3374400000000003E-10, -7.0443799999999993E-06, 25
DataValue, 4.9480000000000004E-08, 94.0035, 4.3146300000000005E-10, -7.0612699999999992E-06, 25
DataValue, 1.7820000000000003E-08, 95.001, 4.2946200000000005E-10, -6.9727999999999995E-06, 25
DataValue, 4.823E-08, 96.001500000000007, 4.27313E-10, -7.00937E-06, 25
DataValue, -2.6220000000000003E-08, 97.002, 4.25523E-10, -6.79452E-06, 25
DataValue, 3.7180000000000006E-08, 97.9965, 4.23191E-10, -6.8913099999999994E-06, 25
DataValue, 1.1135000000000001E-07, 98.9985, 4.21274E-10, -6.8222099999999995E-06, 25
DataValue, -6.772E-08, 100.002, 4.1901700000000004E-10, -6.7557799999999992E-06, 25
DataValue, 2.6320000000000003E-08, 100.995, 4.17253E-10, -6.66719E-06, 25
DataValue, 4.7760000000000005E-08, 102.003, 4.15621E-10, -6.85434E-06, 25
DataValue, -9.4100000000000012E-09, 102.999, 4.1356300000000004E-10, -6.71015E-06, 25
DataValue, 6.8500000000000011E-08, 103.9965, 4.1172000000000005E-10, -6.7666199999999994E-06, 25
DataValue, 5.2530000000000008E-08, 105, 4.0971900000000005E-10, -6.64387E-06, 25
DataValue, 2.1850000000000004E-08, 105.9975, 4.08069E-10, -6.74746E-06, 25
DataValue, -6.4000000000000006E-10, 106.9965, 4.0622200000000004E-10, -6.58121E-06, 25
DataValue, 2.8290000000000004E-08, 107.9985, 4.0433700000000005E-10, -6.55426E-06, 25
DataValue, 2.9700000000000005E-08, 108.999, 4.02737E-10, -6.4795199999999992E-06, 25
DataValue, 3.3450000000000005E-08, 109.998, 4.00994E-10, -6.6039199999999993E-06, 25
DataValue, 4.15E-08, 111.00150000000001, 3.9921800000000003E-10, -6.55391E-06, 25
DataValue, 6.727E-08, 111.9975, 3.9759400000000005E-10, -6.46576E-06, 25
DataValue, -1.272E-08, 112.998, 3.9574100000000003E-10, -6.2131799999999995E-06, 25
DataValue, 9.7040000000000014E-08, 114.00150000000001, 3.94318E-10, -6.3138099999999994E-06, 25
DataValue, 6.596E-08, 114.99900000000001, 3.92371E-10, -6.39179E-06, 25
DataValue, -3.0900000000000003E-09, 116.001, 3.90943E-10, -6.29254E-06, 25
DataValue, 7.6610000000000009E-08, 116.9985, 3.8921100000000005E-10, -6.41009E-06, 25
DataValue, 5.995E-08, 117.99900000000001, 3.8760600000000004E-10, -6.32586E-06, 25
DataValue, 7.865E-08, 119.004, 3.8635300000000004E-10, -6.30906E-06, 25
DataValue, 3.036E-08, 120.00150000000001, 3.8486000000000005E-10, -6.37502E-06, 25
DataValue, -4.1930000000000006E-08, 120.99900000000001, 3.8341E-10, -6.23763E-06, 25
DataValue, 1.0578000000000001E-07, 121.9995, 3.8165700000000003E-10, -6.21051E-06, 25
DataValue, 1.01E-09, 123.00150000000001, 3.80437E-10, -6.1355999999999993E-06, 25
DataValue, 3.602E-08, 124.0005, 3.7880100000000003E-10, -6.1920599999999993E-06, 25
DataValue, 8.264E-08, 124.9995, 3.7723000000000005E-10, -6.11155E-06, 25
DataValue, 2.4560000000000003E-08, 126.00150000000001, 3.76345E-10, -6.2056599999999995E-06, 25
DataValue, 9.4810000000000013E-08, 127.0065, 3.7455400000000005E-10, -6.1077999999999994E-06, 25
DataValue, 5.2610000000000006E-08, 127.9995, 3.7320400000000005E-10, -6.1245599999999995E-06, 25
DataValue, 5.193E-08, 129, 3.7180600000000005E-10, -5.98418E-06, 25
DataValue, -4.9080000000000007E-08, 130.00050000000002, 3.7044800000000003E-10, -6.06715E-06, 25
DataValue, 9.9370000000000009E-08, 131.001, 3.6924400000000004E-10, -5.9696799999999992E-06, 25
DataValue, 7.3180000000000011E-08, 132.0045, 3.6782800000000005E-10, -5.8144899999999993E-06, 25
DataValue, 6.648000000000001E-08, 132.9975, 3.6655000000000004E-10, -5.9279799999999993E-06, 25
DataValue, -1.2840000000000001E-08, 133.9995, 3.65262E-10, -5.7985E-06, 25
DataValue, 3.4140000000000007E-08, 134.9985, 3.6388000000000004E-10, -5.81423E-06, 25
DataValue, 2.9550000000000003E-08, 135.999, 3.63383E-10, -5.87016E-06, 25
DataValue, 1.0059000000000002E-07, 136.9995, 3.61407E-10, -5.8047799999999993E-06, 25
DataValue, 9.322000000000001E-08, 138.0015, 3.6026300000000003E-10, -5.8216599999999994E-06, 25
DataValue, -1.2E-10, 139.0035, 3.5908400000000005E-10, -5.7662299999999995E-06, 25
DataValue, 1.825E-08, 139.998, 3.57773E-10, -5.6873299999999993E-06, 25
DataValue, 1.0299000000000001E-07, 141.0015, 3.56374E-10, -5.8801299999999994E-06, 25
DataValue, 1.1750000000000001E-08, 141.999, 3.5544E-10, -5.7623799999999995E-06, 25
DataValue, 6.0960000000000011E-08, 142.998, 3.5427300000000003E-10, -5.7018999999999996E-06, 25
DataValue, 8.505000000000001E-08, 144.0045, 3.53053E-10, -5.6493499999999995E-06, 25
DataValue, 4.4540000000000007E-08, 145.00050000000002, 3.51999E-10, -5.6298999999999992E-06, 25
DataValue, 7.051E-08, 145.9995, 3.50829E-10, -5.69592E-06, 25
DataValue, 6.102E-08, 146.9985, 3.49516E-10, -5.7243599999999995E-06, 25
DataValue, 3.0830000000000005E-08, 148.002, 3.4849900000000003E-10, -5.60707E-06, 25
DataValue, 1.686E-08, 149.0025, 3.4752900000000003E-10, -5.71217E-06, 25
DataValue, -1.2540000000000002E-08, 149.997, 3.4633100000000004E-10, -5.61395E-06, 25
DataValue, 4.4420000000000003E-08, 151.002, 3.4516600000000003E-10, -5.5021499999999995E-06, 25
DataValue, 2.2830000000000003E-08, 151.9995, 3.44193E-10, -5.7121899999999994E-06, 25
DataValue, 6.304E-08, 153, 3.43097E-10, -5.5703E-06, 25
DataValue, 8.808E-08, 154.00050000000002, 3.41921E-10, -5.43527E-06, 25
DataValue, 3.4950000000000005E-08, 154.9995, 3.4064300000000005E-10, -5.6163299999999995E-06, 25
DataValue, 5.5480000000000004E-08, 156.00300000000001, 3.3958000000000003E-10, -5.4551E-06, 25
DataValue, 1.0082000000000001E-07, 156.9975, 3.3892300000000003E-10, -5.3903E-06, 25
DataValue, 4.31E-08, 157.9995, 3.37811E-10, -5.34463E-06, 25
DataValue, 1.0868E-07, 159.00300000000001, 3.3679200000000005E-10, -5.47359E-06, 25
DataValue, 1.0248000000000002E-07, 160.00050000000002, 3.3587600000000005E-10, -5.39323E-06, 25
DataValue, 1.1522000000000001E-07, 161.0055, 3.34715E-10, -5.42555E-06, 25
DataValue, 3.9380000000000006E-08, 162.00300000000001, 3.34094E-10, -5.49812E-06, 25
DataValue, 3.494E-08, 163.0035, 3.3293900000000003E-10, -5.45648E-06, 25
DataValue, 2.0473E-07, 163.9965, 3.3186200000000005E-10, -5.36648E-06, 25
DataValue, 2.2480000000000003E-08, 165.00300000000001, 3.3076400000000004E-10, -5.40047E-06, 25
DataValue, 3.291E-08, 166.00050000000002, 3.3010200000000005E-10, -5.4443099999999995E-06, 25
DataValue, 6.05E-08, 167.001, 3.29254E-10, -5.2735199999999993E-06, 25
DataValue, 1.272E-08, 167.997, 3.28478E-10, -5.2962599999999993E-06, 25
DataValue, 9.3900000000000014E-08, 168.9975, 3.2729E-10, -5.30145E-06, 25
DataValue, 4.4400000000000007E-08, 170.004, 3.2620200000000004E-10, -5.2248099999999994E-06, 25
DataValue, 9.422E-08, 171.0045, 3.25435E-10, -5.30296E-06, 25
DataValue, 1.1723000000000001E-07, 171.9975, 3.2446100000000004E-10, -5.31097E-06, 25
DataValue, 4.359E-08, 173.001, 3.2376700000000004E-10, -5.3162399999999994E-06, 25
DataValue, 6.2840000000000012E-08, 174.0015, 3.22763E-10, -5.1539299999999995E-06, 25
DataValue, 3.758E-08, 175.00050000000002, 3.2175900000000003E-10, -5.48347E-06, 25
DataValue, 1.1000000000000001E-08, 175.9965, 3.2106800000000004E-10, -5.1627299999999993E-06, 25
DataValue, 1.2892000000000002E-07, 176.9985, 3.2021800000000004E-10, -5.04364E-06, 25
DataValue, 9.6E-10, 177.9975, 3.1936700000000003E-10, -5.0829999999999994E-06, 25
DataValue, 1.3640000000000002E-08, 178.9995, 3.18521E-10, -5.1041399999999994E-06, 25
DataValue, 1.0117000000000001E-07, 180.00300000000001, 3.17785E-10, -5.22201E-06, 25
DataValue, 4.485E-08, 180.999, 3.1661300000000003E-10, -5.1332599999999994E-06, 25
DataValue, 3.201E-08, 181.9995, 3.1589000000000003E-10, -5.27261E-06, 25
DataValue, 5.6940000000000006E-08, 182.9985, 3.1502300000000004E-10, -5.07908E-06, 25
DataValue, 4.6560000000000008E-08, 184.002, 3.1429900000000003E-10, -5.0577299999999994E-06, 25
DataValue, 5.3070000000000005E-08, 184.9995, 3.13524E-10, -5.07672E-06, 25
DataValue, -3.2470000000000006E-08, 186.0045, 3.1295100000000005E-10, -5.0832799999999996E-06, 25
DataValue, 4.917E-08, 186.9975, 3.1178700000000004E-10, -5.1250499999999993E-06, 25
DataValue, 4.99E-09, 187.998, 3.11306E-10, -4.9176399999999996E-06, 25
DataValue, 2.0140000000000004E-08, 188.9985, 3.10343E-10, -5.12256E-06, 25
DataValue, 1.2386000000000003E-07, 189.999, 3.0959E-10, -5.19502E-06, 25
DataValue, 4.4490000000000003E-08, 190.998, 3.09046E-10, -4.9198799999999996E-06, 25
DataValue, 5.57E-08, 192, 3.08107E-10, -5.16161E-06, 25
DataValue, 4.5810000000000005E-08, 192.9975, 3.0726100000000004E-10, -4.83545E-06, 25
DataValue, 2.174E-08, 193.9935, 3.0648E-10, -5.08664E-06, 25
DataValue, 7.985E-08, 195.00300000000001, 3.0606700000000004E-10, -4.9921999999999994E-06, 25
DataValue, -1.6200000000000003E-08, 195.996, 3.05195E-10, -4.91683E-06, 25
DataValue, 7.707E-08, 197.001, 3.0440500000000005E-10, -5.0120199999999993E-06, 25
DataValue, 1.0605000000000001E-07, 197.9985, 3.0380800000000004E-10, -4.94152E-06, 25
DataValue, -6.5200000000000006E-09, 199.00050000000002, 3.0274700000000004E-10, -4.87869E-06, 25
DataValue, 8.704E-08, 199.998, 3.02051E-10, -4.9236E-06, 25
DataValue, 4.3000000000000007E-10, 200.9985, 3.01773E-10, -5.11814E-06, 25
DataValue, 1.1618000000000001E-07, 202.00050000000002, 3.0071500000000003E-10, -4.96534E-06, 25
DataValue, 1.3962E-07, 202.995, 3.0004100000000004E-10, -4.75922E-06, 25
DataValue, 5.7000000000000006E-09, 204, 2.9949800000000003E-10, -4.8741E-06, 25
DataValue, 3.145E-08, 204.99450000000002, 2.98657E-10, -4.97552E-06, 25
DataValue, 4.6530000000000007E-08, 206.007, 2.97922E-10, -4.81267E-06, 25
DataValue, 6.1050000000000007E-08, 206.9985, 2.97434E-10, -5.02313E-06, 25
DataValue, 1.2563000000000002E-07, 208.005, 2.9660500000000003E-10, -4.93274E-06, 25
DataValue, 7.5750000000000013E-08, 209.001, 2.9568400000000004E-10, -4.70648E-06, 25
DataValue, 2.7470000000000004E-08, 210, 2.95149E-10, -4.7571299999999993E-06, 25
DataValue, 1.2129000000000002E-07, 210.9975, 2.9443600000000004E-10, -4.5849899999999994E-06, 25
DataValue, 3.595E-08, 211.9965, 2.9387000000000004E-10, -4.17906E-06, 25
DataValue, 1.0382000000000001E-07, 213, 2.9309100000000003E-10, -4.76242E-06, 25
DataValue, 9.22E-08, 214.002, 2.9274300000000004E-10, -4.74137E-06, 25
DataValue, 6.29E-08, 215.004, 2.9169900000000003E-10, -4.81429E-06, 25
DataValue, 1.1905000000000001E-07, 216, 2.91611E-10, -4.8201799999999995E-06, 25
DataValue, 4.3200000000000008E-09, 216.999, 2.90728E-10, -4.73664E-06, 25
DataValue, 9.6930000000000008E-08, 217.998, 2.9009200000000005E-10, -4.7714E-06, 25
DataValue, 8.942E-08, 219.0015, 2.8938100000000005E-10, -4.65773E-06, 25
DataValue, 3.026E-08, 220.002, 2.8888000000000004E-10, -4.8452799999999995E-06, 25
DataValue, 1.1894000000000002E-07, 220.9995, 2.87979E-10, -4.6597199999999993E-06, 25
DataValue, 1.3040000000000001E-08, 221.997, 2.87509E-10, -4.6493799999999994E-06, 25
DataValue, 4.27E-09, 222.9975, 2.86882E-10, -4.74034E-06, 25
DataValue, 1.0322000000000001E-07, 224.001, 2.8639000000000003E-10, -4.55424E-06, 25
DataValue, -1.6000000000000003E-09, 224.997, 2.8604200000000004E-10, -4.59093E-06, 25
DataValue, 4.579E-08, 226.0035, 2.85181E-10, -4.73233E-06, 25
DataValue, 1.2541E-07, 227.0025, 2.84616E-10, -4.64172E-06, 25
DataValue, 1.6530000000000003E-08, 228.0015, 2.83959E-10, -4.53578E-06, 25
DataValue, 1.5673000000000003E-07, 229.005, 2.83416E-10, -4.6200299999999994E-06, 25
DataValue, 4.3710000000000006E-08, 229.9965, 2.8263600000000004E-10, -4.63217E-06, 25
DataValue, 3.131E-08, 231.00300000000001, 2.8255700000000003E-10, -4.47956E-06, 25
DataValue, 1.5944E-07, 232.002, 2.8126100000000003E-10, -4.48073E-06, 25
DataValue, 6.3960000000000012E-08, 232.9995, 2.81047E-10, -4.6369699999999994E-06, 25
DataValue, 8.7900000000000013E-08, 234.0045, 2.80439E-10, -4.56061E-06, 25
