
SetupTitle, Cds
ApplicationTest, Cds, Public
TestParameter, Name, Memo, IntegTime, Frequency, OscLevel, Scale, Drain, VdBias, VdStart, VdStop, VdLinearStep, IdLimit, HoldTime, DelayTime, IdMinRange
TestParameter, Value, , SHORT, 1000000, 0.025, LINEAR, CMU1:MF	MFCMU, SMU6:HV	HVSMU, 0, 1000, 1, 0.004, 0, 0.08, 10uA
DutParameter, Name, Polarity, Temp, YAxisCdsMin, YAxisCdsMax
DutParameter, Value, 1, 25, 1E-12, 1E-09
MetaData, TestRecord.EntryPoint, true
MetaData, TestRecord.RecordTime, 12/27/2020 12:21:44
MetaData, TestRecord.TestTarget, 
MetaData, TestRecord.IterationIndex, 26
MetaData, TestRecord.Preservation, true
MetaData, TestRecord.Flag, 
MetaData, TestRecord.Remarks, 
MetaData, TestRecord.LinkKey, 7f046428-6718-49cf-aa01-cd806816fbb3
Dimension1, 1001, 1001, 1001, 1001, 1001
Dimension2, 1, 1, 1, 1, 1
DataName, Ids, Vdrain, Cds, G, Ta
DataValue, 4.2300000000000005E-09, 0.003, 1.21324E-09, -0.00197479, 25
DataValue, 3.3560000000000004E-08, 1.0035, 1.03123E-09, -0.00161515, 25
DataValue, -3.204E-08, 1.998, 9.23507E-10, -0.0014258, 25
DataValue, 2.3270000000000003E-08, 2.9955000000000003, 8.44791E-10, -0.00129292, 25
DataValue, -3.7290000000000005E-08, 3.996, 7.8414300000000007E-10, -0.00119395, 25
DataValue, 8.83E-09, 4.9995, 7.355240000000001E-10, -0.00111506, 25
DataValue, 6.715E-08, 6.0015, 6.9500100000000009E-10, -0.0010483, 25
DataValue, -3.8920000000000007E-08, 6.996, 6.6049100000000007E-10, -0.000992953, 25
DataValue, 9.91E-09, 7.9965, 6.30353E-10, -0.00094391200000000009, 25
DataValue, -5.1560000000000006E-08, 8.997, 6.03246E-10, -0.000899315, 25
DataValue, 4.4830000000000005E-08, 10.0035, 5.7762700000000008E-10, -0.0008566890000000001, 25
DataValue, 1.1000000000000001E-10, 11.0025, 5.4709600000000007E-10, -0.000803864, 25
DataValue, 3.1E-10, 12, 4.88798E-10, -0.000694808, 25
DataValue, 5.33E-09, 13.0005, 4.6879E-10, -0.00066488700000000007, 25
DataValue, 1.1470000000000001E-08, 14.0025, 4.5101100000000004E-10, -0.00063846000000000009, 25
DataValue, 2.4870000000000004E-08, 15, 4.34658E-10, -0.000614708, 25
DataValue, -2.181E-08, 16.002, 4.1963600000000003E-10, -0.000592733, 25
DataValue, -2.675E-08, 17.0025, 4.0601300000000005E-10, -0.000572667, 25
DataValue, 5.444E-08, 18.0015, 3.93473E-10, -0.000555182, 25
DataValue, 1.8590000000000003E-08, 18.996, 3.8189900000000004E-10, -0.000539154, 25
DataValue, -2.5920000000000003E-08, 19.998, 3.7114900000000005E-10, -0.000524244, 25
DataValue, 6.185E-08, 20.9925, 3.6104300000000005E-10, -0.000509303, 25
DataValue, -5.1210000000000007E-08, 22.0005, 3.51379E-10, -0.00049592800000000008, 25
DataValue, 9.59E-08, 23.001, 3.42164E-10, -0.00048328600000000003, 25
DataValue, -3.874E-08, 23.9985, 3.33472E-10, -0.00047108400000000003, 25
DataValue, 1.2116E-07, 24.997500000000002, 3.25246E-10, -0.000459742, 25
DataValue, -5.1330000000000004E-08, 25.9995, 3.17564E-10, -0.00044923, 25
DataValue, 6.9710000000000007E-08, 27.0015, 3.10242E-10, -0.000438957, 25
DataValue, 6.4500000000000007E-09, 28.002, 3.03213E-10, -0.000429523, 25
DataValue, -1.668E-08, 28.9965, 2.96451E-10, -0.00041826600000000004, 25
DataValue, 4.3630000000000008E-08, 30, 2.89533E-10, -0.000409837, 25
DataValue, 4.0670000000000006E-08, 31.0035, 2.8300900000000003E-10, -0.00040040400000000004, 25
DataValue, 2.516E-08, 32.001, 2.76656E-10, -0.00039161, 25
DataValue, 1.53E-09, 33.0015, 2.7086600000000003E-10, -0.000384072, 25
DataValue, 3.5340000000000004E-08, 34.0005, 2.65477E-10, -0.000375865, 25
DataValue, -3.6320000000000004E-08, 34.998, 2.6045800000000003E-10, -0.000369189, 25
DataValue, 2.75E-08, 36.0045, 2.5577600000000004E-10, -0.00036294800000000004, 25
DataValue, 6.77E-09, 36.9975, 2.5134100000000004E-10, -0.00035650300000000004, 25
DataValue, 1.115E-08, 38.001, 2.4712700000000003E-10, -0.00035051, 25
DataValue, 6.16E-09, 38.9955, 2.4310200000000004E-10, -0.000344958, 25
DataValue, -1.4490000000000001E-08, 40.002, 2.39304E-10, -0.000338901, 25
DataValue, 6.313000000000001E-08, 41.001, 2.35736E-10, -0.000334603, 25
DataValue, 1.508E-08, 42, 2.3225000000000003E-10, -0.000329308, 25
DataValue, 4.6250000000000007E-08, 42.9975, 2.28937E-10, -0.00032513700000000003, 25
DataValue, 7.51E-08, 43.9995, 2.2594600000000002E-10, -0.00032089300000000005, 25
DataValue, -6.757E-08, 45, 2.2299900000000002E-10, -0.000316814, 25
DataValue, 3.651E-08, 46.0005, 2.20065E-10, -0.000312779, 25
DataValue, -4.9080000000000007E-08, 46.998, 2.1732E-10, -0.000309091, 25
DataValue, 1.0236000000000001E-07, 48.0045, 2.14581E-10, -0.000305304, 25
DataValue, -6.3200000000000005E-09, 49.0005, 2.1198300000000003E-10, -0.000301551, 25
DataValue, 4.456E-08, 49.998, 2.09504E-10, -0.00029847, 25
DataValue, -5.1210000000000007E-08, 50.997, 2.0726400000000003E-10, -0.000294797, 25
DataValue, 2.2270000000000004E-08, 51.999, 2.0492200000000002E-10, -0.000291924, 25
DataValue, -9.1340000000000009E-08, 52.998, 2.0275200000000002E-10, -0.00028798800000000004, 25
DataValue, 4.6510000000000004E-08, 53.997, 2.0053500000000002E-10, -0.000285677, 25
DataValue, -3.8750000000000006E-08, 54.999, 1.9847600000000001E-10, -0.000283672, 25
DataValue, 3.881E-08, 56.0025, 1.9645E-10, -0.000279886, 25
DataValue, 8.5340000000000008E-08, 57.006, 1.9444800000000002E-10, -0.000277444, 25
DataValue, 3.1420000000000006E-08, 58.002, 1.9262500000000002E-10, -0.00027469500000000004, 25
DataValue, 2.4380000000000004E-08, 58.996500000000005, 1.9070900000000002E-10, -0.000272251, 25
DataValue, 1.6290000000000002E-08, 59.9985, 1.8894200000000001E-10, -0.00027017400000000003, 25
DataValue, 1.916E-08, 61.002, 1.8726200000000003E-10, -0.000267708, 25
DataValue, 3.6070000000000005E-08, 62.002500000000005, 1.8541700000000002E-10, -0.000265742, 25
DataValue, 8.261000000000001E-08, 63.0015, 1.83825E-10, -0.000262794, 25
DataValue, 3.472E-08, 64.0005, 1.82137E-10, -0.000260622, 25
DataValue, -1.989E-08, 65.004, 1.8061E-10, -0.000259135, 25
DataValue, 6.512E-08, 66, 1.7907E-10, -0.00025679, 25
DataValue, -3.3280000000000004E-08, 66.9975, 1.77527E-10, -0.000254724, 25
DataValue, 5.42E-08, 68.0025, 1.7610900000000002E-10, -0.000252878, 25
DataValue, -5.6910000000000005E-08, 69, 1.7470200000000002E-10, -0.000250919, 25
DataValue, 8.619E-08, 70.002, 1.7319500000000002E-10, -0.000248603, 25
DataValue, 2.9860000000000004E-08, 71.004, 1.7191500000000002E-10, -0.000247176, 25
DataValue, 6.273E-08, 72.004500000000007, 1.70596E-10, -0.00024467, 25
DataValue, 2.1510000000000002E-08, 73.002, 1.69424E-10, -0.00024380200000000002, 25
DataValue, 3.1420000000000006E-08, 74.0025, 1.68162E-10, -0.00024178600000000002, 25
DataValue, 3.6620000000000006E-08, 74.9985, 1.6693E-10, -0.00024056000000000001, 25
DataValue, 5.0500000000000006E-09, 76.0005, 1.6567200000000003E-10, -0.00023876000000000003, 25
DataValue, 4.108E-08, 76.9965, 1.6450800000000002E-10, -0.00023707800000000002, 25
DataValue, 1.3800000000000002E-09, 78, 1.63299E-10, -0.000235481, 25
DataValue, 7.5760000000000011E-08, 79.002, 1.62144E-10, -0.00023412200000000002, 25
DataValue, 4.3000000000000007E-10, 79.9965, 1.6105500000000002E-10, -0.00023243200000000003, 25
DataValue, 4.8640000000000004E-08, 81, 1.59993E-10, -0.000230542, 25
DataValue, -2.8150000000000004E-08, 81.999, 1.5892200000000002E-10, -0.000229699, 25
DataValue, 2.15E-08, 83.001, 1.5788E-10, -0.000227834, 25
DataValue, 3.5550000000000004E-08, 84.004500000000007, 1.5679700000000002E-10, -0.00022674400000000002, 25
DataValue, 6.685E-08, 85.002, 1.55729E-10, -0.000225056, 25
DataValue, 7.5700000000000009E-08, 85.9995, 1.54692E-10, -0.00022398400000000002, 25
DataValue, 5.0340000000000006E-08, 87.003, 1.5382900000000002E-10, -0.000223107, 25
DataValue, 2.4210000000000003E-08, 87.999, 1.5274100000000002E-10, -0.00022141900000000002, 25
DataValue, 2.052E-08, 88.998, 1.5185200000000002E-10, -0.000220184, 25
DataValue, -2.6850000000000002E-08, 89.997, 1.50956E-10, -0.00021888200000000002, 25
DataValue, 5.978000000000001E-08, 91.002, 1.50127E-10, -0.000217865, 25
DataValue, -9.8960000000000007E-08, 91.995, 1.4925500000000002E-10, -0.00021637200000000002, 25
DataValue, 5.399E-08, 92.9985, 1.4835700000000002E-10, -0.00021537000000000002, 25
DataValue, 3.493E-08, 93.999, 1.47506E-10, -0.000214264, 25
DataValue, 5.99E-08, 94.9965, 1.46686E-10, -0.000213636, 25
DataValue, -1.1950000000000001E-08, 95.9955, 1.45896E-10, -0.000212, 25
DataValue, 8.237E-08, 96.999, 1.4508E-10, -0.00021124400000000003, 25
DataValue, 6.8030000000000008E-08, 97.9995, 1.4429E-10, -0.00021032100000000002, 25
DataValue, 8.473E-08, 99.004500000000007, 1.43525E-10, -0.00020939500000000002, 25
DataValue, 6.4870000000000011E-08, 100.0035, 1.42814E-10, -0.00020802100000000002, 25
DataValue, 4.5100000000000007E-08, 100.998, 1.41886E-10, -0.00020662300000000002, 25
DataValue, 3.7540000000000004E-08, 101.9985, 1.4120300000000001E-10, -0.00020571400000000002, 25
DataValue, -9.17E-09, 102.9975, 1.40455E-10, -0.000205333, 25
DataValue, 7.535000000000001E-08, 104.001, 1.39773E-10, -0.000204298, 25
DataValue, -5.75E-09, 105.00450000000001, 1.3907600000000002E-10, -0.000203474, 25
DataValue, 3.8610000000000006E-08, 105.999, 1.3835300000000002E-10, -0.000202205, 25
DataValue, -4.2010000000000004E-08, 107.001, 1.3755200000000002E-10, -0.00020137100000000002, 25
DataValue, 1.0178000000000002E-07, 108.003, 1.3688500000000001E-10, -0.000199914, 25
DataValue, 2.9550000000000003E-08, 108.99600000000001, 1.36152E-10, -0.00019953100000000003, 25
DataValue, 2.2710000000000003E-08, 109.998, 1.35453E-10, -0.00019835000000000002, 25
DataValue, 1.1423000000000001E-07, 111.00150000000001, 1.3478E-10, -0.000197473, 25
DataValue, 6.8030000000000008E-08, 112.002, 1.3413100000000002E-10, -0.000196665, 25
DataValue, 4.321E-08, 112.995, 1.33518E-10, -0.000195966, 25
DataValue, 7.2710000000000007E-08, 114.00450000000001, 1.32873E-10, -0.00019539400000000002, 25
DataValue, 4.0650000000000003E-08, 115.0005, 1.32343E-10, -0.00019442, 25
DataValue, -5.5200000000000008E-09, 116.001, 1.31626E-10, -0.000193367, 25
DataValue, 5.3310000000000006E-08, 117, 1.31081E-10, -0.000192551, 25
DataValue, 6.7660000000000012E-08, 118.005, 1.3049400000000002E-10, -0.000191936, 25
DataValue, 3.225E-08, 118.9995, 1.29876E-10, -0.00019103500000000002, 25
DataValue, 9.3680000000000016E-08, 120.003, 1.2937400000000002E-10, -0.000190843, 25
DataValue, -3.1560000000000006E-08, 121.00200000000001, 1.2875000000000002E-10, -0.000189767, 25
DataValue, 7.8690000000000012E-08, 121.998, 1.28187E-10, -0.00018866500000000002, 25
DataValue, 6.2700000000000009E-09, 123.003, 1.27721E-10, -0.000188655, 25
DataValue, 8.8660000000000014E-08, 123.9975, 1.27208E-10, -0.00018811400000000002, 25
DataValue, 8.5690000000000008E-08, 124.9935, 1.2668200000000001E-10, -0.000187249, 25
DataValue, 8.8130000000000009E-08, 126, 1.26159E-10, -0.000186021, 25
DataValue, 5.5220000000000007E-08, 126.99900000000001, 1.25585E-10, -0.000185639, 25
DataValue, -8.07E-09, 127.998, 1.25051E-10, -0.000185252, 25
DataValue, 5.6600000000000004E-08, 128.9985, 1.24497E-10, -0.000184111, 25
DataValue, 5.2690000000000004E-08, 130.002, 1.24056E-10, -0.00018368100000000002, 25
DataValue, 1.2053E-07, 131.001, 1.2348300000000002E-10, -0.00018300800000000002, 25
DataValue, -2.3390000000000003E-08, 132.0015, 1.22999E-10, -0.000182036, 25
DataValue, 1.0802000000000001E-07, 132.9975, 1.2256600000000001E-10, -0.000181561, 25
DataValue, -6.527E-08, 133.998, 1.22107E-10, -0.000181051, 25
DataValue, 1.2586000000000002E-07, 134.9985, 1.21498E-10, -0.000180446, 25
DataValue, -2.8700000000000002E-09, 135.999, 1.21068E-10, -0.000179963, 25
DataValue, 1.21E-07, 136.9995, 1.2048400000000002E-10, -0.00017876100000000002, 25
DataValue, -3.731E-08, 138, 1.20079E-10, -0.000178359, 25
DataValue, 4.6360000000000006E-08, 139.0035, 1.19657E-10, -0.00017741800000000002, 25
DataValue, 2.8690000000000004E-08, 139.9965, 1.19184E-10, -0.000176992, 25
DataValue, 2.5540000000000002E-08, 141.0015, 1.18735E-10, -0.000176276, 25
DataValue, 6.134E-08, 141.9975, 1.1826600000000001E-10, -0.000175736, 25
DataValue, 8.7960000000000015E-08, 142.998, 1.1781700000000001E-10, -0.00017528700000000002, 25
DataValue, 5.1740000000000005E-08, 144.0015, 1.17418E-10, -0.00017462400000000001, 25
DataValue, 3.3930000000000007E-08, 145.00050000000002, 1.16896E-10, -0.00017397900000000002, 25
DataValue, 6.113E-08, 146.0025, 1.16566E-10, -0.00017303900000000002, 25
DataValue, -6.2930000000000008E-08, 146.994, 1.1608900000000001E-10, -0.00017285100000000002, 25
DataValue, 8.9290000000000014E-08, 148.0035, 1.1560700000000002E-10, -0.00017212800000000002, 25
DataValue, 3.388E-08, 149.004, 1.1523900000000001E-10, -0.00017184, 25
DataValue, 3.1190000000000003E-08, 149.997, 1.1489700000000001E-10, -0.000171218, 25
DataValue, 2.4420000000000003E-08, 151.00050000000002, 1.1451900000000001E-10, -0.00017120000000000001, 25
DataValue, 2.8170000000000003E-08, 151.995, 1.1412900000000002E-10, -0.000170464, 25
DataValue, 8.614E-08, 152.997, 1.13754E-10, -0.00016981600000000002, 25
DataValue, 6.5860000000000009E-08, 154.002, 1.1329400000000001E-10, -0.000169209, 25
DataValue, 1.3421E-07, 155.001, 1.1296200000000001E-10, -0.00016840100000000002, 25
DataValue, -2.7160000000000003E-08, 156.0015, 1.1258600000000001E-10, -0.00016795900000000002, 25
DataValue, 1.0370000000000001E-07, 157.005, 1.12261E-10, -0.00016766100000000002, 25
DataValue, 2.0090000000000003E-08, 158.004, 1.1193900000000001E-10, -0.000167164, 25
DataValue, 1.1169000000000002E-07, 158.997, 1.1153600000000001E-10, -0.000167243, 25
DataValue, 7.009E-08, 159.999, 1.11223E-10, -0.000166174, 25
DataValue, 1.1556000000000001E-07, 161.001, 1.1083500000000001E-10, -0.00016616500000000002, 25
DataValue, 1.0213000000000002E-07, 161.9985, 1.10483E-10, -0.00016514100000000002, 25
DataValue, 3.7780000000000005E-08, 162.999, 1.1009500000000001E-10, -0.000164837, 25
DataValue, 1.0121E-07, 164.001, 1.0978200000000001E-10, -0.000164374, 25
DataValue, 4.9040000000000008E-08, 165.00300000000001, 1.0944300000000001E-10, -0.00016378600000000002, 25
DataValue, 3.8190000000000006E-08, 165.999, 1.0907500000000001E-10, -0.000163551, 25
DataValue, -3.8400000000000006E-08, 167.0025, 1.0873900000000001E-10, -0.00016313000000000002, 25
DataValue, 9.8470000000000008E-08, 168.00300000000001, 1.0835800000000001E-10, -0.00016232800000000002, 25
DataValue, -1.909E-08, 169.00050000000002, 1.0800700000000001E-10, -0.00016225400000000002, 25
DataValue, 9.5E-08, 169.9995, 1.0772200000000001E-10, -0.000161614, 25
DataValue, 7.116000000000001E-08, 171.00300000000001, 1.0734300000000001E-10, -0.000160989, 25
DataValue, 5.3410000000000006E-08, 171.996, 1.0703500000000001E-10, -0.00016048600000000002, 25
DataValue, 8.354E-08, 172.9995, 1.0670800000000001E-10, -0.00015989000000000002, 25
DataValue, 4.9300000000000005E-08, 174.0015, 1.0637800000000001E-10, -0.000159758, 25
DataValue, 7.1930000000000009E-08, 174.9975, 1.06064E-10, -0.00015917, 25
DataValue, 8.6670000000000008E-08, 176.0025, 1.0568200000000001E-10, -0.00015899500000000002, 25
DataValue, 5.4770000000000007E-08, 176.9985, 1.05409E-10, -0.0001583, 25
DataValue, 6.058E-08, 177.9975, 1.05052E-10, -0.000157985, 25
DataValue, -2.9540000000000002E-08, 178.9965, 1.04743E-10, -0.00015701000000000002, 25
DataValue, 9.2220000000000014E-08, 179.997, 1.0446800000000001E-10, -0.000157018, 25
DataValue, -7.08E-09, 180.999, 1.04258E-10, -0.000156681, 25
DataValue, 1.2127E-07, 181.9995, 1.03857E-10, -0.00015579800000000002, 25
DataValue, 2.1860000000000002E-08, 183.0015, 1.03572E-10, -0.000155803, 25
DataValue, 1.2878000000000002E-07, 184.00050000000002, 1.0321700000000001E-10, -0.000155278, 25
DataValue, 4.847E-08, 184.998, 1.0293900000000001E-10, -0.000154795, 25
DataValue, 9.9570000000000011E-08, 186.0045, 1.0269800000000001E-10, -0.000154606, 25
DataValue, 3.0210000000000004E-08, 187.002, 1.0240500000000001E-10, -0.000153436, 25
DataValue, 7.786000000000001E-08, 188.001, 1.0216600000000001E-10, -0.00015362900000000002, 25
DataValue, 6.701E-08, 189.0015, 1.0191600000000001E-10, -0.00015311, 25
DataValue, 2.5070000000000002E-08, 189.996, 1.01567E-10, -0.00015285300000000002, 25
DataValue, 7.4450000000000008E-08, 190.998, 1.0133100000000001E-10, -0.000152499, 25
DataValue, 9.1970000000000009E-08, 191.9985, 1.0106300000000001E-10, -0.00015205900000000002, 25
DataValue, 3.923E-08, 192.999, 1.0081700000000001E-10, -0.000152093, 25
DataValue, 5.999000000000001E-08, 193.9995, 1.0052500000000001E-10, -0.000151265, 25
DataValue, 9.3160000000000008E-08, 195.0015, 1.0029200000000001E-10, -0.00015054, 25
DataValue, -1.8840000000000002E-08, 195.9975, 1.00062E-10, -0.000150578, 25
DataValue, 7.204E-08, 196.998, 9.97629E-11, -0.00015004700000000002, 25
DataValue, 6.5140000000000013E-08, 198.0015, 9.94881E-11, -0.000149757, 25
DataValue, 9.1200000000000009E-08, 198.9975, 9.9266499999999993E-11, -0.000149301, 25
DataValue, 1.691E-08, 200.001, 9.9007899999999992E-11, -0.00014875900000000002, 25
DataValue, 1.2069E-07, 201.00300000000001, 9.88252E-11, -0.000148652, 25
DataValue, 5.535E-08, 201.999, 9.85004E-11, -0.000148474, 25
DataValue, 8.193E-08, 202.9965, 9.82208E-11, -0.000147873, 25
DataValue, 2.2260000000000002E-08, 204.0015, 9.80266E-11, -0.000147254, 25
DataValue, 9.029000000000001E-08, 204.9975, 9.77573E-11, -0.000147125, 25
DataValue, 1.0658E-07, 206.0025, 9.7523899999999992E-11, -0.000146674, 25
DataValue, 7.2340000000000011E-08, 206.997, 9.72703E-11, -0.000146673, 25
DataValue, 8.8460000000000013E-08, 208.002, 9.7036E-11, -0.000146066, 25
DataValue, 6.01E-08, 208.995, 9.67635E-11, -0.000145828, 25
DataValue, 8.453E-08, 209.9985, 9.64731E-11, -0.00014489, 25
DataValue, 4.4380000000000004E-08, 210.9975, 9.63098E-11, -0.000145152, 25
DataValue, 8.516E-08, 211.9995, 9.59856E-11, -0.000144264, 25
DataValue, 4.8010000000000004E-08, 212.9985, 9.57967E-11, -0.000144849, 25
DataValue, 5.3190000000000008E-08, 213.996, 9.55117E-11, -0.00014385, 25
DataValue, 1.0537000000000001E-07, 214.9995, 9.5213E-11, -0.00014355500000000002, 25
DataValue, 1.0503000000000001E-07, 215.997, 9.5070499999999992E-11, -0.000143559, 25
DataValue, 1.0616E-07, 217.00050000000002, 9.48557E-11, -0.000143136, 25
DataValue, 8.4820000000000014E-08, 218.001, 9.4521799999999993E-11, -0.000142249, 25
DataValue, 9.263E-08, 218.9985, 9.44032E-11, -0.000142557, 25
DataValue, 1.1521000000000001E-07, 219.999, 9.41656E-11, -0.000142239, 25
DataValue, 1.0967000000000002E-07, 220.9995, 9.3940299999999993E-11, -0.00014126900000000002, 25
DataValue, 6.2210000000000012E-08, 221.9985, 9.37988E-11, -0.00014187500000000002, 25
DataValue, 9.9570000000000011E-08, 223.00050000000002, 9.35084E-11, -0.00014057500000000002, 25
DataValue, 1.081E-08, 223.9995, 9.32695E-11, -0.000140945, 25
DataValue, 1.27E-07, 225, 9.31161E-11, -0.000140698, 25
DataValue, 1.4610000000000002E-08, 225.999, 9.2984E-11, -0.000140583, 25
DataValue, 1.1621E-07, 226.99800000000002, 9.27261E-11, -0.000139903, 25
DataValue, 1.4820000000000001E-08, 227.9985, 9.24188E-11, -0.00013937700000000002, 25
DataValue, 6.273E-08, 229.00050000000002, 9.23172E-11, -0.000139034, 25
DataValue, 8.6880000000000008E-08, 229.99800000000002, 9.20753E-11, -0.000139283, 25
DataValue, 1.0326000000000001E-07, 231.00300000000001, 9.1987999999999993E-11, -0.000138899, 25
DataValue, 1.1238000000000002E-07, 232.00050000000002, 9.17156E-11, -0.000138028, 25
DataValue, 8.836E-08, 232.9965, 9.1467E-11, -0.000138173, 25
DataValue, 7.9250000000000012E-08, 234.0015, 9.13166E-11, -0.000137378, 25
DataValue, 7.7560000000000014E-08, 235.00050000000002, 9.11547E-11, -0.00013802900000000002, 25
DataValue, 1.0828000000000001E-07, 236.001, 9.08785E-11, -0.00013747, 25
DataValue, 9.2400000000000007E-08, 237.00300000000001, 9.07536E-11, -0.000136832, 25
