
SetupTitle, Cds
ApplicationTest, Cds, Public
TestParameter, Name, Memo, IntegTime, Frequency, OscLevel, Scale, Drain, VdBias, VdStart, VdStop, VdLinearStep, IdLimit, HoldTime, DelayTime, IdMinRange
TestParameter, Value, , SHORT, 100000, 0.025, LINEAR, CMU1:MF	MFCMU, SMU6:HV	HVSMU, 0, 1000, 1, 0.004, 0, 0.08, 10uA
DutParameter, Name, Polarity, Temp, YAxisCdsMin, YAxisCdsMax
DutParameter, Value, 1, 25, 1E-12, 1E-09
MetaData, TestRecord.EntryPoint, true
MetaData, TestRecord.RecordTime, 04/22/2021 09:52:22
MetaData, TestRecord.TestTarget, 
MetaData, TestRecord.IterationIndex, 25
MetaData, TestRecord.Preservation, true
MetaData, TestRecord.Flag, 
MetaData, TestRecord.Remarks, 
MetaData, TestRecord.LinkKey, 55adedc7-158f-4849-8bff-f4f217d47e43
Dimension1, 1001, 1001, 1001, 1001, 1001
Dimension2, 1, 1, 1, 1, 1
DataName, Ids, Vdrain, Cds, G, Ta
DataValue, -2.565E-08, -0.0045000000000000005, 2.81562E-09, -2.2940600000000002E-05, 25
DataValue, -5.3120000000000008E-08, 0.996, 2.44948E-09, -1.8946E-05, 25
DataValue, -2.5260000000000003E-08, 1.998, 2.20797E-09, -1.5831200000000002E-05, 25
DataValue, 4.5420000000000006E-08, 3, 2.02875E-09, -1.34894E-05, 25
DataValue, -7.153E-08, 3.996, 1.88794E-09, -1.21408E-05, 25
DataValue, 4.7660000000000005E-08, 4.9995, 1.7735E-09, -1.08127E-05, 25
DataValue, 3.5540000000000006E-08, 6.0015, 1.67722E-09, -9.57065E-06, 25
DataValue, 2.4660000000000004E-08, 7.0035, 1.59368E-09, -8.72141E-06, 25
DataValue, -1.2000000000000002E-09, 8.001, 1.51932E-09, -7.84545E-06, 25
DataValue, 8.4700000000000011E-08, 9.0015, 1.44772E-09, -7.26236E-06, 25
DataValue, 9.830000000000001E-09, 9.9975, 1.35186E-09, -5.20911E-06, 25
DataValue, 5.1500000000000006E-09, 10.996500000000001, 1.22738E-09, -4.2175E-06, 25
DataValue, 8.5200000000000012E-09, 12.0015, 1.18223E-09, -3.84188E-06, 25
DataValue, 3.7290000000000005E-08, 12.999, 1.14247E-09, -3.48183E-06, 25
DataValue, 2.0370000000000003E-08, 14.001, 1.10753E-09, -3.21815E-06, 25
DataValue, -1.1600000000000001E-09, 14.9985, 1.07626E-09, -3.19486E-06, 25
DataValue, -5.1270000000000008E-08, 15.999, 1.04743E-09, -2.9228399999999996E-06, 25
DataValue, -3.6100000000000006E-08, 17.0055, 1.02143E-09, -2.79518E-06, 25
DataValue, -2.347E-08, 17.9985, 9.97224E-10, -2.7015699999999997E-06, 25
DataValue, 4.8390000000000005E-08, 19.0005, 9.7476100000000017E-10, -2.64823E-06, 25
DataValue, -8.3000000000000015E-09, 20.001, 9.53982E-10, -2.56202E-06, 25
DataValue, 2.5800000000000003E-08, 21.0015, 9.3441E-10, -2.41221E-06, 25
DataValue, -1.217E-08, 22.0005, 9.1612500000000008E-10, -2.3452199999999997E-06, 25
DataValue, -3.1360000000000004E-08, 22.9995, 8.9908000000000006E-10, -2.12793E-06, 25
DataValue, 5.8990000000000007E-08, 23.997, 8.8266500000000007E-10, -2.2567699999999997E-06, 25
DataValue, 3.029E-08, 24.999, 8.6751200000000005E-10, -2.1615199999999997E-06, 25
DataValue, -1.4250000000000002E-08, 25.998, 8.5297600000000005E-10, -2.23692E-06, 25
DataValue, 3.5330000000000006E-08, 27.0015, 8.3905500000000006E-10, -2.3274399999999998E-06, 25
DataValue, -4.0460000000000006E-08, 27.999000000000002, 8.2579700000000006E-10, -2.40575E-06, 25
DataValue, 4.205E-08, 29.0025, 8.1333E-10, -2.12937E-06, 25
DataValue, 3.986E-08, 29.9985, 8.01629E-10, -2.2837399999999997E-06, 25
DataValue, -4.7700000000000007E-09, 30.997500000000002, 7.9038E-10, -2.19399E-06, 25
DataValue, -9.86E-09, 31.998, 7.7917500000000005E-10, -2.37384E-06, 25
DataValue, -2.188E-08, 32.9955, 7.6866900000000009E-10, -2.50829E-06, 25
DataValue, -9.5E-08, 33.999, 7.58598E-10, -2.38632E-06, 25
DataValue, 1.9900000000000004E-09, 34.9995, 7.4888800000000007E-10, -2.34983E-06, 25
DataValue, -7.5700000000000009E-09, 35.9955, 7.3975200000000007E-10, -2.2750399999999997E-06, 25
DataValue, -8.4490000000000011E-08, 37.0005, 7.3048100000000005E-10, -2.3725899999999997E-06, 25
DataValue, -1.3250000000000001E-08, 37.998, 7.2214500000000009E-10, -2.44598E-06, 25
DataValue, -5.8830000000000005E-08, 38.997, 7.1374200000000008E-10, -2.46177E-06, 25
DataValue, 4.9980000000000008E-08, 40.0065, 7.05791E-10, -2.60854E-06, 25
DataValue, 1.895E-08, 40.998, 6.98032E-10, -2.64946E-06, 25
DataValue, -1.773E-08, 42.003, 6.9022400000000006E-10, -2.7077699999999997E-06, 25
DataValue, 1.7580000000000003E-08, 43.0005, 6.83014E-10, -2.72062E-06, 25
DataValue, -1.843E-08, 43.9995, 6.759820000000001E-10, -2.53988E-06, 25
DataValue, -3.9410000000000007E-08, 45, 6.69008E-10, -2.8131299999999998E-06, 25
DataValue, -8.56E-09, 45.999, 6.6275800000000008E-10, -2.7407E-06, 25
DataValue, -2.204E-08, 47.0025, 6.5641800000000008E-10, -2.77042E-06, 25
DataValue, -1.6270000000000003E-08, 48, 6.50106E-10, -2.79919E-06, 25
DataValue, -2.5740000000000004E-08, 48.999, 6.43754E-10, -2.869E-06, 25
DataValue, -9.9600000000000012E-09, 49.9995, 6.38137E-10, -2.9120999999999996E-06, 25
DataValue, -4.5760000000000007E-08, 51, 6.32182E-10, -3.0228899999999996E-06, 25
DataValue, -1.8120000000000003E-08, 51.999, 6.2675600000000008E-10, -3.0468299999999998E-06, 25
DataValue, 2.4630000000000003E-08, 52.9995, 6.2119800000000007E-10, -2.9902599999999997E-06, 25
DataValue, -3.954E-08, 54.003, 6.15924E-10, -3.14676E-06, 25
DataValue, -4.809E-08, 54.9975, 6.10468E-10, -3.3102499999999998E-06, 25
DataValue, -2.4700000000000004E-09, 55.998000000000005, 6.05634E-10, -3.18237E-06, 25
DataValue, -1.4810000000000002E-08, 57.0045, 6.00656E-10, -3.2452E-06, 25
DataValue, 6.3890000000000012E-08, 58.0005, 5.96216E-10, -3.47175E-06, 25
DataValue, 8.7E-09, 59.0025, 5.91446E-10, -3.3157099999999997E-06, 25
DataValue, -6.113E-08, 59.9985, 5.86549E-10, -3.3747599999999996E-06, 25
DataValue, 1.0216000000000001E-07, 61.0005, 5.82288E-10, -3.4644E-06, 25
DataValue, 2.6110000000000004E-08, 62.001000000000005, 5.77885E-10, -3.52395E-06, 25
DataValue, -2.7490000000000003E-08, 63, 5.73728E-10, -3.55571E-06, 25
DataValue, -2.1680000000000003E-08, 64.0005, 5.694210000000001E-10, -3.5146399999999996E-06, 25
DataValue, -6.8630000000000013E-08, 65.0025, 5.6557400000000008E-10, -3.6607199999999997E-06, 25
DataValue, -2.9850000000000006E-08, 65.9955, 5.6129400000000007E-10, -3.7182999999999996E-06, 25
DataValue, 3.769E-08, 67.002, 5.5752200000000007E-10, -3.7460999999999996E-06, 25
DataValue, 6.5E-09, 67.9965, 5.53778E-10, -3.83274E-06, 25
DataValue, 4.387E-08, 68.9985, 5.49889E-10, -3.7191599999999996E-06, 25
DataValue, 1.4250000000000002E-08, 70.0005, 5.46451E-10, -3.9301899999999994E-06, 25
DataValue, -6.2490000000000012E-08, 70.9995, 5.4256500000000008E-10, -3.8127199999999996E-06, 25
DataValue, 7.064E-08, 72.007500000000007, 5.39014E-10, -3.9702799999999994E-06, 25
DataValue, -4E-09, 73.0005, 5.35568E-10, -3.87538E-06, 25
DataValue, -8.614E-08, 73.998, 5.32229E-10, -3.97956E-06, 25
DataValue, 4.474E-08, 75.001500000000007, 5.2919800000000008E-10, -4.0923199999999995E-06, 25
DataValue, -2.7130000000000002E-08, 76.0005, 5.2593100000000007E-10, -4.2386099999999994E-06, 25
DataValue, -1.4460000000000002E-08, 76.995, 5.22429E-10, -4.0237499999999994E-06, 25
DataValue, 8.208E-08, 78, 5.1868700000000007E-10, -3.64302E-06, 25
DataValue, -4.7840000000000004E-08, 78.9975, 5.15869E-10, -4.1948999999999994E-06, 25
DataValue, 3.8620000000000004E-08, 80.0025, 5.13209E-10, -4.4006199999999996E-06, 25
DataValue, -5.4610000000000004E-08, 80.997, 5.10486E-10, -4.2277499999999995E-06, 25
DataValue, -4.7690000000000006E-08, 82.0005, 5.07204E-10, -4.08938E-06, 25
DataValue, 1.2010000000000001E-08, 83.001, 5.04687E-10, -4.39324E-06, 25
DataValue, -5.1940000000000007E-08, 84.004500000000007, 5.0172600000000005E-10, -4.24077E-06, 25
DataValue, -6.540000000000001E-09, 85.002, 4.9870300000000007E-10, -4.1659499999999995E-06, 25
DataValue, -9.85E-09, 85.998, 4.9596700000000007E-10, -4.51747E-06, 25
DataValue, -1.1190000000000001E-08, 87, 4.9367900000000009E-10, -4.49262E-06, 25
DataValue, 1.2900000000000001E-08, 88.0005, 4.91414E-10, -4.1906E-06, 25
DataValue, 2.48E-09, 88.998, 4.8804600000000005E-10, -4.3897699999999995E-06, 25
DataValue, -2.5800000000000003E-08, 90, 4.85701E-10, -4.18552E-06, 25
DataValue, 3.4910000000000006E-08, 91.0005, 4.8349400000000009E-10, -4.2990299999999994E-06, 25
DataValue, 3.2800000000000003E-09, 92.001, 4.80568E-10, -4.36648E-06, 25
DataValue, 2.94E-09, 92.997, 4.7862200000000007E-10, -4.46939E-06, 25
DataValue, -7.6200000000000014E-09, 94.002, 4.75881E-10, -4.29428E-06, 25
DataValue, -4.47E-08, 94.9995, 4.73952E-10, -4.4486999999999994E-06, 25
DataValue, -3.7630000000000007E-08, 95.9985, 4.71569E-10, -4.37511E-06, 25
DataValue, 1.497E-08, 97.005, 4.69122E-10, -4.4254899999999995E-06, 25
DataValue, -4.704E-08, 98.0025, 4.66735E-10, -4.30881E-06, 25
DataValue, -2.0810000000000002E-08, 98.9985, 4.6443100000000003E-10, -4.3870799999999993E-06, 25
DataValue, 5.5510000000000005E-08, 100.0005, 4.62374E-10, -4.60081E-06, 25
DataValue, -1.0019000000000001E-07, 100.9995, 4.6041900000000004E-10, -4.47268E-06, 25
DataValue, 8.1600000000000016E-09, 101.997, 4.5827400000000005E-10, -4.5832099999999994E-06, 25
DataValue, 1.9130000000000003E-08, 103.0035, 4.56144E-10, -4.58553E-06, 25
DataValue, -1.7840000000000003E-08, 104.001, 4.5416E-10, -4.48774E-06, 25
DataValue, 1.562E-08, 105.00150000000001, 4.5193800000000003E-10, -4.54223E-06, 25
DataValue, -5.378E-08, 106.0005, 4.4969700000000003E-10, -4.4004499999999995E-06, 25
DataValue, -1.4470000000000002E-08, 106.9995, 4.4813100000000004E-10, -4.58812E-06, 25
DataValue, 3.0940000000000004E-08, 107.9985, 4.46134E-10, -4.57438E-06, 25
DataValue, -8.4500000000000012E-09, 108.999, 4.44078E-10, -4.57513E-06, 25
DataValue, -2.6020000000000004E-08, 109.9995, 4.4229300000000006E-10, -4.68341E-06, 25
DataValue, 2.34E-09, 111.00150000000001, 4.40257E-10, -4.8032399999999994E-06, 25
DataValue, -2.0110000000000003E-08, 111.99900000000001, 4.3853100000000004E-10, -4.69926E-06, 25
DataValue, 3.1100000000000002E-09, 112.995, 4.3674800000000005E-10, -4.5829299999999993E-06, 25
DataValue, 2.4440000000000002E-08, 114.00150000000001, 4.34671E-10, -4.56904E-06, 25
DataValue, -9.6480000000000014E-08, 115.0005, 4.3330600000000004E-10, -4.7656E-06, 25
DataValue, 3.4880000000000005E-08, 116.0025, 4.31091E-10, -4.64274E-06, 25
DataValue, -2.3990000000000002E-08, 116.9955, 4.29572E-10, -4.66542E-06, 25
DataValue, 7.5850000000000008E-08, 118.0035, 4.2788200000000004E-10, -4.7755599999999994E-06, 25
DataValue, 5.1560000000000006E-08, 118.992, 4.2593000000000005E-10, -4.65819E-06, 25
DataValue, -9.164E-08, 119.997, 4.2412800000000005E-10, -4.58099E-06, 25
DataValue, 2.8470000000000003E-08, 121.0005, 4.2278800000000003E-10, -4.69058E-06, 25
DataValue, -1.79E-08, 122.0055, 4.21068E-10, -4.8697999999999995E-06, 25
DataValue, -5.9380000000000006E-08, 123, 4.19393E-10, -4.76917E-06, 25
DataValue, 4.8560000000000006E-08, 124.00200000000001, 4.1800300000000003E-10, -4.6145699999999994E-06, 25
DataValue, -2.6620000000000003E-08, 124.998, 4.1617E-10, -4.87231E-06, 25
DataValue, -1.6550000000000003E-08, 125.997, 4.1466500000000004E-10, -4.6430599999999994E-06, 25
DataValue, 1.5120000000000002E-08, 126.99900000000001, 4.13404E-10, -4.63366E-06, 25
DataValue, -9.667E-08, 128.001, 4.1158100000000005E-10, -4.81258E-06, 25
DataValue, 2.0880000000000002E-08, 129, 4.10198E-10, -4.81729E-06, 25
DataValue, -3.9410000000000007E-08, 129.999, 4.0892400000000006E-10, -4.76066E-06, 25
DataValue, -3.8970000000000004E-08, 131.001, 4.0730200000000005E-10, -4.73917E-06, 25
DataValue, -8.4E-09, 132.0015, 4.0593200000000003E-10, -4.71028E-06, 25
DataValue, -5.0280000000000004E-08, 133.005, 4.04326E-10, -4.8555699999999993E-06, 25
DataValue, 3.4500000000000003E-09, 133.9995, 4.0303400000000004E-10, -4.74089E-06, 25
DataValue, -4.0720000000000003E-08, 134.9955, 4.0149800000000004E-10, -4.82091E-06, 25
DataValue, -4.9500000000000006E-08, 136.00050000000002, 4.0003800000000003E-10, -4.7656E-06, 25
DataValue, 3.1320000000000005E-08, 137.001, 3.99035E-10, -4.8206E-06, 25
DataValue, 2.3E-08, 138, 3.9717100000000004E-10, -4.8539499999999995E-06, 25
DataValue, -6.9550000000000011E-08, 139.00050000000002, 3.9585700000000004E-10, -4.8486E-06, 25
DataValue, -2.4110000000000002E-08, 139.9995, 3.94696E-10, -4.80918E-06, 25
DataValue, -3.5550000000000004E-08, 141.0015, 3.93274E-10, -4.74485E-06, 25
DataValue, 1.368E-08, 142.00050000000002, 3.9197500000000003E-10, -4.7434499999999995E-06, 25
DataValue, -2.2450000000000003E-08, 142.9935, 3.9078700000000003E-10, -4.79889E-06, 25
DataValue, -8.645000000000001E-08, 144, 3.8934100000000003E-10, -5.01423E-06, 25
DataValue, 3.19E-08, 145.005, 3.8840300000000005E-10, -4.79965E-06, 25
DataValue, -9.280000000000001E-09, 146.001, 3.8704700000000005E-10, -4.82876E-06, 25
DataValue, -2.7400000000000004E-08, 147.0015, 3.8574000000000006E-10, -4.79536E-06, 25
DataValue, 4.505E-08, 148.00050000000002, 3.84501E-10, -4.8132299999999995E-06, 25
DataValue, -6.2300000000000009E-08, 149.001, 3.83151E-10, -4.75658E-06, 25
DataValue, -3.0790000000000006E-08, 149.9985, 3.81999E-10, -4.8394199999999995E-06, 25
DataValue, 1.9200000000000003E-08, 150.9975, 3.8103800000000004E-10, -4.8357499999999994E-06, 25
DataValue, -6.044E-08, 151.9965, 3.7982600000000004E-10, -4.82585E-06, 25
DataValue, 5.4420000000000007E-08, 153.00300000000001, 3.78894E-10, -4.8774499999999994E-06, 25
DataValue, -4.7070000000000004E-08, 154.00050000000002, 3.77322E-10, -4.90086E-06, 25
DataValue, -1.565E-08, 154.998, 3.76153E-10, -4.82808E-06, 25
DataValue, 2.7070000000000004E-08, 156.006, 3.75291E-10, -4.98796E-06, 25
DataValue, -4.861E-08, 156.999, 3.7414300000000004E-10, -5.0013299999999994E-06, 25
DataValue, -1.0525E-07, 157.9965, 3.7313800000000005E-10, -4.95651E-06, 25
DataValue, -5.7230000000000004E-08, 159.0015, 3.7160600000000004E-10, -4.87207E-06, 25
DataValue, -8.418E-08, 160.002, 3.70698E-10, -5.00729E-06, 25
DataValue, 2.1330000000000003E-08, 160.9995, 3.6947200000000003E-10, -4.9094899999999995E-06, 25
DataValue, 4.9000000000000007E-10, 161.9985, 3.6855200000000005E-10, -4.7699799999999995E-06, 25
DataValue, -3.4000000000000007E-08, 163.005, 3.6723000000000003E-10, -5.02429E-06, 25
DataValue, 3.836E-08, 164.001, 3.66536E-10, -4.91234E-06, 25
DataValue, -2.2920000000000003E-08, 165.0015, 3.65221E-10, -5.00669E-06, 25
DataValue, -3.476E-08, 165.999, 3.6448200000000003E-10, -4.88315E-06, 25
DataValue, 3.3170000000000005E-08, 166.9995, 3.63322E-10, -4.83974E-06, 25
DataValue, -4.3920000000000006E-08, 168.0015, 3.62146E-10, -4.8131699999999995E-06, 25
DataValue, 2.3950000000000003E-08, 168.999, 3.61357E-10, -4.9732999999999995E-06, 25
DataValue, -2.8800000000000004E-09, 170.004, 3.6016800000000004E-10, -4.6081299999999995E-06, 25
DataValue, -5.046E-08, 171.0015, 3.59291E-10, -4.81328E-06, 25
DataValue, 2.153E-08, 171.9975, 3.58177E-10, -4.91257E-06, 25
DataValue, -6.981E-08, 172.998, 3.57645E-10, -4.65025E-06, 25
DataValue, -8.3000000000000015E-09, 174.00300000000001, 3.56427E-10, -4.7943899999999995E-06, 25
DataValue, 2.2150000000000003E-08, 174.999, 3.55499E-10, -4.92508E-06, 25
DataValue, -3.874E-08, 175.998, 3.54524E-10, -4.8453899999999995E-06, 25
DataValue, -5.54E-09, 177, 3.5367700000000004E-10, -4.7215E-06, 25
DataValue, 1.6000000000000002E-10, 177.996, 3.52457E-10, -4.84283E-06, 25
DataValue, -4.9740000000000007E-08, 179.0025, 3.5193600000000004E-10, -4.83228E-06, 25
DataValue, 3.7360000000000005E-08, 180, 3.5089E-10, -4.8625E-06, 25
DataValue, -1.0068000000000001E-07, 181.0035, 3.4966900000000004E-10, -4.93394E-06, 25
DataValue, -3.7010000000000005E-08, 181.9995, 3.49107E-10, -4.90275E-06, 25
DataValue, 3.032E-08, 183.0045, 3.47942E-10, -4.9296999999999996E-06, 25
DataValue, -4.2300000000000005E-09, 183.999, 3.4705400000000004E-10, -4.8481499999999995E-06, 25
DataValue, -4.739E-08, 184.9965, 3.46364E-10, -4.85446E-06, 25
DataValue, -9.8170000000000012E-08, 186, 3.4540400000000005E-10, -4.9244299999999994E-06, 25
DataValue, 1.2470000000000002E-08, 187.002, 3.4487200000000004E-10, -4.8399899999999995E-06, 25
DataValue, 4.9920000000000006E-08, 187.9995, 3.4428700000000003E-10, -4.77032E-06, 25
DataValue, -2.7460000000000002E-08, 188.9985, 3.4330400000000003E-10, -4.79001E-06, 25
DataValue, -9.7500000000000013E-09, 190.0035, 3.4227500000000004E-10, -4.9178799999999994E-06, 25
DataValue, 2.5820000000000002E-08, 191.0025, 3.41476E-10, -4.81411E-06, 25
DataValue, -1.0787000000000001E-07, 191.9985, 3.40289E-10, -4.8708499999999993E-06, 25
DataValue, 7.413E-08, 192.999, 3.39987E-10, -4.80458E-06, 25
DataValue, -6.19E-08, 193.998, 3.38752E-10, -4.89021E-06, 25
DataValue, -1.8140000000000002E-08, 194.997, 3.3806E-10, -4.82912E-06, 25
DataValue, 2.195E-08, 196.002, 3.3718900000000004E-10, -4.9111599999999994E-06, 25
DataValue, -1.4100000000000002E-08, 196.9995, 3.36451E-10, -4.77827E-06, 25
DataValue, 2.5660000000000003E-08, 198.0015, 3.35564E-10, -4.91321E-06, 25
DataValue, 3.863E-08, 198.999, 3.34859E-10, -4.83565E-06, 25
DataValue, -7.6520000000000013E-08, 200.001, 3.34113E-10, -4.89544E-06, 25
DataValue, -3.1460000000000005E-08, 201, 3.33232E-10, -4.73686E-06, 25
DataValue, 2.8010000000000004E-08, 202.00050000000002, 3.3277800000000005E-10, -4.7251299999999994E-06, 25
DataValue, -4.6670000000000007E-08, 203.0025, 3.3175900000000004E-10, -4.8239799999999993E-06, 25
DataValue, 4.4170000000000004E-08, 203.997, 3.3099800000000003E-10, -4.74785E-06, 25
DataValue, -5.8550000000000005E-08, 205.002, 3.3034100000000003E-10, -4.9824299999999995E-06, 25
DataValue, -1.7670000000000002E-08, 205.9995, 3.2973500000000005E-10, -4.90916E-06, 25
DataValue, -1.88E-09, 207.00300000000001, 3.28789E-10, -4.7778599999999993E-06, 25
DataValue, -3.5160000000000005E-08, 208.00050000000002, 3.27966E-10, -4.9058799999999994E-06, 25
DataValue, 3.0130000000000006E-08, 209.001, 3.27379E-10, -4.81079E-06, 25
DataValue, -2.1100000000000004E-09, 210, 3.2661E-10, -4.68593E-06, 25
DataValue, -2.715E-08, 211.005, 3.2597E-10, -4.8540699999999994E-06, 25
DataValue, -2.6130000000000003E-08, 211.9995, 3.25218E-10, -4.8402199999999995E-06, 25
DataValue, -3.329E-08, 213, 3.2399700000000004E-10, -4.77817E-06, 25
DataValue, 2.2870000000000002E-08, 214.00050000000002, 3.2386900000000003E-10, -4.6961299999999994E-06, 25
DataValue, 2.8800000000000003E-08, 215.0025, 3.2300100000000003E-10, -4.8231599999999996E-06, 25
DataValue, -2.6770000000000004E-08, 215.997, 3.22516E-10, -4.79051E-06, 25
DataValue, -9.000000000000001E-10, 217.0035, 3.2185000000000003E-10, -4.64579E-06, 25
DataValue, 5.0060000000000006E-08, 218.0025, 3.2111000000000004E-10, -4.66387E-06, 25
DataValue, -1.794E-08, 219, 3.2025300000000003E-10, -4.74187E-06, 25
DataValue, 4.8640000000000004E-08, 220.00050000000002, 3.19812E-10, -4.81257E-06, 25
DataValue, -4.1870000000000004E-08, 220.998, 3.19161E-10, -4.63219E-06, 25
DataValue, 7.6260000000000009E-08, 222.0015, 3.18351E-10, -4.89974E-06, 25
DataValue, 6.390000000000001E-08, 222.999, 3.17715E-10, -4.7862999999999994E-06, 25
DataValue, -2.6490000000000004E-08, 224.001, 3.1715700000000005E-10, -5.2568499999999995E-06, 25
DataValue, -1.2080000000000001E-08, 224.9925, 3.1647000000000005E-10, -4.69295E-06, 25
DataValue, -1.499E-08, 225.9975, 3.1588400000000003E-10, -4.52528E-06, 25
DataValue, -3.5800000000000005E-09, 226.9995, 3.15057E-10, -4.7264999999999996E-06, 25
DataValue, -3.0790000000000006E-08, 227.9985, 3.1453000000000005E-10, -4.8771599999999994E-06, 25
DataValue, -4.6780000000000006E-08, 228.99450000000002, 3.13736E-10, -4.93668E-06, 25
DataValue, -7.1300000000000008E-09, 229.9965, 3.1313000000000003E-10, -4.7158899999999993E-06, 25
DataValue, -4.8950000000000005E-08, 231.0015, 3.12538E-10, -4.7093299999999995E-06, 25
DataValue, 5.5150000000000007E-08, 232.002, 3.11753E-10, -4.73813E-06, 25
DataValue, 1.471E-08, 233.001, 3.1113100000000005E-10, -4.77816E-06, 25
