
SetupTitle, Cds
ApplicationTest, Cds, Public
TestParameter, Name, Memo, IntegTime, Frequency, OscLevel, Scale, Drain, VdBias, VdStart, VdStop, VdLinearStep, IdLimit, HoldTime, DelayTime, IdMinRange
TestParameter, Value, , SHORT, 1000000, 0.025, LINEAR, CMU1:MF	MFCMU, SMU6:HV	HVSMU, 0, 1000, 1, 0.004, 0, 0.08, 10uA
DutParameter, Name, Polarity, Temp, YAxisCdsMin, YAxisCdsMax
DutParameter, Value, 1, 25, 1E-12, 1E-09
MetaData, TestRecord.EntryPoint, true
MetaData, TestRecord.RecordTime, 12/27/2020 08:51:33
MetaData, TestRecord.TestTarget, 
MetaData, TestRecord.IterationIndex, 4
MetaData, TestRecord.Preservation, true
MetaData, TestRecord.Flag, 
MetaData, TestRecord.Remarks, 
MetaData, TestRecord.LinkKey, 4f0a73b6-6ac7-474c-861f-17e12d3869a3
Dimension1, 1001, 1001, 1001, 1001, 1001
Dimension2, 1, 1, 1, 1, 1
DataName, Ids, Vdrain, Cds, G, Ta
DataValue, -3.9340000000000007E-08, -0.003, 2.65772E-10, -0.000382292, 25
DataValue, 1.4900000000000001E-08, 1.0035, 2.3109600000000003E-10, -0.00033491600000000004, 25
DataValue, -1.7130000000000002E-08, 2.0025, 2.0825100000000001E-10, -0.000303896, 25
DataValue, 7.3900000000000012E-09, 2.9985, 1.9139200000000002E-10, -0.000280918, 25
DataValue, 1.9450000000000002E-08, 4.0005, 1.7819100000000002E-10, -0.00026296100000000003, 25
DataValue, 2.5E-10, 4.9995, 1.6726000000000003E-10, -0.000246711, 25
DataValue, -5.7220000000000005E-08, 6.0015, 1.5814400000000002E-10, -0.000234094, 25
DataValue, -6.8900000000000008E-09, 7.002, 1.50299E-10, -0.000223026, 25
DataValue, -5.5380000000000004E-08, 7.995, 1.43588E-10, -0.000212976, 25
DataValue, 3.5300000000000004E-09, 9.0015, 1.3747300000000002E-10, -0.00020455600000000003, 25
DataValue, -5.06E-08, 10.002, 1.31758E-10, -0.000196627, 25
DataValue, -3.3340000000000006E-08, 10.9995, 1.2588700000000002E-10, -0.00018726700000000002, 25
DataValue, 3.7530000000000006E-08, 11.9985, 1.1452000000000001E-10, -0.000169147, 25
DataValue, 1.921E-08, 13.0005, 1.1013900000000001E-10, -0.00016299900000000002, 25
DataValue, -1.705E-08, 13.998000000000001, 1.06617E-10, -0.000157638, 25
DataValue, -9.9700000000000009E-09, 14.9985, 1.0339800000000001E-10, -0.000153175, 25
DataValue, -5.58E-09, 16.005, 1.0062900000000001E-10, -0.000149032, 25
DataValue, -1.6060000000000003E-08, 17.0025, 9.79261E-11, -0.00014512000000000002, 25
DataValue, -1.2940000000000002E-08, 18.0015, 9.54994E-11, -0.000141941, 25
DataValue, 2.4180000000000002E-08, 18.999, 9.33272E-11, -0.000138631, 25
DataValue, 9.0090000000000008E-08, 20.0025, 9.11768E-11, -0.000135828, 25
DataValue, 5.2230000000000005E-08, 21.0045, 8.9250499999999993E-11, -0.000132687, 25
DataValue, 1.6990000000000002E-08, 22.0035, 8.7506599999999992E-11, -0.000130578, 25
DataValue, -4.135E-08, 22.9995, 8.58165E-11, -0.000127863, 25
DataValue, 2.9130000000000003E-08, 24.003, 8.4252E-11, -0.000125162, 25
DataValue, -6.5990000000000011E-08, 24.997500000000002, 8.27072E-11, -0.000123056, 25
DataValue, 5.3470000000000008E-08, 26.001, 8.11979E-11, -0.00012142400000000001, 25
DataValue, -3.1080000000000004E-08, 27.0045, 7.99743E-11, -0.000119313, 25
DataValue, 5.9100000000000005E-09, 27.997500000000002, 7.87254E-11, -0.000117571, 25
DataValue, 2.174E-08, 28.9995, 7.74566E-11, -0.00011574400000000001, 25
DataValue, -7.4100000000000007E-09, 30, 7.62424E-11, -0.00011372500000000001, 25
DataValue, 2.635E-08, 31.002, 7.50937E-11, -0.00011200000000000001, 25
DataValue, 2.9050000000000002E-08, 31.9995, 7.40001E-11, -0.00011054600000000001, 25
DataValue, -2.3740000000000003E-08, 33.0015, 7.30678E-11, -0.00010898, 25
DataValue, -3.94E-09, 34.0005, 7.2056099999999992E-11, -0.000107776, 25
DataValue, -6.471E-08, 34.998, 7.11914E-11, -0.000106446, 25
DataValue, -3.3200000000000005E-09, 35.997, 7.02621E-11, -0.00010488600000000001, 25
DataValue, 2.408E-08, 37.0035, 6.93224E-11, -0.00010365400000000001, 25
DataValue, 3.7290000000000005E-08, 38.001, 6.85339E-11, -0.000102848, 25
DataValue, 2.3300000000000004E-09, 38.9985, 6.7666499999999993E-11, -0.00010102100000000001, 25
DataValue, -1.0690000000000002E-08, 39.999, 6.69184E-11, -0.00010032300000000001, 25
DataValue, -3.2970000000000003E-08, 40.9995, 6.61728E-11, -9.89513E-05, 25
DataValue, 1.9670000000000003E-08, 42.003, 6.54299E-11, -9.8122000000000007E-05, 25
DataValue, -1.9310000000000002E-08, 43.002, 6.46651E-11, -9.7414500000000007E-05, 25
DataValue, -9.5530000000000009E-08, 43.9965, 6.40141E-11, -9.58136E-05, 25
DataValue, 3.7960000000000004E-08, 45.0015, 6.33358E-11, -9.45984E-05, 25
DataValue, 8.2300000000000016E-09, 46.0035, 6.27626E-11, -9.44112E-05, 25
DataValue, -7.200000000000001E-10, 46.9995, 6.20501E-11, -9.31353E-05, 25
DataValue, -1.1170000000000002E-08, 48.0015, 6.15089E-11, -9.16156E-05, 25
DataValue, 2.612E-08, 49.002, 6.08148E-11, -9.18296E-05, 25
DataValue, -6.9700000000000005E-09, 50.0025, 6.03758E-11, -9.05071E-05, 25
DataValue, 2.448E-08, 50.9985, 5.97259E-11, -8.9695500000000009E-05, 25
DataValue, -6.5200000000000006E-09, 52.002, 5.91879E-11, -8.88405E-05, 25
DataValue, -1.1890000000000001E-08, 53.0025, 5.8633E-11, -8.79732E-05, 25
DataValue, 1.4490000000000001E-08, 54.0045, 5.8167499999999996E-11, -8.74456E-05, 25
DataValue, 3.716E-08, 55.002, 5.76909E-11, -8.6669E-05, 25
DataValue, -3.1630000000000006E-08, 56.001, 5.71368E-11, -8.58523E-05, 25
DataValue, -7.6300000000000012E-09, 56.9985, 5.66902E-11, -8.50513E-05, 25
DataValue, -7.6400000000000009E-09, 58.0005, 5.62171E-11, -8.4416900000000008E-05, 25
DataValue, -1.1330000000000001E-08, 59.001000000000005, 5.57301E-11, -8.38467E-05, 25
DataValue, 3.2750000000000005E-08, 59.997, 5.5311099999999996E-11, -8.33718E-05, 25
DataValue, 1.314E-08, 61.0065, 5.48403E-11, -8.2211E-05, 25
DataValue, 3.4100000000000004E-09, 61.999500000000005, 5.44225E-11, -8.21067E-05, 25
DataValue, 1.2880000000000002E-08, 63.003, 5.4051699999999996E-11, -8.17266E-05, 25
DataValue, 3.8E-09, 63.9975, 5.36982E-11, -8.0572E-05, 25
DataValue, 5.7900000000000009E-09, 64.998, 5.32678E-11, -8.05071E-05, 25
DataValue, -5.0190000000000008E-08, 65.9985, 5.28594E-11, -7.98764E-05, 25
DataValue, -6.925E-08, 66.996, 5.2405699999999996E-11, -7.8865E-05, 25
DataValue, -2.2870000000000002E-08, 68.0025, 5.21322E-11, -7.85028E-05, 25
DataValue, -4.7560000000000004E-08, 69.001500000000007, 5.17754E-11, -7.74919E-05, 25
DataValue, -2.9030000000000003E-08, 70.0005, 5.1404899999999996E-11, -7.7741500000000008E-05, 25
DataValue, -2.7680000000000004E-08, 70.9965, 5.10935E-11, -7.71136E-05, 25
DataValue, -5.8060000000000005E-08, 72.001500000000007, 5.0673299999999997E-11, -7.65505E-05, 25
DataValue, -5.27E-08, 73.002, 5.03443E-11, -7.61481E-05, 25
DataValue, -3.7470000000000004E-08, 73.995, 5.01216E-11, -7.5376E-05, 25
DataValue, -2.5070000000000002E-08, 75, 4.98376E-11, -7.48631E-05, 25
DataValue, -3.6760000000000006E-08, 76.0005, 4.93726E-11, -7.4178400000000008E-05, 25
DataValue, -7.6300000000000012E-09, 76.998, 4.90325E-11, -7.41857E-05, 25
DataValue, 2.8830000000000004E-08, 78, 4.88525E-11, -7.33811E-05, 25
DataValue, 1.6480000000000003E-08, 78.999, 4.85465E-11, -7.3335E-05, 25
DataValue, -6.1110000000000009E-08, 79.998, 4.81183E-11, -7.29401E-05, 25
DataValue, -2.4910000000000003E-08, 81.003, 4.79291E-11, -7.20998E-05, 25
DataValue, 3.6500000000000004E-09, 82.0065, 4.7577699999999996E-11, -7.20499E-05, 25
DataValue, -5.0140000000000004E-08, 82.998, 4.7351E-11, -7.10406E-05, 25
DataValue, 3.4910000000000006E-08, 83.9985, 4.70692E-11, -7.1038400000000008E-05, 25
DataValue, -2.9090000000000004E-08, 85.0005, 4.67735E-11, -7.0495200000000009E-05, 25
DataValue, 2.991E-08, 85.9995, 4.65727E-11, -6.9999800000000007E-05, 25
DataValue, -2.054E-08, 86.997, 4.6264599999999997E-11, -6.9867300000000008E-05, 25
DataValue, 8.4500000000000012E-09, 88.002, 4.59998E-11, -6.95809E-05, 25
DataValue, 1.4310000000000002E-08, 88.9965, 4.57603E-11, -6.94416E-05, 25
DataValue, -2.3900000000000002E-08, 89.9985, 4.54718E-11, -6.8294600000000008E-05, 25
DataValue, -2.5150000000000004E-08, 91.0005, 4.5274399999999996E-11, -6.85959E-05, 25
DataValue, -3.7880000000000006E-08, 91.9965, 4.4969599999999996E-11, -6.81118E-05, 25
DataValue, -1.19E-08, 93, 4.47226E-11, -6.7689200000000009E-05, 25
DataValue, 5.6940000000000006E-08, 94.0035, 4.45582E-11, -6.79415E-05, 25
DataValue, 4.0350000000000007E-08, 94.9995, 4.43616E-11, -6.66641E-05, 25
DataValue, 5.0680000000000008E-08, 96.001500000000007, 4.40661E-11, -6.68105E-05, 25
DataValue, 3.4430000000000005E-08, 96.999, 4.38011E-11, -6.59525E-05, 25
DataValue, -3.1080000000000004E-08, 98.001, 4.36928E-11, -6.62971E-05, 25
DataValue, -1.658E-08, 99.003, 4.34289E-11, -6.58287E-05, 25
DataValue, 3.8000000000000003E-10, 99.9975, 4.32332E-11, -6.5522500000000008E-05, 25
DataValue, 2.4650000000000002E-08, 101.0025, 4.3026099999999997E-11, -6.51925E-05, 25
DataValue, -5.9000000000000007E-09, 102, 4.27874E-11, -6.44266E-05, 25
DataValue, 8.100000000000001E-10, 103.002, 4.2713999999999996E-11, -6.44829E-05, 25
DataValue, 4.9960000000000005E-08, 104.001, 4.24898E-11, -6.44695E-05, 25
DataValue, 1.5170000000000003E-08, 105.003, 4.22309E-11, -6.435E-05, 25
DataValue, -9.300000000000001E-10, 105.9975, 4.19278E-11, -6.35105E-05, 25
DataValue, -3.7200000000000004E-09, 107.0025, 4.17927E-11, -6.31343E-05, 25
DataValue, -2.4090000000000003E-08, 108, 4.16088E-11, -6.29394E-05, 25
DataValue, -7.85E-09, 109.0005, 4.14524E-11, -6.26559E-05, 25
DataValue, -2.1160000000000002E-08, 109.998, 4.1249E-11, -6.25569E-05, 25
DataValue, -2.6930000000000004E-08, 111.003, 4.10645E-11, -6.18613E-05, 25
DataValue, -2.4500000000000004E-09, 112.0035, 4.08689E-11, -6.25833E-05, 25
DataValue, 1.054E-08, 112.9965, 4.07208E-11, -6.10362E-05, 25
DataValue, -3.1500000000000005E-09, 114, 4.05408E-11, -6.12859E-05, 25
DataValue, 4.4420000000000003E-08, 114.99600000000001, 4.0422E-11, -6.12409E-05, 25
DataValue, 9.4100000000000012E-09, 115.998, 4.02216E-11, -6.0693400000000004E-05, 25
DataValue, -2.675E-08, 117, 4.00353E-11, -6.0693900000000005E-05, 25
DataValue, -5.2220000000000007E-08, 118.00200000000001, 3.9896199999999996E-11, -5.9915000000000005E-05, 25
DataValue, -5.249E-08, 119.001, 3.96922E-11, -6.01515E-05, 25
DataValue, -5.7920000000000005E-08, 119.9985, 3.95225E-11, -6.0081800000000005E-05, 25
DataValue, -2.2400000000000002E-08, 121.0035, 3.93402E-11, -5.94897E-05, 25
DataValue, 1.494E-08, 121.9995, 3.91935E-11, -5.95988E-05, 25
DataValue, -2.0600000000000003E-09, 122.997, 3.89925E-11, -5.89962E-05, 25
DataValue, 1.034E-08, 123.99600000000001, 3.89008E-11, -5.9052700000000005E-05, 25
DataValue, 2.1120000000000003E-08, 125.001, 3.8688E-11, -5.8601500000000005E-05, 25
DataValue, -1.5540000000000002E-08, 126, 3.86253E-11, -5.8774700000000005E-05, 25
DataValue, -2.6690000000000003E-08, 126.9975, 3.84253E-11, -5.8490500000000005E-05, 25
DataValue, -7.095000000000001E-08, 127.9995, 3.83369E-11, -5.7633800000000004E-05, 25
DataValue, 1.43E-08, 128.9955, 3.81686E-11, -5.8069700000000004E-05, 25
DataValue, 7.6000000000000006E-10, 130.002, 3.80022E-11, -5.7612100000000004E-05, 25
DataValue, 3.522E-08, 131.0025, 3.79445E-11, -5.6916900000000004E-05, 25
DataValue, -1.694E-08, 131.997, 3.77222E-11, -5.6994700000000005E-05, 25
DataValue, -6.546E-08, 132.9975, 3.76046E-11, -5.71543E-05, 25
DataValue, -3.451E-08, 134.001, 3.73969E-11, -5.6858400000000004E-05, 25
DataValue, 2.6300000000000002E-09, 134.9985, 3.73142E-11, -5.64141E-05, 25
DataValue, -8.390000000000001E-09, 136.0035, 3.70961E-11, -5.6621E-05, 25
DataValue, -1.4520000000000002E-08, 136.995, 3.69978E-11, -5.60185E-05, 25
DataValue, -8.0000000000000013E-10, 137.9955, 3.69586E-11, -5.60685E-05, 25
DataValue, -3.4350000000000006E-08, 139.002, 3.6764E-11, -5.54446E-05, 25
DataValue, -5.8700000000000006E-09, 140.001, 3.66474E-11, -5.538E-05, 25
DataValue, -6.362000000000001E-08, 140.997, 3.65944E-11, -5.50083E-05, 25
DataValue, -3.696E-08, 141.996, 3.63308E-11, -5.5093800000000004E-05, 25
DataValue, 1.8770000000000002E-08, 142.9995, 3.61989E-11, -5.50923E-05, 25
DataValue, -1.7880000000000002E-08, 143.997, 3.61873E-11, -5.43653E-05, 25
DataValue, -2.9680000000000002E-08, 144.996, 3.5961799999999996E-11, -5.42115E-05, 25
DataValue, -3.218E-08, 146.001, 3.59145E-11, -5.40937E-05, 25
DataValue, 6.7900000000000007E-09, 147.00300000000001, 3.57574E-11, -5.42051E-05, 25
DataValue, 6.8160000000000009E-08, 148.0035, 3.56075E-11, -5.4213300000000005E-05, 25
DataValue, -2.7070000000000004E-08, 148.9965, 3.55402E-11, -5.3811100000000004E-05, 25
DataValue, 5.0140000000000004E-08, 150.00300000000001, 3.53845E-11, -5.40518E-05, 25
DataValue, -1.2750000000000002E-08, 150.9975, 3.52698E-11, -5.3786200000000004E-05, 25
DataValue, 3.615E-08, 151.998, 3.51892E-11, -5.3527400000000005E-05, 25
DataValue, -4.774E-08, 153, 3.49369E-11, -5.35255E-05, 25
DataValue, -7.52E-09, 153.9975, 3.49398E-11, -5.2994E-05, 25
DataValue, -6.421E-08, 154.998, 3.48314E-11, -5.2736000000000005E-05, 25
DataValue, -6.225E-08, 155.9985, 3.47699E-11, -5.2738900000000004E-05, 25
DataValue, -1.4460000000000002E-08, 157.00050000000002, 3.455E-11, -5.22187E-05, 25
DataValue, -3.7000000000000005E-09, 157.998, 3.43828E-11, -5.23257E-05, 25
DataValue, -9.1000000000000006E-10, 159, 3.4367E-11, -5.20723E-05, 25
DataValue, 4.9680000000000005E-08, 160.0035, 3.43219E-11, -5.2276E-05, 25
DataValue, 1.4530000000000002E-08, 160.9995, 3.41561E-11, -5.18939E-05, 25
DataValue, -4.9400000000000007E-09, 162, 3.40941E-11, -5.15379E-05, 25
DataValue, -2.8200000000000004E-08, 163.005, 3.39712E-11, -5.0681000000000005E-05, 25
DataValue, -4.638E-08, 164.001, 3.38546E-11, -5.15775E-05, 25
DataValue, -4.833E-08, 165.0045, 3.37204E-11, -5.15301E-05, 25
DataValue, -4.8120000000000003E-08, 165.9975, 3.37066E-11, -5.08237E-05, 25
DataValue, 1.3220000000000002E-08, 166.9995, 3.35011E-11, -5.09783E-05, 25
DataValue, -1.783E-08, 167.9985, 3.34883E-11, -5.10835E-05, 25
DataValue, -3.9320000000000004E-08, 169.00050000000002, 3.33332E-11, -5.05057E-05, 25
DataValue, -1.6780000000000002E-08, 169.998, 3.3231899999999996E-11, -5.00651E-05, 25
DataValue, -2.6310000000000002E-08, 171.0015, 3.31975E-11, -5.0526500000000005E-05, 25
DataValue, -5.7250000000000006E-08, 171.9975, 3.3083099999999997E-11, -4.98725E-05, 25
DataValue, 5.2710000000000007E-08, 173.001, 3.29336E-11, -4.99591E-05, 25
DataValue, -4.3190000000000005E-08, 173.997, 3.2831E-11, -5.01237E-05, 25
DataValue, -5.1770000000000006E-08, 175.00650000000002, 3.27909E-11, -4.92761E-05, 25
DataValue, -1.7340000000000002E-08, 175.9995, 3.25887E-11, -4.9601800000000003E-05, 25
DataValue, -1.259E-08, 176.997, 3.26278E-11, -4.94764E-05, 25
DataValue, 8.5200000000000012E-09, 178.002, 3.24332E-11, -4.94235E-05, 25
DataValue, 4.8250000000000005E-08, 178.998, 3.23349E-11, -4.9166100000000003E-05, 25
DataValue, 4.8700000000000008E-09, 179.9955, 3.22479E-11, -4.91889E-05, 25
DataValue, 5.3200000000000007E-09, 180.999, 3.2257E-11, -4.8836100000000005E-05, 25
DataValue, -6.1050000000000007E-08, 181.998, 3.21219E-11, -4.94524E-05, 25
DataValue, -1.3670000000000001E-08, 182.997, 3.19984E-11, -4.84951E-05, 25
DataValue, -3.343E-08, 184.002, 3.19878E-11, -4.8019600000000004E-05, 25
DataValue, -1.7090000000000003E-08, 184.998, 3.18888E-11, -4.8443500000000005E-05, 25
DataValue, -4.8000000000000008E-09, 185.9985, 3.17518E-11, -4.9154300000000005E-05, 25
DataValue, 2.0370000000000003E-08, 187.002, 3.16867E-11, -4.8122000000000004E-05, 25
DataValue, 9.5E-09, 187.9965, 3.16964E-11, -4.76821E-05, 25
DataValue, 3.3900000000000006E-08, 188.997, 3.159E-11, -4.76628E-05, 25
DataValue, 3.765E-08, 189.999, 3.15518E-11, -4.8133900000000003E-05, 25
DataValue, -2.8940000000000003E-08, 190.998, 3.13675E-11, -4.7229000000000005E-05, 25
DataValue, -2.4180000000000002E-08, 191.9955, 3.1267E-11, -4.7182200000000004E-05, 25
DataValue, -6.114E-08, 192.999, 3.1231E-11, -4.7698400000000004E-05, 25
DataValue, -9.4590000000000015E-08, 193.9965, 3.11704E-11, -4.7302600000000003E-05, 25
DataValue, 2.1310000000000004E-08, 195.0045, 3.10417E-11, -4.7166800000000004E-05, 25
DataValue, -1.558E-08, 196.002, 3.0956799999999997E-11, -4.69424E-05, 25
DataValue, -1.6200000000000003E-08, 196.9965, 3.09009E-11, -4.69835E-05, 25
DataValue, 5.9320000000000004E-08, 198.00300000000001, 3.08175E-11, -4.65317E-05, 25
DataValue, 1.1447E-07, 199.0035, 3.07777E-11, -4.66208E-05, 25
DataValue, -8.5000000000000017E-09, 199.9995, 3.06585E-11, -4.65515E-05, 25
DataValue, 8.08E-09, 201, 3.05347E-11, -4.6492900000000003E-05, 25
DataValue, -8.941E-08, 201.999, 3.05035E-11, -4.6366800000000005E-05, 25
DataValue, -3.9500000000000006E-09, 202.998, 3.04657E-11, -4.63132E-05, 25
DataValue, -5.109E-08, 203.997, 3.03341E-11, -4.63531E-05, 25
DataValue, 2.6570000000000002E-08, 205.002, 3.03419E-11, -4.57751E-05, 25
DataValue, -2.9900000000000002E-09, 205.9965, 3.01532E-11, -4.58478E-05, 25
DataValue, 1.0420000000000002E-08, 206.9985, 3.00838E-11, -4.5275600000000004E-05, 25
DataValue, -1.2470000000000002E-08, 208.002, 3.00685E-11, -4.61232E-05, 25
DataValue, -3.912E-08, 209.004, 2.99245E-11, -4.50732E-05, 25
DataValue, -3.245E-08, 210.0015, 2.98691E-11, -4.53018E-05, 25
DataValue, -2.5430000000000003E-08, 211.00050000000002, 2.98138E-11, -4.48748E-05, 25
DataValue, -8.2E-09, 211.9995, 2.97373E-11, -4.5173500000000004E-05, 25
DataValue, 2.05E-08, 213.00300000000001, 2.9756E-11, -4.51419E-05, 25
DataValue, 1.4000000000000001E-08, 213.99450000000002, 2.96232E-11, -4.45718E-05, 25
DataValue, -5.4310000000000008E-08, 214.9995, 2.95304E-11, -4.47909E-05, 25
DataValue, -1.375E-08, 216.00300000000001, 2.94167E-11, -4.4704000000000004E-05, 25
DataValue, 1.0240000000000001E-08, 217.002, 2.94221E-11, -4.49129E-05, 25
DataValue, -2.7840000000000003E-08, 217.9965, 2.92743E-11, -4.45797E-05, 25
DataValue, -3.671E-08, 219.0015, 2.92839E-11, -4.4422E-05, 25
DataValue, -3.162E-08, 220.005, 2.92189E-11, -4.41745E-05, 25
DataValue, 2.38E-09, 221.001, 2.91827E-11, -4.36026E-05, 25
DataValue, -1.5260000000000002E-08, 222.0015, 2.90645E-11, -4.46647E-05, 25
DataValue, -2.1400000000000003E-08, 222.99450000000002, 2.90697E-11, -4.39758E-05, 25
DataValue, -1.4480000000000001E-08, 223.9965, 2.89107E-11, -4.46309E-05, 25
DataValue, -4.18E-09, 225.0015, 2.88981E-11, -4.36713E-05, 25
DataValue, -5.7220000000000005E-08, 225.996, 2.8817599999999998E-11, -4.3304100000000004E-05, 25
DataValue, -2.2970000000000003E-08, 226.9995, 2.87807E-11, -4.35344E-05, 25
DataValue, 3.1E-10, 228.0045, 2.87296E-11, -4.3001100000000004E-05, 25
DataValue, -4.865E-08, 229.0035, 2.8569E-11, -4.36848E-05, 25
DataValue, 4.7960000000000007E-08, 230.0025, 2.85281E-11, -4.35122E-05, 25
DataValue, 2.6580000000000004E-08, 231.0015, 2.84365E-11, -4.36805E-05, 25
DataValue, 3.074E-08, 231.999, 2.84081E-11, -4.3334600000000004E-05, 25
DataValue, 3.4570000000000004E-08, 232.99800000000002, 2.83178E-11, -4.31387E-05, 25
DataValue, -9.900000000000001E-09, 233.994, 2.82549E-11, -4.32503E-05, 25
DataValue, 1.4730000000000002E-08, 235.00050000000002, 2.82896E-11, -4.27221E-05, 25
DataValue, -9.0070000000000012E-08, 235.9995, 2.8201199999999998E-11, -4.26112E-05, 25
DataValue, -3.1280000000000006E-08, 236.9985, 2.81763E-11, -4.2602700000000005E-05, 25
DataValue, -5.5640000000000007E-08, 237.99450000000002, 2.81292E-11, -4.26348E-05, 25
DataValue, -3.9770000000000005E-08, 238.9965, 2.7962599999999998E-11, -4.2723100000000004E-05, 25
DataValue, 4.0680000000000004E-08, 239.997, 2.7925E-11, -4.27856E-05, 25
DataValue, -1.1470000000000001E-08, 240.999, 2.7929E-11, -4.18905E-05, 25
DataValue, -4.4860000000000006E-08, 241.9995, 2.78827E-11, -4.27035E-05, 25
DataValue, -4.6230000000000004E-08, 242.9985, 2.78307E-11, -4.19675E-05, 25
DataValue, -8.28E-09, 244.00650000000002, 2.77307E-11, -4.1731100000000004E-05, 25
