
SetupTitle, Cds
ApplicationTest, Cds, Public
TestParameter, Name, Memo, IntegTime, Frequency, OscLevel, Scale, Drain, VdBias, VdStart, VdStop, VdLinearStep, IdLimit, HoldTime, DelayTime, IdMinRange
TestParameter, Value, , SHORT, 100000, 0.025, LINEAR, CMU1:MF	MFCMU, SMU6:HV	HVSMU, 0, 1000, 1, 0.004, 0, 0.08, 10uA
DutParameter, Name, Polarity, Temp, YAxisCdsMin, YAxisCdsMax
DutParameter, Value, 1, 25, 1E-12, 1E-09
MetaData, TestRecord.EntryPoint, true
MetaData, TestRecord.RecordTime, 04/22/2021 11:32:55
MetaData, TestRecord.TestTarget, 
MetaData, TestRecord.IterationIndex, 51
MetaData, TestRecord.Preservation, true
MetaData, TestRecord.Flag, 
MetaData, TestRecord.Remarks, 
MetaData, TestRecord.LinkKey, 67dcceea-2c2c-4b43-844f-1ba448d2b024
Dimension1, 1001, 1001, 1001, 1001, 1001
Dimension2, 1, 1, 1, 1, 1
DataName, Ids, Vdrain, Cds, G, Ta
DataValue, 5.409E-08, 0.003, 4.54433E-09, -7.55679E-05, 25
DataValue, -2.1370000000000002E-08, 0.9975, 3.74624E-09, -6.3421E-05, 25
DataValue, 5.7920000000000005E-08, 1.998, 3.34454E-09, -5.39547E-05, 25
DataValue, 7.3730000000000012E-08, 2.994, 3.06093E-09, -4.9478900000000005E-05, 25
DataValue, 4.7800000000000005E-09, 4.0005, 2.84131E-09, -4.5531900000000004E-05, 25
DataValue, 4.8970000000000008E-08, 4.998, 2.66462E-09, -4.30051E-05, 25
DataValue, 3.1E-10, 5.9985, 2.51742E-09, -4.08766E-05, 25
DataValue, 6.1890000000000007E-08, 7.002, 2.39101E-09, -3.92437E-05, 25
DataValue, 8.319E-08, 7.9965, 2.27858E-09, -3.70078E-05, 25
DataValue, 1.0699000000000001E-07, 8.997, 2.17655E-09, -3.51005E-05, 25
DataValue, 1.1431000000000001E-07, 9.9975, 2.07978E-09, -3.24592E-05, 25
DataValue, 7.608E-08, 10.998000000000001, 1.95431E-09, -5.61861E-07, 25
DataValue, 1.1176000000000002E-07, 11.9985, 1.68609E-09, 6.02845E-06, 25
DataValue, 1.2021000000000002E-07, 12.999, 1.54635E-09, -1.6212E-05, 25
DataValue, 8.899E-08, 14.0025, 1.48042E-09, -2.24387E-05, 25
DataValue, 1.4505000000000002E-07, 15.003, 1.43279E-09, -2.23555E-05, 25
DataValue, 1.4346000000000002E-07, 15.999, 1.39097E-09, -2.17862E-05, 25
DataValue, 1.1564000000000001E-07, 17.001, 1.35294E-09, -2.1342800000000002E-05, 25
DataValue, 6.5080000000000011E-08, 17.9985, 1.31797E-09, -2.06143E-05, 25
DataValue, 1.0936000000000001E-07, 19.002, 1.28619E-09, -2.0165500000000002E-05, 25
DataValue, 9.6980000000000012E-08, 19.998, 1.25649E-09, -1.97418E-05, 25
DataValue, 1.0319000000000001E-07, 21.003, 1.22872E-09, -1.92485E-05, 25
DataValue, 1.9554000000000002E-07, 22.0005, 1.20275E-09, -1.89702E-05, 25
DataValue, 1.6323E-07, 23.004, 1.17891E-09, -1.85329E-05, 25
DataValue, 1.6790000000000002E-07, 23.9985, 1.15605E-09, -1.81989E-05, 25
DataValue, 1.8137000000000002E-07, 25.0005, 1.13477E-09, -1.78114E-05, 25
DataValue, 5.231E-08, 25.998, 1.11428E-09, -1.75348E-05, 25
DataValue, 1.9880000000000003E-07, 27.0015, 1.09524E-09, -1.7317600000000002E-05, 25
DataValue, 1.5092E-07, 27.996000000000002, 1.07698E-09, -1.7048800000000002E-05, 25
DataValue, 1.8354000000000001E-07, 28.9995, 1.05968E-09, -1.66602E-05, 25
DataValue, 1.6036000000000002E-07, 30.0015, 1.04328E-09, -1.64244E-05, 25
DataValue, 1.1939E-07, 30.999000000000002, 1.02772E-09, -1.6194300000000002E-05, 25
DataValue, 2.1814000000000002E-07, 31.998, 1.01288E-09, -1.5978000000000002E-05, 25
DataValue, 2.2209000000000003E-07, 33.003, 9.98428E-10, -1.58449E-05, 25
DataValue, 1.4555E-07, 33.9975, 9.8472400000000012E-10, -1.55248E-05, 25
DataValue, 2.2703000000000002E-07, 34.998, 9.7144000000000011E-10, -1.5452E-05, 25
DataValue, 1.4061E-07, 36, 9.59022E-10, -1.5266E-05, 25
DataValue, 1.0247000000000002E-07, 37.0005, 9.4701500000000017E-10, -1.5022800000000001E-05, 25
DataValue, 2.6279000000000004E-07, 38.0055, 9.3515300000000015E-10, -1.49266E-05, 25
DataValue, 1.5695E-07, 38.9985, 9.24136E-10, -1.45709E-05, 25
DataValue, 1.8973000000000002E-07, 39.999, 9.1333800000000006E-10, -1.4639E-05, 25
DataValue, 2.6002E-07, 41.001, 9.0299200000000012E-10, -1.41817E-05, 25
DataValue, 1.2248000000000002E-07, 42.0015, 8.92845E-10, -1.4183800000000001E-05, 25
DataValue, 2.7216E-07, 43.0035, 8.8320500000000005E-10, -1.39445E-05, 25
DataValue, 1.8236000000000003E-07, 43.9995, 8.73595E-10, -1.38835E-05, 25
DataValue, 2.1309E-07, 44.997, 8.6465900000000008E-10, -1.3577300000000001E-05, 25
DataValue, 2.7105000000000003E-07, 45.999, 8.5572600000000007E-10, -1.35843E-05, 25
DataValue, 1.6937000000000001E-07, 46.998, 8.46573E-10, -1.36093E-05, 25
DataValue, 2.1957000000000003E-07, 48.0015, 8.3913000000000008E-10, -1.35002E-05, 25
DataValue, 9.7800000000000015E-08, 49.0005, 8.3106400000000006E-10, -1.3387100000000001E-05, 25
DataValue, 1.9904000000000001E-07, 50.0025, 8.2313300000000006E-10, -1.30289E-05, 25
DataValue, 2.7194000000000004E-07, 50.9985, 8.1547000000000008E-10, -1.28794E-05, 25
DataValue, 1.6593E-07, 51.999, 8.079510000000001E-10, -1.28668E-05, 25
DataValue, 2.3249E-07, 53.001, 8.009600000000001E-10, -1.2684000000000001E-05, 25
DataValue, 2.3399000000000002E-07, 53.9955, 7.93948E-10, -1.27601E-05, 25
DataValue, 1.9233000000000003E-07, 55.002, 7.87286E-10, -1.24333E-05, 25
DataValue, 2.5913E-07, 55.998000000000005, 7.8074E-10, -1.24134E-05, 25
DataValue, 2.0272000000000003E-07, 57, 7.7431200000000011E-10, -1.22095E-05, 25
DataValue, 2.5169E-07, 57.999, 7.67711E-10, -1.21188E-05, 25
DataValue, 2.2756000000000003E-07, 59.001000000000005, 7.6174800000000007E-10, -1.2127000000000001E-05, 25
DataValue, 1.6775000000000003E-07, 60, 7.5584400000000008E-10, -1.19976E-05, 25
DataValue, 2.2048000000000003E-07, 61.0005, 7.50187E-10, -1.21918E-05, 25
DataValue, 2.5197E-07, 61.999500000000005, 7.4468400000000009E-10, -1.20805E-05, 25
DataValue, 2.4785000000000004E-07, 63.0045, 7.3858200000000007E-10, -1.1798700000000001E-05, 25
DataValue, 3.2055000000000005E-07, 63.9975, 7.33251E-10, -1.17008E-05, 25
DataValue, 2.6017000000000003E-07, 65.001, 7.2803E-10, -1.15819E-05, 25
DataValue, 2.2528000000000002E-07, 65.997, 7.226880000000001E-10, -1.1615600000000001E-05, 25
DataValue, 3.6274000000000003E-07, 66.999, 7.1773200000000008E-10, -1.1322800000000001E-05, 25
DataValue, 2.8266E-07, 68.0025, 7.1273300000000011E-10, -1.14463E-05, 25
DataValue, 3.2611000000000005E-07, 69, 7.0799000000000005E-10, -1.1192E-05, 25
DataValue, 2.4280000000000003E-07, 70.0005, 7.0299100000000008E-10, -1.12275E-05, 25
DataValue, 2.468E-07, 71.001, 6.98346E-10, -1.1153600000000001E-05, 25
DataValue, 2.6586E-07, 72.004500000000007, 6.93694E-10, -1.10055E-05, 25
DataValue, 2.1252000000000003E-07, 72.999, 6.8934700000000008E-10, -1.1075500000000001E-05, 25
DataValue, 2.6386000000000003E-07, 74.004, 6.85047E-10, -1.0857E-05, 25
DataValue, 3.1499000000000004E-07, 75.004500000000007, 6.804780000000001E-10, -1.08968E-05, 25
DataValue, 2.7050000000000005E-07, 76.0035, 6.7624600000000009E-10, -1.0754100000000001E-05, 25
DataValue, 2.6073000000000003E-07, 76.9995, 6.7206400000000009E-10, -1.07803E-05, 25
DataValue, 2.6968E-07, 78.001500000000007, 6.68805E-10, -1.09972E-05, 25
DataValue, 2.4545E-07, 79.0005, 6.6392600000000007E-10, -1.07751E-05, 25
DataValue, 3.322E-07, 80.0025, 6.6015400000000008E-10, -1.05207E-05, 25
DataValue, 3.167E-07, 80.9985, 6.5639200000000006E-10, -1.05387E-05, 25
DataValue, 2.5409E-07, 82.0005, 6.5242900000000008E-10, -1.03959E-05, 25
DataValue, 2.5579000000000004E-07, 83.001, 6.4877600000000008E-10, -1.02416E-05, 25
DataValue, 2.4326E-07, 83.9925, 6.44924E-10, -1.02993E-05, 25
DataValue, 2.6629000000000004E-07, 85.0005, 6.4121700000000006E-10, -1.01172E-05, 25
DataValue, 2.7881000000000005E-07, 86.004, 6.37672E-10, -1.04162E-05, 25
DataValue, 4.1115E-07, 87.006, 6.34642E-10, -9.9801399999999989E-06, 25
DataValue, 3.977E-07, 88.0005, 6.30908E-10, -1.00768E-05, 25
DataValue, 2.5686000000000004E-07, 89.001, 6.27666E-10, -1.00501E-05, 25
DataValue, 3.3146000000000003E-07, 90.003, 6.24312E-10, -9.88592E-06, 25
DataValue, 3.1778000000000003E-07, 91.005, 6.2111400000000007E-10, -9.89077E-06, 25
DataValue, 3.1013000000000004E-07, 91.998, 6.17876E-10, -9.8725199999999988E-06, 25
DataValue, 3.4656000000000005E-07, 93.003, 6.1474900000000007E-10, -9.84894E-06, 25
DataValue, 3.3605000000000005E-07, 94.0005, 6.1183400000000008E-10, -9.7783899999999987E-06, 25
DataValue, 3.1815000000000003E-07, 94.998, 6.0844700000000008E-10, -9.6534E-06, 25
DataValue, 3.2417E-07, 95.9985, 6.05557E-10, -9.7834E-06, 25
DataValue, 3.0861E-07, 96.996, 6.02667E-10, -9.59572E-06, 25
DataValue, 3.124E-07, 97.995, 5.99981E-10, -9.6125299999999986E-06, 25
DataValue, 3.9625E-07, 98.9985, 5.96868E-10, -9.66957E-06, 25
DataValue, 3.5879000000000005E-07, 99.999, 5.9408000000000008E-10, -9.38591E-06, 25
DataValue, 3.8775E-07, 100.998, 5.9140500000000009E-10, -9.39624E-06, 25
DataValue, 3.2086000000000003E-07, 102.006, 5.88695E-10, -9.2846199999999989E-06, 25
DataValue, 3.6951000000000003E-07, 102.999, 5.85899E-10, -9.41993E-06, 25
DataValue, 3.5244000000000005E-07, 103.998, 5.8297700000000006E-10, -9.34217E-06, 25
DataValue, 3.8948E-07, 104.9955, 5.8045900000000007E-10, -9.3197799999999987E-06, 25
DataValue, 4.0242E-07, 106.0035, 5.77982E-10, -9.2042699999999989E-06, 25
DataValue, 3.7077000000000003E-07, 106.9995, 5.7525100000000006E-10, -9.186109999999999E-06, 25
DataValue, 3.5930000000000005E-07, 107.9985, 5.72728E-10, -9.0823899999999989E-06, 25
DataValue, 3.9431000000000004E-07, 109.0035, 5.70415E-10, -9.11929E-06, 25
DataValue, 3.3433000000000006E-07, 109.998, 5.6774400000000008E-10, -9.12369E-06, 25
DataValue, 4.6893000000000006E-07, 110.9985, 5.6529600000000007E-10, -9.19355E-06, 25
DataValue, 4.1727000000000003E-07, 112.0035, 5.62784E-10, -9.02849E-06, 25
DataValue, 3.8787000000000004E-07, 112.998, 5.60772E-10, -8.8227E-06, 25
DataValue, 3.9911000000000003E-07, 114.00150000000001, 5.58274E-10, -8.9613099999999991E-06, 25
DataValue, 3.2904000000000004E-07, 114.99900000000001, 5.55856E-10, -8.8914399999999987E-06, 25
DataValue, 3.9466E-07, 116.001, 5.5374700000000005E-10, -8.7786899999999988E-06, 25
DataValue, 4.6513000000000004E-07, 117, 5.5166E-10, -8.7972E-06, 25
DataValue, 4.2887000000000005E-07, 118.00200000000001, 5.49414E-10, -8.69729E-06, 25
DataValue, 4.1500000000000005E-07, 118.9995, 5.4693900000000007E-10, -8.668169999999999E-06, 25
DataValue, 4.1893000000000006E-07, 120, 5.4496500000000009E-10, -8.82788E-06, 25
DataValue, 4.1897000000000005E-07, 121.0035, 5.42863E-10, -8.66011E-06, 25
DataValue, 3.9788000000000007E-07, 121.9935, 5.4079200000000007E-10, -8.64246E-06, 25
DataValue, 4.0568E-07, 122.9955, 5.38566E-10, -8.59245E-06, 25
DataValue, 4.1224000000000004E-07, 123.99900000000001, 5.3630900000000008E-10, -8.516719999999999E-06, 25
DataValue, 4.6886000000000003E-07, 124.995, 5.3462000000000006E-10, -8.48307E-06, 25
DataValue, 5.3105000000000009E-07, 126.00150000000001, 5.32493E-10, -8.56029E-06, 25
DataValue, 4.7739E-07, 126.9975, 5.30532E-10, -8.41122E-06, 25
DataValue, 4.5115000000000007E-07, 128.0025, 5.2838800000000006E-10, -8.48994E-06, 25
DataValue, 4.4333000000000004E-07, 129.00300000000001, 5.2652000000000006E-10, -8.36818E-06, 25
DataValue, 3.9468000000000004E-07, 129.999, 5.2455700000000007E-10, -8.42718E-06, 25
DataValue, 4.7218000000000004E-07, 131.001, 5.22427E-10, -9.1440899999999987E-06, 25
DataValue, 5.8445000000000008E-07, 132.0015, 5.20864E-10, -8.3279999999999989E-06, 25
DataValue, 4.9974E-07, 133.002, 5.1903500000000006E-10, -8.24177E-06, 25
DataValue, 5.058500000000001E-07, 134.001, 5.17009E-10, -8.24861E-06, 25
DataValue, 4.5754000000000006E-07, 135.00300000000001, 5.15537E-10, -8.23715E-06, 25
DataValue, 4.6724000000000005E-07, 136.0035, 5.1349000000000005E-10, -8.19185E-06, 25
DataValue, 5.1349000000000008E-07, 136.998, 5.1163E-10, -8.23296E-06, 25
DataValue, 4.7003000000000003E-07, 138.0015, 5.1021300000000007E-10, -8.0888399999999989E-06, 25
DataValue, 4.5875000000000005E-07, 138.999, 5.08229E-10, -8.17059E-06, 25
DataValue, 4.5092000000000007E-07, 139.9995, 5.06366E-10, -8.0394E-06, 25
DataValue, 4.3826000000000006E-07, 141.0015, 5.04965E-10, -8.02255E-06, 25
DataValue, 5.0735E-07, 142.002, 5.03074E-10, -8.05694E-06, 25
DataValue, 4.8850000000000007E-07, 143.0025, 5.01527E-10, -7.9365899999999988E-06, 25
DataValue, 4.9782E-07, 144, 4.9981400000000009E-10, -7.9834499999999989E-06, 25
DataValue, 5.4296000000000009E-07, 145.00050000000002, 4.98144E-10, -7.8871E-06, 25
DataValue, 5.200000000000001E-07, 146.004, 4.96659E-10, -7.70073E-06, 25
DataValue, 4.7282000000000007E-07, 147, 4.9485700000000006E-10, -7.9549199999999987E-06, 25
DataValue, 4.883E-07, 147.999, 4.93342E-10, -7.8462399999999989E-06, 25
DataValue, 4.8943E-07, 148.995, 4.9182200000000008E-10, -7.873459999999999E-06, 25
DataValue, 5.4344000000000011E-07, 150, 4.9028800000000005E-10, -7.84776E-06, 25
DataValue, 5.4628E-07, 150.999, 4.88683E-10, -7.78183E-06, 25
DataValue, 5.4938000000000007E-07, 151.9995, 4.8700000000000008E-10, -7.6449799999999991E-06, 25
DataValue, 5.7759E-07, 153.00300000000001, 4.8561400000000008E-10, -7.81073E-06, 25
DataValue, 4.4538000000000003E-07, 153.996, 4.84111E-10, -7.80901E-06, 25
DataValue, 5.436700000000001E-07, 154.9995, 4.825E-10, -7.69223E-06, 25
DataValue, 5.549200000000001E-07, 155.9985, 4.8128E-10, -7.65204E-06, 25
DataValue, 5.37E-07, 156.999, 4.7969500000000007E-10, -7.678759999999999E-06, 25
DataValue, 5.6988E-07, 158.001, 4.7836E-10, -7.62281E-06, 25
DataValue, 5.3764000000000009E-07, 158.9985, 4.76758E-10, -7.64742E-06, 25
DataValue, 4.9540000000000006E-07, 159.996, 4.7548700000000006E-10, -7.4507199999999994E-06, 25
DataValue, 5.2091E-07, 160.998, 4.7404400000000008E-10, -7.4789199999999994E-06, 25
DataValue, 5.0607E-07, 161.997, 4.72726E-10, -7.50342E-06, 25
DataValue, 5.8446E-07, 163.0035, 4.71292E-10, -7.54482E-06, 25
DataValue, 5.743900000000001E-07, 164.0025, 4.69925E-10, -7.4333099999999995E-06, 25
DataValue, 6.3117000000000011E-07, 165.0015, 4.68568E-10, -7.5486599999999991E-06, 25
DataValue, 5.2762000000000006E-07, 165.999, 4.6703900000000007E-10, -7.47498E-06, 25
DataValue, 6.1767E-07, 166.998, 4.6590700000000007E-10, -7.4444599999999994E-06, 25
DataValue, 6.2624000000000008E-07, 168.00300000000001, 4.6435900000000003E-10, -7.4941399999999994E-06, 25
DataValue, 6.2150000000000011E-07, 169.00050000000002, 4.6357000000000003E-10, -7.4011599999999993E-06, 25
DataValue, 6.5065000000000007E-07, 170.0025, 4.6211400000000005E-10, -7.4521599999999993E-06, 25
DataValue, 5.4747000000000007E-07, 170.9985, 4.6067800000000004E-10, -7.34254E-06, 25
DataValue, 6.0905E-07, 172.00050000000002, 4.5947500000000006E-10, -7.29793E-06, 25
DataValue, 5.8803000000000011E-07, 173.001, 4.5786200000000003E-10, -7.30338E-06, 25
DataValue, 6.0463000000000009E-07, 173.9955, 4.5688000000000003E-10, -7.31797E-06, 25
DataValue, 6.7834000000000008E-07, 175.00050000000002, 4.55481E-10, -7.3534199999999995E-06, 25
DataValue, 5.8241000000000009E-07, 175.998, 4.5441000000000004E-10, -7.3092699999999992E-06, 25
DataValue, 6.941900000000001E-07, 177.0015, 4.5310900000000004E-10, -7.34938E-06, 25
DataValue, 6.0802000000000007E-07, 178.002, 4.5190300000000004E-10, -7.3365999999999993E-06, 25
DataValue, 5.9827000000000008E-07, 179.0025, 4.5068200000000006E-10, -7.1644099999999994E-06, 25
DataValue, 7.0867000000000011E-07, 180.0015, 4.49628E-10, -7.2185E-06, 25
DataValue, 6.3199000000000009E-07, 181.002, 4.4850900000000003E-10, -7.1092299999999992E-06, 25
DataValue, 7.1743000000000009E-07, 181.9995, 4.4726500000000006E-10, -7.1984599999999995E-06, 25
DataValue, 7.0813E-07, 183.0015, 4.4613100000000005E-10, -7.1929999999999996E-06, 25
DataValue, 6.8231000000000008E-07, 184.00650000000002, 4.4493000000000003E-10, -7.12836E-06, 25
DataValue, 7.099700000000001E-07, 184.998, 4.43626E-10, -7.1348899999999994E-06, 25
DataValue, 7.175300000000001E-07, 186, 4.4244900000000005E-10, -6.9901499999999995E-06, 25
DataValue, 7.3236E-07, 187.00050000000002, 4.4145400000000005E-10, -7.0262E-06, 25
DataValue, 7.1576E-07, 187.9965, 4.4037600000000005E-10, -7.0208E-06, 25
DataValue, 6.3475E-07, 189, 4.39366E-10, -6.9782699999999993E-06, 25
DataValue, 6.574400000000001E-07, 189.996, 4.3807300000000004E-10, -7.0331099999999995E-06, 25
DataValue, 6.6142000000000006E-07, 191.0025, 4.3723700000000006E-10, -6.96464E-06, 25
DataValue, 6.6542E-07, 191.9955, 4.36195E-10, -6.92081E-06, 25
DataValue, 7.7083000000000008E-07, 192.999, 4.3498700000000004E-10, -6.8845899999999994E-06, 25
DataValue, 7.1089000000000009E-07, 194.001, 4.3402800000000003E-10, -6.9584999999999995E-06, 25
DataValue, 7.8187000000000011E-07, 195.0015, 4.3266700000000004E-10, -6.8478E-06, 25
DataValue, 6.656100000000001E-07, 195.999, 4.3175000000000003E-10, -6.80766E-06, 25
DataValue, 7.3203E-07, 197.0025, 4.3082900000000004E-10, -6.8997999999999996E-06, 25
DataValue, 8.6351000000000014E-07, 198.00300000000001, 4.2991700000000003E-10, -6.84745E-06, 25
DataValue, 7.452200000000001E-07, 199.0035, 4.28644E-10, -6.9293399999999993E-06, 25
DataValue, 7.0659000000000008E-07, 199.9995, 4.2779000000000003E-10, -6.8840299999999992E-06, 25
DataValue, 8.3138000000000008E-07, 201.0015, 4.26631E-10, -6.8012599999999993E-06, 25
DataValue, 7.0082E-07, 201.9975, 4.2613000000000006E-10, -6.8112999999999995E-06, 25
DataValue, 7.1427000000000011E-07, 202.998, 4.2487400000000004E-10, -6.8740699999999996E-06, 25
DataValue, 7.4226E-07, 204.00300000000001, 4.23703E-10, -6.64156E-06, 25
DataValue, 8.3443000000000009E-07, 205.00050000000002, 4.2273700000000006E-10, -6.78843E-06, 25
DataValue, 8.573600000000001E-07, 206.0025, 4.21677E-10, -6.81041E-06, 25
DataValue, 7.2576000000000006E-07, 206.997, 4.2090800000000003E-10, -6.7613899999999995E-06, 25
DataValue, 8.0716E-07, 207.999, 4.1979400000000004E-10, -6.72818E-06, 25
DataValue, 8.4698000000000008E-07, 209.0055, 4.18629E-10, -6.67861E-06, 25
DataValue, 8.4978000000000008E-07, 210.0045, 4.17809E-10, -6.6937299999999995E-06, 25
DataValue, 7.7249000000000006E-07, 211.00050000000002, 4.1701700000000005E-10, -6.6874099999999996E-06, 25
DataValue, 8.5463000000000013E-07, 212.0025, 4.1627500000000004E-10, -6.6051799999999993E-06, 25
DataValue, 8.356000000000001E-07, 213, 4.15048E-10, -6.8113599999999994E-06, 25
DataValue, 7.7924E-07, 213.9975, 4.1411100000000004E-10, -6.6455599999999993E-06, 25
DataValue, 8.136E-07, 215.0025, 4.1306100000000003E-10, -6.52335E-06, 25
DataValue, 8.6545000000000012E-07, 216.00300000000001, 4.1231500000000004E-10, -6.5462599999999992E-06, 25
DataValue, 8.5084000000000012E-07, 217.00050000000002, 4.11584E-10, -6.50361E-06, 25
DataValue, 8.0423E-07, 217.998, 4.1068800000000004E-10, -6.5758299999999993E-06, 25
DataValue, 8.2057E-07, 218.997, 4.0974E-10, -6.62117E-06, 25
DataValue, 7.6092000000000012E-07, 220.00050000000002, 4.0867500000000004E-10, -6.5545299999999992E-06, 25
DataValue, 8.1610000000000011E-07, 220.9965, 4.0795100000000003E-10, -6.52117E-06, 25
DataValue, 8.6530000000000011E-07, 221.9985, 4.0703600000000004E-10, -6.50848E-06, 25
DataValue, 8.1612E-07, 222.9975, 4.06118E-10, -6.5554399999999994E-06, 25
DataValue, 8.7671000000000007E-07, 223.99800000000002, 4.0523600000000006E-10, -6.4638999999999992E-06, 25
DataValue, 8.6668000000000008E-07, 225, 4.04471E-10, -6.45966E-06, 25
DataValue, 8.978800000000001E-07, 226.00050000000002, 4.0331100000000004E-10, -6.42946E-06, 25
DataValue, 9.4296000000000007E-07, 227.0025, 4.0270200000000003E-10, -6.3748699999999993E-06, 25
DataValue, 8.5546000000000006E-07, 227.997, 4.01868E-10, -6.4156499999999993E-06, 25
DataValue, 9.3029000000000005E-07, 229.00650000000002, 4.0100500000000005E-10, -6.36662E-06, 25
DataValue, 9.2138000000000006E-07, 230.0025, 4.0013700000000005E-10, -6.45382E-06, 25
DataValue, 8.9241000000000009E-07, 231.0015, 3.9940600000000004E-10, -6.37082E-06, 25
DataValue, 9.5558E-07, 232.0035, 3.9857500000000004E-10, -6.3647499999999995E-06, 25
