
SetupTitle, Cds
ApplicationTest, Cds, Public
TestParameter, Name, Memo, IntegTime, Frequency, OscLevel, Scale, Drain, VdBias, VdStart, VdStop, VdLinearStep, IdLimit, HoldTime, DelayTime, IdMinRange
TestParameter, Value, , SHORT, 100000, 0.025, LINEAR, CMU1:MF	MFCMU, SMU6:HV	HVSMU, 0, 1000, 1, 0.004, 0, 0.08, 10uA
DutParameter, Name, Polarity, Temp, YAxisCdsMin, YAxisCdsMax
DutParameter, Value, 1, 25, 1E-12, 1E-09
MetaData, TestRecord.EntryPoint, true
MetaData, TestRecord.RecordTime, 04/22/2021 08:26:47
MetaData, TestRecord.TestTarget, 
MetaData, TestRecord.IterationIndex, 10
MetaData, TestRecord.Preservation, true
MetaData, TestRecord.Flag, 
MetaData, TestRecord.Remarks, 
MetaData, TestRecord.LinkKey, 3f6f4046-ed6f-4631-8342-6ca796085dfa
Dimension1, 1001, 1001, 1001, 1001, 1001
Dimension2, 1, 1, 1, 1, 1
DataName, Ids, Vdrain, Cds, G, Ta
DataValue, 3.7670000000000006E-08, 0.0015, 4.37431E-09, -5.7624800000000004E-05, 25
DataValue, -5.029E-08, 1.0035, 3.61481E-09, -5.01054E-05, 25
DataValue, 2.9110000000000004E-08, 1.9965, 3.23863E-09, -4.47913E-05, 25
DataValue, 5.228E-08, 3.003, 2.97651E-09, -4.15958E-05, 25
DataValue, -6.296E-08, 3.9975, 2.77138E-09, -3.87286E-05, 25
DataValue, 1.5240000000000003E-08, 5.0025, 2.60434E-09, -3.7033600000000004E-05, 25
DataValue, 3.5710000000000007E-08, 6.0015, 2.46508E-09, -3.5207000000000004E-05, 25
DataValue, 3.6980000000000004E-08, 7.0035, 2.34347E-09, -3.39961E-05, 25
DataValue, -1.0800000000000002E-09, 7.9995, 2.23721E-09, -3.24819E-05, 25
DataValue, 1.2540000000000002E-08, 8.994, 2.13612E-09, -3.109E-05, 25
DataValue, 1.9E-09, 10.002, 2.02901E-09, -1.2215200000000001E-05, 25
DataValue, 8.870000000000001E-09, 10.9995, 1.75071E-09, 5.97773E-06, 25
DataValue, 2.8150000000000004E-08, 11.9985, 1.58167E-09, -1.45234E-05, 25
DataValue, 2.132E-08, 13.002, 1.50521E-09, -2.02348E-05, 25
DataValue, 8.4990000000000009E-08, 13.999500000000001, 1.4542E-09, -2.05644E-05, 25
DataValue, -1.879E-08, 15.003, 1.40951E-09, -2.00446E-05, 25
DataValue, 2.4110000000000002E-08, 16.0005, 1.36921E-09, -1.94241E-05, 25
DataValue, 5.608E-08, 16.998, 1.33263E-09, -1.90426E-05, 25
DataValue, -1.1070000000000001E-08, 18, 1.29879E-09, -1.84446E-05, 25
DataValue, -4.439E-08, 18.999, 1.26748E-09, -1.81527E-05, 25
DataValue, 5.242E-08, 20.0055, 1.23904E-09, -1.77394E-05, 25
DataValue, -6.636E-08, 21.0015, 1.21205E-09, -1.7501600000000002E-05, 25
DataValue, 1.4930000000000002E-08, 22.0005, 1.18686E-09, -1.70872E-05, 25
DataValue, -4.3420000000000008E-08, 23.001, 1.16332E-09, -1.67888E-05, 25
DataValue, -1.313E-08, 24.003, 1.1412E-09, -1.63309E-05, 25
DataValue, -1.1230000000000002E-08, 25.002, 1.12056E-09, -1.61498E-05, 25
DataValue, -2.9300000000000004E-09, 25.9995, 1.10059E-09, -1.5925500000000002E-05, 25
DataValue, -2.0320000000000003E-08, 27, 1.08162E-09, -1.5543800000000002E-05, 25
DataValue, -1.1660000000000002E-08, 28.0005, 1.06427E-09, -1.53966E-05, 25
DataValue, 5.413E-08, 28.998, 1.04717E-09, -1.51978E-05, 25
DataValue, -1.2690000000000002E-08, 30, 1.03116E-09, -1.49112E-05, 25
DataValue, -7.657E-08, 30.999000000000002, 1.01568E-09, -1.47027E-05, 25
DataValue, 6.5860000000000009E-08, 31.998, 1.00059E-09, -1.46687E-05, 25
DataValue, 2.0800000000000003E-09, 32.9985, 9.87165E-10, -1.42837E-05, 25
DataValue, 3.344E-08, 34.002, 9.7360300000000016E-10, -1.4294900000000001E-05, 25
DataValue, 8.6850000000000013E-08, 35.001, 9.60543E-10, -1.3978900000000001E-05, 25
DataValue, -2.277E-08, 36, 9.4808E-10, -1.37984E-05, 25
DataValue, 5.6300000000000006E-09, 36.999, 9.36265E-10, -1.3659200000000001E-05, 25
DataValue, -4.7000000000000007E-09, 37.995, 9.2478800000000005E-10, -1.3453700000000001E-05, 25
DataValue, 2.792E-08, 39, 9.1379700000000007E-10, -1.3363300000000001E-05, 25
DataValue, 8.6530000000000008E-08, 40.0005, 9.0349500000000009E-10, -1.32159E-05, 25
DataValue, -1.074E-08, 41.004, 8.92796E-10, -1.32182E-05, 25
DataValue, 2.998E-08, 42.003, 8.8303800000000007E-10, -1.29377E-05, 25
DataValue, 7.86E-08, 43.005, 8.734470000000001E-10, -1.2860200000000001E-05, 25
DataValue, 2.115E-08, 43.9965, 8.64232E-10, -1.2633900000000001E-05, 25
DataValue, 4.655E-08, 45.0015, 8.5518900000000012E-10, -1.2587E-05, 25
DataValue, -6.393E-08, 45.999, 8.4652000000000009E-10, -1.25112E-05, 25
DataValue, 2.3740000000000003E-08, 46.9995, 8.3832600000000011E-10, -1.2368100000000001E-05, 25
DataValue, -1.701E-08, 47.9955, 8.30084E-10, -1.22046E-05, 25
DataValue, 9.1500000000000009E-09, 49.008, 8.22213E-10, -1.20839E-05, 25
DataValue, 2.7260000000000004E-08, 49.9995, 8.1461400000000008E-10, -1.20194E-05, 25
DataValue, 2.0080000000000002E-08, 51, 8.0694700000000007E-10, -1.19777E-05, 25
DataValue, -7.6540000000000009E-08, 51.9975, 7.9964E-10, -1.17873E-05, 25
DataValue, 5.5360000000000007E-08, 53.001, 7.9270000000000006E-10, -1.16956E-05, 25
DataValue, -1.851E-08, 54.003, 7.8594900000000005E-10, -1.1749300000000001E-05, 25
DataValue, -1.1330000000000001E-08, 55.0065, 7.7893800000000009E-10, -1.1515900000000001E-05, 25
DataValue, 4.139E-08, 55.999500000000005, 7.72566E-10, -1.14791E-05, 25
DataValue, -3.923E-08, 57.0015, 7.6597700000000005E-10, -1.14253E-05, 25
DataValue, 8.800000000000001E-09, 58.0005, 7.5996600000000008E-10, -1.13404E-05, 25
DataValue, 5.1310000000000007E-08, 58.996500000000005, 7.53823E-10, -1.10978E-05, 25
DataValue, -1.869E-08, 60.0015, 7.4794600000000006E-10, -1.10777E-05, 25
DataValue, -5.2610000000000006E-08, 60.999, 7.422740000000001E-10, -1.09727E-05, 25
DataValue, -2.7380000000000004E-08, 61.999500000000005, 7.365490000000001E-10, -1.07972E-05, 25
DataValue, 1.0570000000000001E-08, 62.9985, 7.3116900000000006E-10, -1.09077E-05, 25
DataValue, 3.1070000000000006E-08, 64.0005, 7.25705E-10, -1.07513E-05, 25
DataValue, -4.157E-08, 64.995, 7.20473E-10, -1.07686E-05, 25
DataValue, -5.8600000000000009E-08, 65.9955, 7.1500600000000006E-10, -1.05484E-05, 25
DataValue, -2.2000000000000002E-08, 67.0005, 7.10387E-10, -1.05144E-05, 25
DataValue, 3.751E-08, 68.001, 7.0546000000000006E-10, -1.03792E-05, 25
DataValue, -4.7400000000000006E-09, 69, 7.0051100000000011E-10, -1.0499E-05, 25
DataValue, -3.772E-08, 69.999, 6.95908E-10, -1.0366300000000001E-05, 25
DataValue, 2.6620000000000003E-08, 70.9995, 6.9152600000000006E-10, -1.01638E-05, 25
DataValue, -4.6770000000000008E-08, 71.997, 6.866980000000001E-10, -1.02301E-05, 25
DataValue, -9.5080000000000015E-08, 72.9975, 6.8229E-10, -1.02045E-05, 25
DataValue, 2.994E-08, 73.9965, 6.779E-10, -1.00826E-05, 25
DataValue, -9.2810000000000009E-08, 75.003, 6.7388000000000006E-10, -1.00916E-05, 25
DataValue, -6.3470000000000012E-08, 76.0005, 6.6944900000000009E-10, -1.01483E-05, 25
DataValue, -8.77E-09, 76.998, 6.6528E-10, -9.9445E-06, 25
DataValue, -2.0960000000000004E-08, 78.001500000000007, 6.6122600000000007E-10, -9.9202999999999989E-06, 25
DataValue, 3.252E-08, 78.9975, 6.5744100000000007E-10, -9.7583399999999988E-06, 25
DataValue, 4.202E-08, 80.001, 6.53386E-10, -9.69353E-06, 25
DataValue, -8.5140000000000007E-08, 80.997, 6.4971400000000006E-10, -9.648399999999999E-06, 25
DataValue, 5.0330000000000008E-08, 82.0005, 6.4583500000000008E-10, -9.7129799999999986E-06, 25
DataValue, 1.8600000000000002E-09, 83.001, 6.4219600000000008E-10, -9.6314699999999988E-06, 25
DataValue, -8.460000000000001E-09, 83.9985, 6.386660000000001E-10, -9.54012E-06, 25
DataValue, 6.973E-08, 85.005, 6.35051E-10, -9.29972E-06, 25
DataValue, -2.8370000000000002E-08, 86.001, 6.31775E-10, -9.32744E-06, 25
DataValue, -3.1E-10, 87.006, 6.28198E-10, -9.1919E-06, 25
DataValue, 8.7300000000000011E-09, 88.0035, 6.2457200000000006E-10, -9.40271E-06, 25
DataValue, -4.1410000000000005E-08, 88.9965, 6.21508E-10, -9.3737599999999988E-06, 25
DataValue, -2.0900000000000002E-08, 90.001500000000007, 6.18276E-10, -9.23918E-06, 25
DataValue, -3.6100000000000006E-09, 90.999, 6.14982E-10, -9.2995E-06, 25
DataValue, 1.689E-08, 92.001, 6.1173500000000006E-10, -9.19784E-06, 25
DataValue, -2.1780000000000004E-08, 92.9985, 6.08681E-10, -9.0352E-06, 25
DataValue, 4.93E-09, 94.0005, 6.05706E-10, -9.19005E-06, 25
DataValue, -4.3510000000000004E-08, 94.9965, 6.02654E-10, -9.11866E-06, 25
DataValue, 5.44E-09, 95.997, 5.9974200000000006E-10, -8.99007E-06, 25
DataValue, -3.0380000000000005E-08, 96.996, 5.9663600000000009E-10, -9.00997E-06, 25
DataValue, 5.0890000000000008E-08, 98.001, 5.93915E-10, -8.80442E-06, 25
DataValue, -2.3040000000000003E-08, 99, 5.9100400000000006E-10, -8.78037E-06, 25
DataValue, -3.9320000000000004E-08, 99.9975, 5.8820900000000007E-10, -8.86538E-06, 25
DataValue, -1.2630000000000001E-08, 100.9995, 5.85203E-10, -8.62377E-06, 25
DataValue, 8.6000000000000009E-09, 102, 5.8269100000000009E-10, -8.7502099999999987E-06, 25
DataValue, -6.2230000000000009E-08, 102.9975, 5.8020800000000009E-10, -8.68325E-06, 25
DataValue, 9.9500000000000014E-09, 104.0025, 5.7738400000000006E-10, -8.83828E-06, 25
DataValue, -7.476E-08, 104.994, 5.74644E-10, -8.51893E-06, 25
DataValue, -3.148E-08, 105.999, 5.7208100000000006E-10, -8.7054099999999987E-06, 25
DataValue, -3.0350000000000004E-08, 106.998, 5.69701E-10, -8.58403E-06, 25
DataValue, 2.516E-08, 108.00150000000001, 5.6715400000000009E-10, -8.45341E-06, 25
DataValue, 8.0300000000000014E-09, 108.9975, 5.64541E-10, -8.47631E-06, 25
DataValue, -5.5730000000000003E-08, 110.004, 5.6227100000000007E-10, -8.4665899999999988E-06, 25
DataValue, 1.0910000000000001E-08, 110.9985, 5.59732E-10, -8.4594499999999991E-06, 25
DataValue, -2.162E-08, 111.99300000000001, 5.57386E-10, -8.3962899999999989E-06, 25
DataValue, 4.75E-09, 112.9995, 5.55116E-10, -8.2636799999999988E-06, 25
DataValue, -4.736E-08, 114, 5.5280700000000005E-10, -8.3455E-06, 25
DataValue, 1.4430000000000001E-08, 114.9975, 5.5060300000000007E-10, -8.2356899999999991E-06, 25
DataValue, 5.3700000000000004E-08, 115.9995, 5.48188E-10, -8.20156E-06, 25
DataValue, -9.79E-09, 117.00150000000001, 5.46041E-10, -8.07165E-06, 25
DataValue, 6.1790000000000013E-08, 118.00200000000001, 5.4385400000000007E-10, -8.19117E-06, 25
DataValue, 2.05E-09, 118.9995, 5.41724E-10, -8.1713E-06, 25
DataValue, -6.707E-08, 120.00150000000001, 5.3951300000000006E-10, -8.08003E-06, 25
DataValue, 3.2100000000000003E-09, 121.005, 5.3741E-10, -8.02994E-06, 25
DataValue, 5.5920000000000007E-08, 122.004, 5.35253E-10, -7.96135E-06, 25
DataValue, -1.0452000000000001E-07, 122.994, 5.33195E-10, -7.92024E-06, 25
DataValue, 6.8100000000000008E-08, 124.00500000000001, 5.3130800000000008E-10, -7.93534E-06, 25
DataValue, 1.2980000000000001E-08, 125.001, 5.29128E-10, -8.03924E-06, 25
DataValue, -4.027E-08, 126.00150000000001, 5.27337E-10, -8.000959999999999E-06, 25
DataValue, 4.087E-08, 127.0005, 5.2525600000000007E-10, -7.87761E-06, 25
DataValue, 1.2060000000000002E-08, 127.995, 5.2309800000000007E-10, -7.86064E-06, 25
DataValue, -1.2410000000000002E-08, 129, 5.21418E-10, -7.88343E-06, 25
DataValue, 1.238E-08, 129.996, 5.1938500000000006E-10, -7.8150699999999987E-06, 25
DataValue, -4.3460000000000007E-08, 130.9965, 5.17608E-10, -7.78954E-06, 25
DataValue, 5.0590000000000005E-08, 132.00300000000001, 5.15593E-10, -7.73963E-06, 25
DataValue, -2.6440000000000004E-08, 133.002, 5.13857E-10, -7.7365899999999991E-06, 25
DataValue, -6.9300000000000007E-09, 133.9995, 5.12019E-10, -7.71514E-06, 25
DataValue, -5.4800000000000008E-08, 135.00300000000001, 5.10377E-10, -7.67836E-06, 25
DataValue, -8.6720000000000012E-08, 136.00050000000002, 5.08545E-10, -7.66622E-06, 25
DataValue, 8.9910000000000016E-08, 137.004, 5.0669400000000007E-10, -7.64724E-06, 25
DataValue, -1.979E-08, 138, 5.04799E-10, -7.58933E-06, 25
DataValue, -4.9430000000000007E-08, 138.9975, 5.0329500000000007E-10, -7.5782399999999991E-06, 25
DataValue, 1.3370000000000002E-08, 139.9965, 5.0142700000000007E-10, -7.55619E-06, 25
DataValue, -1.3041000000000001E-07, 141.0015, 4.9973800000000006E-10, -7.4995399999999994E-06, 25
DataValue, 6.5030000000000007E-08, 142.0035, 4.98157E-10, -7.5179799999999993E-06, 25
DataValue, 3.703E-08, 143.0025, 4.96465E-10, -7.47911E-06, 25
DataValue, -4.146E-08, 143.9985, 4.94744E-10, -7.39021E-06, 25
DataValue, 2.5980000000000002E-08, 145.002, 4.9318300000000007E-10, -7.4723E-06, 25
DataValue, -8.41E-09, 145.998, 4.91648E-10, -7.45352E-06, 25
DataValue, -3.9490000000000005E-08, 147.0045, 4.9011900000000005E-10, -7.4362499999999993E-06, 25
DataValue, -1.0590000000000001E-08, 147.999, 4.8857900000000008E-10, -7.3815699999999994E-06, 25
DataValue, 4.28E-09, 148.998, 4.86801E-10, -7.3218E-06, 25
DataValue, -2.0270000000000002E-08, 149.997, 4.8546800000000007E-10, -7.35266E-06, 25
DataValue, 2.373E-08, 151.002, 4.84032E-10, -7.2500399999999995E-06, 25
DataValue, 1.8120000000000003E-08, 152.0025, 4.8240900000000009E-10, -7.2623499999999992E-06, 25
DataValue, -2.2890000000000002E-08, 153.00300000000001, 4.8079200000000007E-10, -7.24549E-06, 25
DataValue, -6.569E-08, 153.993, 4.79399E-10, -7.27484E-06, 25
DataValue, -3.8900000000000004E-08, 155.001, 4.77903E-10, -7.24174E-06, 25
DataValue, -1.689E-08, 155.9955, 4.7655100000000008E-10, -7.3100599999999994E-06, 25
DataValue, -2.5850000000000003E-08, 157.002, 4.7477800000000007E-10, -7.1961599999999996E-06, 25
DataValue, -1.3260000000000001E-08, 157.9995, 4.7380300000000009E-10, -7.1413199999999994E-06, 25
DataValue, -5.5200000000000005E-08, 159.0015, 4.7211300000000006E-10, -7.0089E-06, 25
DataValue, 4.3150000000000006E-08, 160.005, 4.70525E-10, -7.07859E-06, 25
DataValue, -2.942E-08, 160.9995, 4.68591E-10, -6.71807E-06, 25
DataValue, 3.2750000000000005E-08, 162, 4.68037E-10, -7.0869399999999993E-06, 25
DataValue, -5.2930000000000005E-08, 163.005, 4.6660600000000007E-10, -7.0367999999999993E-06, 25
DataValue, 5.643E-08, 164.004, 4.6532500000000004E-10, -6.9383399999999995E-06, 25
DataValue, 1.4630000000000001E-08, 165, 4.6390700000000003E-10, -7.05768E-06, 25
DataValue, -1.2267E-07, 166.00050000000002, 4.6261400000000005E-10, -6.9586699999999996E-06, 25
DataValue, 4.554E-08, 167.004, 4.6127300000000003E-10, -6.92254E-06, 25
DataValue, -9.43E-09, 168.00300000000001, 4.59916E-10, -6.8101099999999992E-06, 25
DataValue, -6.9080000000000007E-08, 168.99450000000002, 4.58602E-10, -7.0367499999999992E-06, 25
DataValue, 1.2800000000000001E-09, 170.0025, 4.5735600000000003E-10, -6.86417E-06, 25
DataValue, -4.6680000000000005E-08, 171.0015, 4.5627300000000004E-10, -6.90043E-06, 25
DataValue, -1.731E-08, 171.999, 4.54841E-10, -6.73328E-06, 25
DataValue, -1.8820000000000002E-08, 172.9995, 4.5389E-10, -6.79004E-06, 25
DataValue, -4.6810000000000007E-08, 173.9985, 4.5237400000000004E-10, -6.76756E-06, 25
DataValue, -9.5E-09, 175.00050000000002, 4.5111600000000006E-10, -6.80595E-06, 25
DataValue, -7.7600000000000013E-09, 176.007, 4.49996E-10, -6.7826999999999995E-06, 25
DataValue, -1.85E-08, 177.0015, 4.4880700000000005E-10, -6.8148599999999995E-06, 25
DataValue, 2.3150000000000002E-08, 177.9975, 4.4750500000000005E-10, -6.7203899999999994E-06, 25
DataValue, -1.314E-08, 178.998, 4.4648400000000003E-10, -6.5848499999999993E-06, 25
DataValue, -6.081E-08, 180, 4.4539600000000005E-10, -6.82488E-06, 25
DataValue, 2.7060000000000002E-08, 181.002, 4.44192E-10, -6.71203E-06, 25
DataValue, -8.341E-08, 181.998, 4.4287100000000005E-10, -6.73071E-06, 25
DataValue, -7.9000000000000013E-09, 182.9985, 4.4178600000000005E-10, -6.61619E-06, 25
DataValue, -9.5170000000000011E-08, 184.00050000000002, 4.40487E-10, -6.6654699999999996E-06, 25
DataValue, -5.0160000000000007E-08, 184.9995, 4.3941100000000005E-10, -6.67213E-06, 25
DataValue, -1.0430000000000001E-08, 186, 4.38028E-10, -6.6292399999999994E-06, 25
DataValue, -2.5100000000000002E-09, 186.9975, 4.3691600000000005E-10, -6.5268E-06, 25
DataValue, -2.1610000000000003E-08, 187.9965, 4.3610700000000003E-10, -6.63553E-06, 25
DataValue, -1.947E-08, 189.0015, 4.3487900000000004E-10, -6.66793E-06, 25
DataValue, -8.62E-09, 190.0035, 4.33977E-10, -6.4564699999999995E-06, 25
DataValue, -1.5560000000000002E-08, 190.998, 4.3278000000000003E-10, -6.5521599999999995E-06, 25
DataValue, -8.977E-08, 191.997, 4.31953E-10, -6.7349299999999992E-06, 25
DataValue, -3.402E-08, 192.99450000000002, 4.3084700000000004E-10, -6.40839E-06, 25
DataValue, 5.046E-08, 194.001, 4.2932800000000004E-10, -6.38921E-06, 25
DataValue, -1.2260000000000002E-08, 195.0015, 4.2848000000000005E-10, -6.3706699999999994E-06, 25
DataValue, 1.7880000000000002E-08, 196.00050000000002, 4.27378E-10, -6.48252E-06, 25
DataValue, -1.4380000000000002E-08, 196.998, 4.2635600000000003E-10, -6.15843E-06, 25
DataValue, -1.504E-08, 197.997, 4.25475E-10, -6.34268E-06, 25
DataValue, -2.6780000000000002E-08, 199.002, 4.24312E-10, -6.4446499999999994E-06, 25
DataValue, -4.373E-08, 200.0025, 4.23522E-10, -6.36702E-06, 25
DataValue, 4.767E-08, 201.00300000000001, 4.2259200000000005E-10, -6.4549899999999993E-06, 25
DataValue, -4.767E-08, 202.0035, 4.2141700000000006E-10, -6.4299499999999993E-06, 25
DataValue, 4.3700000000000007E-08, 202.9965, 4.2046300000000004E-10, -6.2759199999999992E-06, 25
DataValue, -3.3000000000000004E-08, 204.00300000000001, 4.194E-10, -6.3125399999999995E-06, 25
DataValue, -5.8790000000000006E-08, 204.999, 4.1839800000000006E-10, -6.41534E-06, 25
DataValue, -9.350000000000001E-09, 206.0025, 4.17417E-10, -6.30385E-06, 25
DataValue, -1.682E-08, 206.9985, 4.1655700000000003E-10, -6.34663E-06, 25
DataValue, -1.1157000000000001E-07, 208.00050000000002, 4.1573100000000003E-10, -6.3108899999999993E-06, 25
DataValue, 4.9130000000000004E-08, 208.998, 4.14645E-10, -6.22275E-06, 25
DataValue, -9.3650000000000008E-08, 210.0075, 4.1381700000000005E-10, -6.2135E-06, 25
DataValue, -4.9290000000000007E-08, 210.996, 4.12572E-10, -6.28232E-06, 25
DataValue, 4.2590000000000006E-08, 212.001, 4.1194300000000005E-10, -6.32694E-06, 25
DataValue, -2.5020000000000002E-08, 213, 4.1088800000000005E-10, -6.20134E-06, 25
DataValue, -9.0800000000000009E-09, 214.00050000000002, 4.0990900000000003E-10, -6.21833E-06, 25
DataValue, 4.188E-08, 215.0025, 4.0908600000000005E-10, -6.18583E-06, 25
DataValue, -2.7230000000000003E-08, 216.00300000000001, 4.0821200000000005E-10, -6.1238E-06, 25
DataValue, 4.014E-08, 217.0035, 4.0746900000000003E-10, -6.16716E-06, 25
DataValue, -2.0620000000000002E-08, 218.001, 4.0646E-10, -6.19408E-06, 25
DataValue, -1.4600000000000002E-08, 219.0045, 4.0566300000000005E-10, -6.0629399999999994E-06, 25
DataValue, -3.0770000000000004E-08, 220.002, 4.0469800000000004E-10, -6.0232999999999996E-06, 25
DataValue, -1.0328000000000001E-07, 220.9965, 4.0400400000000004E-10, -6.13781E-06, 25
DataValue, 3.124E-08, 221.997, 4.03043E-10, -6.0979E-06, 25
DataValue, -4.1E-08, 223.0035, 4.0211E-10, -6.2091599999999995E-06, 25
DataValue, -1.77E-09, 223.9995, 4.01188E-10, -6.0999899999999993E-06, 25
DataValue, -6.0620000000000009E-08, 224.997, 4.00362E-10, -6.1220899999999995E-06, 25
DataValue, -1.2970000000000001E-08, 226.0035, 3.9936300000000003E-10, -6.05796E-06, 25
DataValue, -9.6200000000000011E-09, 226.9995, 3.9849600000000004E-10, -5.91288E-06, 25
DataValue, -2.579E-08, 228, 3.9787700000000005E-10, -5.9908599999999994E-06, 25
DataValue, -1.3463E-07, 228.999, 3.9695900000000004E-10, -6.03734E-06, 25
DataValue, 2.2310000000000003E-08, 229.99800000000002, 3.9628600000000005E-10, -5.8785199999999994E-06, 25
DataValue, -1.5570000000000003E-08, 230.9955, 3.9538500000000003E-10, -6.0136699999999993E-06, 25
DataValue, 3.7840000000000007E-08, 232.002, 3.9459600000000003E-10, -5.96258E-06, 25
DataValue, 1.3590000000000001E-08, 232.9995, 3.93944E-10, -6.01961E-06, 25
DataValue, -3.7190000000000004E-08, 234, 3.92889E-10, -5.84312E-06, 25
DataValue, -3.6300000000000005E-09, 234.9975, 3.9209700000000005E-10, -5.81708E-06, 25
DataValue, -1.4650000000000002E-08, 235.9965, 3.9141000000000005E-10, -5.9267199999999992E-06, 25
