
SetupTitle, Cds
ApplicationTest, Cds, Public
TestParameter, Name, Memo, IntegTime, Frequency, OscLevel, Scale, Drain, VdBias, VdStart, VdStop, VdLinearStep, IdLimit, HoldTime, DelayTime, IdMinRange
TestParameter, Value, , SHORT, 1000000, 0.025, LINEAR, CMU1:MF	MFCMU, SMU6:HV	HVSMU, 0, 1000, 1, 0.004, 0, 0.08, 10uA
DutParameter, Name, Polarity, Temp, YAxisCdsMin, YAxisCdsMax
DutParameter, Value, 1, 25, 1E-12, 1E-09
MetaData, TestRecord.EntryPoint, true
MetaData, TestRecord.RecordTime, 12/27/2020 09:58:59
MetaData, TestRecord.TestTarget, 
MetaData, TestRecord.IterationIndex, 12
MetaData, TestRecord.Preservation, true
MetaData, TestRecord.Flag, 
MetaData, TestRecord.Remarks, 
MetaData, TestRecord.LinkKey, fb6f66c4-d92f-4ee4-ba87-38ad09448940
Dimension1, 1001, 1001, 1001, 1001, 1001
Dimension2, 1, 1, 1, 1, 1
DataName, Ids, Vdrain, Cds, G, Ta
DataValue, -1.4930000000000002E-08, -0.003, 1.09145E-09, -0.00161293, 25
DataValue, -6.0760000000000009E-08, 0.9975, 9.45963E-10, -0.0013908500000000001, 25
DataValue, -3.437E-08, 2.0025, 8.51707E-10, -0.0012523, 25
DataValue, -3.535E-08, 3.0045, 7.82296E-10, -0.00115008, 25
DataValue, 1.635E-08, 4.002, 7.2802500000000008E-10, -0.00106981, 25
DataValue, -2.5850000000000003E-08, 4.9995, 6.8378000000000009E-10, -0.00100397, 25
DataValue, 1.534E-08, 6.0045, 6.4667600000000005E-10, -0.00094867500000000006, 25
DataValue, -1.818E-08, 6.9990000000000006, 6.1478400000000006E-10, -0.000899839, 25
DataValue, 8.2400000000000013E-09, 8.0025, 5.86397E-10, -0.0008582450000000001, 25
DataValue, -8.02E-09, 8.9985, 5.58754E-10, -0.00081550200000000007, 25
DataValue, 3.9310000000000006E-08, 9.999, 5.23119E-10, -0.000696402, 25
DataValue, -5.7400000000000004E-08, 10.998000000000001, 4.7631900000000006E-10, -0.00068327900000000007, 25
DataValue, -2.2990000000000003E-08, 12, 4.5899200000000005E-10, -0.000657311, 25
DataValue, -6.5860000000000009E-08, 13.0005, 4.4396200000000005E-10, -0.00063525000000000007, 25
DataValue, -3.4840000000000006E-08, 13.998000000000001, 4.30675E-10, -0.00061602500000000008, 25
DataValue, -4.118E-08, 14.994, 4.1860200000000005E-10, -0.00059878200000000007, 25
DataValue, 7.3600000000000011E-09, 16.0005, 4.07557E-10, -0.00058314400000000007, 25
DataValue, -4.4820000000000007E-08, 16.9965, 3.9752800000000006E-10, -0.000568568, 25
DataValue, -7.3470000000000009E-08, 17.9985, 3.8819200000000005E-10, -0.00055513, 25
DataValue, -1.1120000000000001E-08, 19.002, 3.79654E-10, -0.000543057, 25
DataValue, -3.6240000000000006E-08, 19.995, 3.7155200000000004E-10, -0.000531629, 25
DataValue, 1.822E-08, 21, 3.6410300000000004E-10, -0.000521251, 25
DataValue, 3.3900000000000006E-08, 22.002, 3.5692600000000005E-10, -0.000511237, 25
DataValue, 1.4180000000000002E-08, 22.9995, 3.5036400000000005E-10, -0.000502155, 25
DataValue, 1.534E-08, 24.003, 3.43983E-10, -0.000493064, 25
DataValue, -2.0000000000000003E-10, 24.997500000000002, 3.38094E-10, -0.000484173, 25
DataValue, 3.982E-08, 26.0025, 3.3250700000000005E-10, -0.00047608700000000004, 25
DataValue, 6.7450000000000012E-08, 27, 3.2714200000000004E-10, -0.000468955, 25
DataValue, -3.97E-09, 28.0005, 3.2210400000000004E-10, -0.00046169900000000004, 25
DataValue, -2.092E-08, 28.9995, 3.17195E-10, -0.00045452400000000004, 25
DataValue, -9.2860000000000012E-08, 30, 3.12627E-10, -0.000448276, 25
DataValue, 1.108E-08, 31.0065, 3.0812100000000003E-10, -0.000442375, 25
DataValue, 3.5600000000000005E-09, 31.998, 3.0395100000000003E-10, -0.00043643400000000003, 25
DataValue, 1.7300000000000002E-09, 33.003, 2.9987300000000005E-10, -0.000430686, 25
DataValue, 1.6800000000000002E-09, 33.999, 2.9608100000000003E-10, -0.00042544900000000005, 25
DataValue, -1.0960000000000002E-08, 35.001, 2.92277E-10, -0.00041997100000000005, 25
DataValue, -6.8200000000000009E-09, 36.003, 2.88751E-10, -0.00041510900000000004, 25
DataValue, 2.387E-08, 37.002, 2.85134E-10, -0.00041015500000000005, 25
DataValue, 2.0000000000000003E-10, 38.001, 2.81875E-10, -0.000405363, 25
DataValue, -3.692E-08, 38.997, 2.7874400000000005E-10, -0.00040074500000000004, 25
DataValue, -3.039E-08, 39.999, 2.7559800000000004E-10, -0.000397152, 25
DataValue, -8.3910000000000015E-08, 40.995, 2.7263900000000004E-10, -0.000392314, 25
DataValue, -7.6000000000000006E-10, 41.9985, 2.6983000000000004E-10, -0.00038878100000000004, 25
DataValue, -8.8000000000000006E-10, 42.999, 2.6697400000000004E-10, -0.000384933, 25
DataValue, 6.12E-08, 44.001, 2.6430900000000003E-10, -0.00038080400000000005, 25
DataValue, 4.638E-08, 44.9985, 2.6169900000000003E-10, -0.000377293, 25
DataValue, 4.96E-09, 46.0005, 2.5917500000000004E-10, -0.000373895, 25
DataValue, -2.7940000000000004E-08, 46.998, 2.5671100000000005E-10, -0.00037036400000000003, 25
DataValue, -3.416E-08, 47.994, 2.5424000000000004E-10, -0.000366833, 25
DataValue, 5.8790000000000006E-08, 49.0035, 2.5193000000000003E-10, -0.000363742, 25
DataValue, -5.6230000000000008E-08, 50.001, 2.4967000000000003E-10, -0.000360773, 25
DataValue, -3.811E-08, 51.0015, 2.4742800000000003E-10, -0.00035744600000000003, 25
DataValue, 1.2490000000000001E-08, 52.005, 2.4533100000000003E-10, -0.00035451600000000003, 25
DataValue, 4.7100000000000005E-09, 52.996500000000005, 2.43179E-10, -0.00035206100000000003, 25
DataValue, 1.4400000000000002E-08, 54.0075, 2.41247E-10, -0.00034904200000000004, 25
DataValue, 4.3600000000000007E-09, 54.999, 2.3923E-10, -0.00034658000000000003, 25
DataValue, 6.443E-08, 55.998000000000005, 2.37241E-10, -0.000343693, 25
DataValue, -2.4260000000000003E-08, 57.003, 2.3547800000000003E-10, -0.000341077, 25
DataValue, 4.5710000000000004E-08, 58.002, 2.33564E-10, -0.00033879, 25
DataValue, 1.6400000000000001E-09, 58.995000000000005, 2.31769E-10, -0.000336039, 25
DataValue, -2.8480000000000004E-08, 59.994, 2.3000400000000002E-10, -0.000333416, 25
DataValue, -2.2000000000000002E-08, 61.0035, 2.28271E-10, -0.000331368, 25
DataValue, -3.4350000000000006E-08, 61.999500000000005, 2.2667800000000002E-10, -0.00032918700000000005, 25
DataValue, -5.594E-08, 62.997, 2.2492400000000002E-10, -0.00032663200000000004, 25
DataValue, 4.5770000000000006E-08, 64.005, 2.23332E-10, -0.00032441400000000003, 25
DataValue, -2.2640000000000003E-08, 64.995, 2.21741E-10, -0.000323138, 25
DataValue, 3.127E-08, 65.997, 2.2037200000000003E-10, -0.00032056500000000003, 25
DataValue, -9.37E-09, 67.005, 2.1871700000000002E-10, -0.00031844400000000003, 25
DataValue, 3.1280000000000006E-08, 67.998, 2.17245E-10, -0.00031612700000000003, 25
DataValue, 1.2980000000000001E-08, 68.997, 2.1582100000000002E-10, -0.000314608, 25
DataValue, 2.0830000000000002E-08, 70.005, 2.1445600000000002E-10, -0.00031234000000000004, 25
DataValue, -3.0800000000000004E-08, 71.001, 2.1303000000000001E-10, -0.000310716, 25
DataValue, -7.0100000000000012E-08, 71.997, 2.1169400000000003E-10, -0.000309446, 25
DataValue, -2.6600000000000003E-08, 73.0005, 2.1036800000000003E-10, -0.00030733800000000004, 25
DataValue, 2.77E-09, 73.995, 2.0905700000000003E-10, -0.000305515, 25
DataValue, -4.8850000000000004E-08, 75.001500000000007, 2.0784300000000003E-10, -0.000303751, 25
DataValue, -3.039E-08, 75.996, 2.0659800000000002E-10, -0.00030136000000000003, 25
DataValue, 2.045E-08, 77.001, 2.0536500000000002E-10, -0.000300099, 25
DataValue, 4.17E-08, 78, 2.0407600000000003E-10, -0.000298729, 25
DataValue, 3.58E-08, 79.0005, 2.0290100000000003E-10, -0.00029692, 25
DataValue, -2.743E-08, 79.9995, 2.0181200000000002E-10, -0.000295451, 25
DataValue, -3.49E-08, 80.9985, 2.0067100000000003E-10, -0.00029367900000000003, 25
DataValue, -1.0030000000000001E-08, 82.002, 1.9944700000000002E-10, -0.000292297, 25
DataValue, -7.884000000000001E-08, 82.995, 1.98439E-10, -0.000291034, 25
DataValue, -1.4150000000000001E-08, 83.9985, 1.9728400000000002E-10, -0.00028959300000000004, 25
DataValue, 4.3900000000000008E-09, 85.0035, 1.96303E-10, -0.000288465, 25
DataValue, -3.723E-08, 85.995, 1.9516600000000003E-10, -0.00028624, 25
DataValue, 5.92E-09, 86.9985, 1.9421900000000002E-10, -0.00028526, 25
DataValue, 2.0600000000000002E-08, 88.002, 1.93072E-10, -0.00028422100000000003, 25
DataValue, -5.814E-08, 89.001, 1.9215E-10, -0.00028267600000000004, 25
DataValue, -4.1330000000000007E-08, 89.9955, 1.91147E-10, -0.000280643, 25
DataValue, -2.1E-09, 90.999, 1.9016700000000003E-10, -0.000279893, 25
DataValue, -9.5850000000000015E-08, 92.001, 1.8931300000000002E-10, -0.00027866400000000003, 25
DataValue, -3.274E-08, 92.997, 1.8837700000000003E-10, -0.00027767300000000004, 25
DataValue, -3.4400000000000004E-08, 93.999, 1.8736700000000002E-10, -0.000276104, 25
DataValue, 4.8190000000000003E-08, 95.0025, 1.8646300000000002E-10, -0.000275033, 25
DataValue, 2.1820000000000003E-08, 95.9985, 1.8561000000000002E-10, -0.000273668, 25
DataValue, 1.21E-08, 97.002, 1.8473000000000002E-10, -0.000272496, 25
DataValue, -2.3290000000000002E-08, 98.0025, 1.8385300000000002E-10, -0.000271378, 25
DataValue, -4.38E-09, 99.001500000000007, 1.82984E-10, -0.000270541, 25
DataValue, 4.2550000000000007E-08, 99.999, 1.8213900000000002E-10, -0.000269321, 25
DataValue, 1.4600000000000001E-09, 101.001, 1.81312E-10, -0.000268327, 25
DataValue, -5.8020000000000006E-08, 101.9985, 1.8054E-10, -0.000266984, 25
DataValue, -1.2570000000000001E-08, 102.999, 1.79766E-10, -0.00026582200000000003, 25
DataValue, 1.0770000000000002E-08, 103.9995, 1.7894100000000001E-10, -0.00026456200000000003, 25
DataValue, -9.29E-09, 105.00150000000001, 1.7814700000000003E-10, -0.000263518, 25
DataValue, -3.158E-08, 105.9975, 1.77331E-10, -0.00026246200000000004, 25
DataValue, -2.701E-08, 106.9935, 1.7660700000000002E-10, -0.000261562, 25
DataValue, -3.675E-08, 107.997, 1.75849E-10, -0.000260481, 25
DataValue, -1.1670000000000001E-08, 109.0005, 1.7516600000000002E-10, -0.000259528, 25
DataValue, -3.367E-08, 109.9965, 1.7439100000000001E-10, -0.00025905300000000003, 25
DataValue, -7.4900000000000012E-09, 111, 1.7367200000000002E-10, -0.000257569, 25
DataValue, 1.6600000000000003E-09, 112.0035, 1.7294200000000002E-10, -0.000256975, 25
DataValue, -8.82E-09, 112.9995, 1.7225000000000003E-10, -0.00025544500000000003, 25
DataValue, -8.2500000000000011E-09, 114, 1.7159600000000003E-10, -0.000254752, 25
DataValue, 2.8920000000000004E-08, 115.005, 1.7088E-10, -0.000253909, 25
DataValue, 3.1920000000000004E-08, 116.004, 1.70144E-10, -0.000252686, 25
DataValue, 9.78E-09, 117.003, 1.69496E-10, -0.000251609, 25
DataValue, -1.9000000000000002E-10, 118.00200000000001, 1.6889800000000002E-10, -0.000250888, 25
DataValue, -4.5480000000000008E-08, 118.9995, 1.6825300000000001E-10, -0.00025007, 25
DataValue, -4.111E-08, 120, 1.6754800000000001E-10, -0.00024954700000000003, 25
DataValue, -2.7660000000000004E-08, 121.00200000000001, 1.66863E-10, -0.000248412, 25
DataValue, 2.1840000000000002E-08, 122.004, 1.6630400000000002E-10, -0.00024731, 25
DataValue, 1.602E-08, 123.00150000000001, 1.6567400000000002E-10, -0.000246337, 25
DataValue, 3.1630000000000006E-08, 123.9975, 1.6510200000000002E-10, -0.000245556, 25
DataValue, 5.263E-08, 125.0025, 1.6448700000000002E-10, -0.000245208, 25
DataValue, -6.013000000000001E-08, 125.9985, 1.6392400000000002E-10, -0.000244237, 25
DataValue, -5.4600000000000006E-09, 127.0005, 1.6328800000000002E-10, -0.000243364, 25
DataValue, -1.527E-08, 127.998, 1.6263100000000002E-10, -0.00024231500000000003, 25
DataValue, -5.4250000000000006E-08, 128.997, 1.62084E-10, -0.00024181200000000002, 25
DataValue, -3.7140000000000007E-08, 129.9975, 1.6162400000000002E-10, -0.000240649, 25
DataValue, 3.965E-08, 131.0025, 1.6099200000000002E-10, -0.00023945200000000002, 25
DataValue, 2.3370000000000003E-08, 132.0015, 1.6051000000000002E-10, -0.00023955900000000003, 25
DataValue, 3.256E-08, 133.0035, 1.59921E-10, -0.00023901100000000002, 25
DataValue, -5.6950000000000004E-08, 133.998, 1.5940700000000002E-10, -0.000238191, 25
DataValue, -3.5370000000000005E-08, 134.9985, 1.58881E-10, -0.00023738400000000002, 25
DataValue, -3.5100000000000005E-09, 136.00050000000002, 1.58239E-10, -0.000236104, 25
DataValue, -8.614E-08, 136.998, 1.5775000000000002E-10, -0.000235722, 25
DataValue, 6.2140000000000012E-08, 138, 1.5725E-10, -0.000235065, 25
DataValue, 1.8000000000000003E-10, 139.008, 1.5673400000000002E-10, -0.000233916, 25
DataValue, -5.58E-09, 139.995, 1.5626E-10, -0.00023328900000000002, 25
DataValue, -5.0830000000000006E-08, 141.0045, 1.5572800000000002E-10, -0.00023302000000000002, 25
DataValue, 7.1E-10, 141.9975, 1.5531100000000001E-10, -0.000232412, 25
DataValue, 1.0570000000000001E-08, 142.998, 1.5472400000000002E-10, -0.00023126400000000001, 25
DataValue, -3.2970000000000003E-08, 144.00300000000001, 1.5428E-10, -0.00023050400000000003, 25
DataValue, -3.9340000000000007E-08, 144.996, 1.5373300000000002E-10, -0.000230126, 25
DataValue, -7.51E-09, 145.9995, 1.5326000000000002E-10, -0.00022922, 25
DataValue, 2.7660000000000004E-08, 146.997, 1.5278400000000002E-10, -0.00022899700000000002, 25
DataValue, -7.7170000000000009E-08, 147.9975, 1.5230500000000002E-10, -0.00022817800000000002, 25
DataValue, -3.4670000000000005E-08, 148.9995, 1.52004E-10, -0.00022744100000000002, 25
DataValue, 4.631E-08, 150.0015, 1.5138800000000002E-10, -0.00022723300000000003, 25
DataValue, 3.546E-08, 151.00050000000002, 1.5092400000000002E-10, -0.000226128, 25
DataValue, 6.107E-08, 152.0025, 1.5045700000000002E-10, -0.000225378, 25
DataValue, -1.3050000000000001E-08, 152.9985, 1.5015000000000002E-10, -0.00022479300000000001, 25
DataValue, -2.017E-08, 154.0035, 1.49739E-10, -0.000224402, 25
DataValue, -6.687E-08, 154.9995, 1.49178E-10, -0.00022382900000000002, 25
DataValue, -1.4340000000000001E-08, 156.00300000000001, 1.4875800000000002E-10, -0.00022288800000000003, 25
DataValue, 1.57E-08, 156.9975, 1.4838100000000002E-10, -0.000222439, 25
DataValue, -4.6880000000000007E-08, 158.001, 1.4801900000000001E-10, -0.00022233000000000002, 25
DataValue, 3.0630000000000004E-08, 159, 1.47533E-10, -0.00022079800000000002, 25
DataValue, 2.647E-08, 160.002, 1.4716400000000002E-10, -0.00022102500000000002, 25
DataValue, -4.5000000000000006E-09, 161.0055, 1.4665700000000001E-10, -0.00022014200000000002, 25
DataValue, -7.67E-08, 161.9985, 1.46336E-10, -0.00021951200000000002, 25
DataValue, -4.118E-08, 162.996, 1.45966E-10, -0.00021931400000000002, 25
DataValue, -4.9790000000000004E-08, 164.001, 1.4549E-10, -0.00021831900000000002, 25
DataValue, -1.0764000000000002E-07, 164.997, 1.45102E-10, -0.000218103, 25
DataValue, 9.3420000000000012E-08, 165.999, 1.44721E-10, -0.00021738400000000002, 25
DataValue, 1.8900000000000003E-09, 167.001, 1.4433800000000002E-10, -0.000217104, 25
DataValue, 1.785E-08, 168, 1.43877E-10, -0.000215495, 25
DataValue, -7.7800000000000008E-09, 169.005, 1.43592E-10, -0.00021563300000000001, 25
DataValue, -4.5070000000000006E-08, 169.995, 1.4320400000000002E-10, -0.000215362, 25
DataValue, -4.275E-08, 171.0045, 1.4276E-10, -0.000214147, 25
DataValue, -4.994E-08, 171.999, 1.42372E-10, -0.00021357800000000002, 25
DataValue, -6.2560000000000012E-08, 173.001, 1.4207500000000002E-10, -0.000214238, 25
DataValue, -3.6350000000000005E-08, 173.9985, 1.4168900000000002E-10, -0.00021346800000000002, 25
DataValue, 4.17E-08, 175.0035, 1.41278E-10, -0.00021217800000000001, 25
DataValue, -1.184E-08, 175.9995, 1.41024E-10, -0.000211823, 25
DataValue, -2.612E-08, 177, 1.4063400000000002E-10, -0.00021149700000000003, 25
DataValue, 4.76E-09, 178.002, 1.40317E-10, -0.000210604, 25
DataValue, -3.0210000000000004E-08, 178.9995, 1.3992600000000002E-10, -0.00021077900000000002, 25
DataValue, -4.6470000000000005E-08, 179.9955, 1.3954300000000002E-10, -0.00020984100000000003, 25
DataValue, -1.3360000000000002E-08, 181.002, 1.39282E-10, -0.00020926700000000001, 25
DataValue, -2.8910000000000002E-08, 182.001, 1.3890700000000002E-10, -0.00020867700000000002, 25
DataValue, 3.01E-09, 182.9985, 1.3859700000000002E-10, -0.000208385, 25
DataValue, -1.8200000000000001E-09, 184.00050000000002, 1.38237E-10, -0.00020804700000000002, 25
DataValue, 6.5370000000000009E-08, 184.998, 1.37825E-10, -0.00020802100000000002, 25
DataValue, -3.6530000000000004E-08, 186.0015, 1.37516E-10, -0.00020681, 25
DataValue, -4.1520000000000004E-08, 187.002, 1.3719300000000002E-10, -0.000206235, 25
DataValue, 3.2000000000000003E-10, 188.0025, 1.36866E-10, -0.000206352, 25
DataValue, 3.7500000000000005E-09, 188.997, 1.3650600000000002E-10, -0.00020565900000000002, 25
DataValue, -5.6180000000000004E-08, 190.00050000000002, 1.3628600000000002E-10, -0.000205061, 25
DataValue, -5.54E-09, 191.0025, 1.3594500000000002E-10, -0.000204884, 25
DataValue, -5.2920000000000007E-08, 191.9985, 1.35697E-10, -0.00020451300000000003, 25
DataValue, -4.8800000000000005E-09, 193.002, 1.35336E-10, -0.00020353500000000002, 25
DataValue, -1.3350000000000002E-08, 193.9995, 1.34938E-10, -0.000203229, 25
DataValue, -3.7740000000000006E-08, 195, 1.34684E-10, -0.00020331, 25
DataValue, -4.9820000000000005E-08, 195.996, 1.3440600000000002E-10, -0.000202596, 25
DataValue, 1.6500000000000002E-08, 196.998, 1.34075E-10, -0.00020201000000000003, 25
DataValue, -9.5400000000000014E-09, 198.00300000000001, 1.33787E-10, -0.00020175300000000002, 25
DataValue, -2.785E-08, 198.996, 1.3347800000000002E-10, -0.000200811, 25
DataValue, 3.4890000000000003E-08, 199.9995, 1.33259E-10, -0.000200613, 25
DataValue, -1.1890000000000001E-08, 200.997, 1.32922E-10, -0.000200339, 25
DataValue, -2.9130000000000003E-08, 201.9975, 1.3262800000000002E-10, -0.00019945700000000003, 25
DataValue, -3.448E-08, 202.9965, 1.3232600000000001E-10, -0.000199754, 25
DataValue, 8.21E-09, 204.0015, 1.32029E-10, -0.000198836, 25
DataValue, -2.2570000000000003E-08, 205.002, 1.3172700000000002E-10, -0.000198593, 25
DataValue, 2.8450000000000003E-08, 206.004, 1.3141700000000002E-10, -0.000198092, 25
DataValue, -4.0150000000000005E-08, 207, 1.31235E-10, -0.000197388, 25
DataValue, -7.956E-08, 207.999, 1.3091000000000002E-10, -0.000197381, 25
DataValue, 2.8340000000000004E-08, 209.001, 1.30584E-10, -0.000197381, 25
DataValue, -1.717E-08, 209.997, 1.3036500000000002E-10, -0.00019662500000000002, 25
DataValue, 4.8870000000000007E-08, 210.999, 1.3005800000000002E-10, -0.000196261, 25
DataValue, -4.8420000000000006E-08, 212.0025, 1.2987400000000002E-10, -0.000195737, 25
DataValue, -1.2880000000000002E-08, 213.0045, 1.2957E-10, -0.000195188, 25
DataValue, -3.8580000000000005E-08, 213.996, 1.2924700000000002E-10, -0.000194997, 25
DataValue, -1.7110000000000002E-08, 214.998, 1.2901200000000002E-10, -0.00019443700000000002, 25
DataValue, 6.142E-08, 215.997, 1.2870200000000002E-10, -0.00019405100000000002, 25
DataValue, 1.8400000000000003E-08, 216.996, 1.2849700000000002E-10, -0.000193964, 25
DataValue, 7.92E-09, 217.9995, 1.2824300000000001E-10, -0.00019351, 25
DataValue, -2.3570000000000002E-08, 219.0015, 1.27994E-10, -0.00019288200000000001, 25
DataValue, 3.099E-08, 220.00050000000002, 1.27715E-10, -0.000193184, 25
DataValue, -3.1770000000000006E-08, 221.001, 1.2748700000000002E-10, -0.000192043, 25
DataValue, -1.2630000000000001E-08, 222.00300000000001, 1.27253E-10, -0.00019203400000000003, 25
DataValue, -1.7910000000000003E-08, 223.002, 1.26991E-10, -0.00019183, 25
DataValue, -3.9550000000000007E-08, 223.995, 1.26712E-10, -0.000190995, 25
DataValue, -6.5280000000000013E-08, 225, 1.26494E-10, -0.000191007, 25
DataValue, 1.7040000000000002E-08, 225.9975, 1.26311E-10, -0.00019094, 25
DataValue, 8.1200000000000009E-09, 226.9935, 1.25955E-10, -0.000190034, 25
DataValue, 3.357E-08, 228.0045, 1.2580000000000002E-10, -0.000189483, 25
DataValue, -3.2690000000000004E-08, 228.999, 1.25482E-10, -0.000189387, 25
DataValue, -9.8000000000000017E-09, 230.001, 1.25219E-10, -0.00018901100000000002, 25
