
SetupTitle, Cds
ApplicationTest, Cds, Public
TestParameter, Name, Memo, IntegTime, Frequency, OscLevel, Scale, Drain, VdBias, VdStart, VdStop, VdLinearStep, IdLimit, HoldTime, DelayTime, IdMinRange
TestParameter, Value, , SHORT, 1000000, 0.025, LINEAR, CMU1:MF	MFCMU, SMU6:HV	HVSMU, 0, 1000, 1, 0.004, 0, 0.08, 10uA
DutParameter, Name, Polarity, Temp, YAxisCdsMin, YAxisCdsMax
DutParameter, Value, 1, 25, 1E-12, 1E-09
MetaData, TestRecord.EntryPoint, true
MetaData, TestRecord.RecordTime, 12/27/2020 09:27:33
MetaData, TestRecord.TestTarget, 
MetaData, TestRecord.IterationIndex, 9
MetaData, TestRecord.Preservation, true
MetaData, TestRecord.Flag, 
MetaData, TestRecord.Remarks, 
MetaData, TestRecord.LinkKey, b61e921e-57e9-4659-98ea-f925b55ab89e
Dimension1, 1001, 1001, 1001, 1001, 1001
Dimension2, 1, 1, 1, 1, 1
DataName, Ids, Vdrain, Cds, G, Ta
DataValue, 3.189E-08, 0.0015, 2.67912E-10, -0.000401477, 25
DataValue, -1.619E-08, 1.002, 2.3247800000000002E-10, -0.000349091, 25
DataValue, 8.596000000000001E-08, 2.0025, 2.0941500000000002E-10, -0.00031587, 25
DataValue, -3.9060000000000007E-08, 3, 1.92322E-10, -0.000290938, 25
DataValue, -1.3110000000000001E-08, 4.0005, 1.7899900000000002E-10, -0.00027071500000000004, 25
DataValue, -3.371E-08, 4.9995, 1.6793800000000003E-10, -0.000254732, 25
DataValue, -8.29E-09, 6.0045, 1.58787E-10, -0.00024104100000000003, 25
DataValue, 1.4790000000000002E-08, 7.002, 1.5090600000000002E-10, -0.00022979300000000003, 25
DataValue, 2.6520000000000002E-08, 8.0025, 1.44031E-10, -0.00021919500000000002, 25
DataValue, -4.1600000000000005E-09, 9.0045, 1.37893E-10, -0.000210212, 25
DataValue, -8.07E-09, 9.999, 1.32318E-10, -0.00020123500000000002, 25
DataValue, 2.026E-08, 11.0025, 1.26293E-10, -0.00019168, 25
DataValue, 9.4700000000000014E-09, 12, 1.15012E-10, -0.000173883, 25
DataValue, 2.4000000000000003E-08, 13.0035, 1.1071400000000001E-10, -0.00016665700000000001, 25
DataValue, 7.1800000000000004E-09, 14.004, 1.07075E-10, -0.00016193200000000002, 25
DataValue, 2.169E-08, 15.003, 1.0386200000000001E-10, -0.000156701, 25
DataValue, -3.9180000000000004E-08, 15.9945, 1.0105200000000001E-10, -0.000153064, 25
DataValue, -2.1070000000000003E-08, 17.001, 9.83586E-11, -0.000148679, 25
DataValue, -4.0570000000000005E-08, 17.9985, 9.59646E-11, -0.00014483, 25
DataValue, 1.977E-08, 19.0005, 9.37148E-11, -0.000141815, 25
DataValue, -2.5830000000000004E-08, 20.0025, 9.1695099999999993E-11, -0.00013843900000000002, 25
DataValue, 2.9530000000000004E-08, 20.9985, 8.96659E-11, -0.000135684, 25
DataValue, 3.971E-08, 22.0005, 8.78702E-11, -0.000133768, 25
DataValue, 5.2680000000000006E-08, 23.0025, 8.62711E-11, -0.000130585, 25
DataValue, -1.9190000000000002E-08, 23.9985, 8.46217E-11, -0.000128774, 25
DataValue, -1.1390000000000001E-08, 25.002, 8.30255E-11, -0.000125785, 25
DataValue, 5.3900000000000006E-08, 25.9965, 8.16519E-11, -0.000123817, 25
DataValue, 6.107E-08, 27.003, 8.02744E-11, -0.000121866, 25
DataValue, 2.4000000000000003E-08, 28.0035, 7.90253E-11, -0.00012013300000000001, 25
DataValue, -7.9270000000000008E-08, 29.0025, 7.77939E-11, -0.00011856, 25
DataValue, -1.5660000000000003E-08, 29.997, 7.65481E-11, -0.00011667, 25
DataValue, -1.5940000000000002E-08, 31.000500000000002, 7.54718E-11, -0.000114362, 25
DataValue, 7.21E-08, 32.0025, 7.43492E-11, -0.00011309900000000001, 25
DataValue, -4.9390000000000007E-08, 33, 7.34334E-11, -0.00011224000000000001, 25
DataValue, -3.176E-08, 33.999, 7.24449E-11, -0.00011060200000000001, 25
DataValue, 1.9710000000000002E-08, 35.0025, 7.14694E-11, -0.00010893, 25
DataValue, 4.607E-08, 36.003, 7.05128E-11, -0.000107095, 25
DataValue, -3.0700000000000004E-09, 37.0005, 6.96735E-11, -0.000106082, 25
DataValue, 2.8560000000000002E-08, 38.001, 6.8781E-11, -0.000104814, 25
DataValue, 1.2060000000000002E-08, 39, 6.79368E-11, -0.00010371700000000001, 25
DataValue, -9.0800000000000009E-09, 40.0005, 6.72673E-11, -0.00010257900000000001, 25
DataValue, 2.5380000000000003E-08, 40.9995, 6.64297E-11, -0.000100839, 25
DataValue, 4.558E-08, 42.003, 6.5728999999999993E-11, -0.00010047900000000001, 25
DataValue, -5.7360000000000005E-08, 43.0005, 6.50062E-11, -9.90174E-05, 25
DataValue, -1.591E-08, 43.998, 6.4363999999999994E-11, -9.84071E-05, 25
DataValue, 8.3720000000000011E-08, 45.0015, 6.36262E-11, -9.70399E-05, 25
DataValue, -3.1780000000000004E-08, 46.0005, 6.30312E-11, -9.605920000000001E-05, 25
DataValue, 6.900000000000001E-10, 46.9965, 6.2388099999999993E-11, -9.52373E-05, 25
DataValue, 2.5700000000000004E-09, 48, 6.17549E-11, -9.41967E-05, 25
DataValue, -8.02E-09, 49.002, 6.11253E-11, -9.37631E-05, 25
DataValue, 7.914E-08, 49.9995, 6.06359E-11, -9.26893E-05, 25
DataValue, 3.0200000000000003E-09, 50.997, 6.01598E-11, -9.23384E-05, 25
DataValue, 2.9340000000000003E-08, 52.0005, 5.94831E-11, -9.1276900000000007E-05, 25
DataValue, -4.2830000000000007E-08, 52.9995, 5.8914699999999993E-11, -9.01472E-05, 25
DataValue, -2.4380000000000004E-08, 54.003, 5.84907E-11, -8.93284E-05, 25
DataValue, 9.5E-10, 54.9975, 5.79942E-11, -8.85065E-05, 25
DataValue, -6.3500000000000006E-09, 55.993500000000004, 5.74871E-11, -8.82903E-05, 25
DataValue, -2.4560000000000003E-08, 57, 5.70248E-11, -8.714330000000001E-05, 25
DataValue, -2.2890000000000002E-08, 58.0005, 5.64582E-11, -8.67089E-05, 25
DataValue, 7.500000000000001E-08, 58.998000000000005, 5.60643E-11, -8.5390400000000008E-05, 25
DataValue, -1.019E-08, 59.9985, 5.56287E-11, -8.49841E-05, 25
DataValue, 1.4240000000000002E-08, 60.999, 5.52579E-11, -8.41656E-05, 25
DataValue, -2.9440000000000004E-08, 61.998000000000005, 5.46913E-11, -8.3655E-05, 25
DataValue, -7E-11, 63.003, 5.43433E-11, -8.29347E-05, 25
DataValue, 1.6400000000000001E-09, 63.999, 5.3974E-11, -8.265300000000001E-05, 25
DataValue, 2.5800000000000003E-08, 64.9995, 5.35245E-11, -8.19736E-05, 25
DataValue, -4.2040000000000005E-08, 66.001500000000007, 5.3161099999999996E-11, -8.17429E-05, 25
DataValue, 1.457E-08, 67.0035, 5.2744599999999996E-11, -8.09208E-05, 25
DataValue, 3.088E-08, 68.001, 5.24156E-11, -8.0398900000000007E-05, 25
DataValue, 8.08E-09, 68.997, 5.20752E-11, -8.00762E-05, 25
DataValue, -2.9200000000000003E-08, 70.0005, 5.17417E-11, -7.89125E-05, 25
DataValue, -1.5800000000000001E-09, 71.001, 5.1346899999999996E-11, -7.88914E-05, 25
DataValue, -1.93E-09, 72, 5.1009399999999996E-11, -7.79568E-05, 25
DataValue, 2.5280000000000002E-08, 73.002, 5.0613999999999996E-11, -7.7463700000000008E-05, 25
DataValue, -3.4120000000000004E-08, 74.004, 5.03461E-11, -7.7280600000000007E-05, 25
DataValue, 2.5090000000000002E-08, 75.003, 5.00528E-11, -7.68991E-05, 25
DataValue, -4.373E-08, 76.002, 4.96649E-11, -7.64639E-05, 25
DataValue, -3.751E-08, 76.9995, 4.93489E-11, -7.61187E-05, 25
DataValue, 2.1300000000000002E-08, 77.9985, 4.9082299999999997E-11, -7.5670900000000008E-05, 25
DataValue, 4.307E-08, 78.9975, 4.87809E-11, -7.5094E-05, 25
DataValue, 1.586E-08, 80.001, 4.84953E-11, -7.46086E-05, 25
DataValue, -1.3300000000000002E-09, 81, 4.8243E-11, -7.36589E-05, 25
DataValue, -3.895E-08, 82.0005, 4.7838E-11, -7.3714800000000008E-05, 25
DataValue, 2.6360000000000002E-08, 82.9995, 4.76553E-11, -7.3578400000000007E-05, 25
DataValue, 3.154E-08, 84.001500000000007, 4.7375499999999996E-11, -7.29563E-05, 25
DataValue, -3.587E-08, 85.0005, 4.70351E-11, -7.25571E-05, 25
DataValue, -5.0090000000000007E-08, 86.001, 4.68381E-11, -7.22569E-05, 25
DataValue, 2.8600000000000005E-09, 87.001500000000007, 4.6453399999999997E-11, -7.16179E-05, 25
DataValue, -2.033E-08, 88.002, 4.62828E-11, -7.12367E-05, 25
DataValue, 6.0960000000000011E-08, 88.998, 4.60702E-11, -7.0370600000000007E-05, 25
DataValue, 2.8510000000000002E-08, 90.001500000000007, 4.57802E-11, -7.0103E-05, 25
DataValue, -2.8720000000000002E-08, 91.0005, 4.5461699999999996E-11, -7.00098E-05, 25
DataValue, 1.24E-09, 92.001, 4.52931E-11, -6.96007E-05, 25
DataValue, -4.1830000000000005E-08, 92.9955, 4.50135E-11, -6.93753E-05, 25
DataValue, 5.2200000000000006E-09, 93.999, 4.48094E-11, -6.88499E-05, 25
DataValue, 1.3880000000000001E-08, 94.9995, 4.45849E-11, -6.86179E-05, 25
DataValue, -6.533E-08, 95.9925, 4.44146E-11, -6.7651E-05, 25
DataValue, -2.1120000000000003E-08, 97.0065, 4.41509E-11, -6.80577E-05, 25
DataValue, -7.0000000000000006E-09, 98.0055, 4.39372E-11, -6.74845E-05, 25
DataValue, -2.2300000000000004E-09, 99, 4.37219E-11, -6.76674E-05, 25
DataValue, -7E-11, 99.999, 4.3530299999999996E-11, -6.66946E-05, 25
DataValue, 5.9490000000000005E-08, 101.0025, 4.3313E-11, -6.6480100000000007E-05, 25
DataValue, 2.5560000000000002E-08, 101.9955, 4.30909E-11, -6.64625E-05, 25
DataValue, 2.2500000000000003E-09, 102.9975, 4.28651E-11, -6.62967E-05, 25
DataValue, 6.710000000000001E-09, 103.9995, 4.27102E-11, -6.59242E-05, 25
DataValue, 3.654E-08, 105.00150000000001, 4.24323E-11, -6.56319E-05, 25
DataValue, -3.5100000000000005E-09, 106.0005, 4.22835E-11, -6.50737E-05, 25
DataValue, -2.3280000000000004E-08, 107.0025, 4.21217E-11, -6.49363E-05, 25
DataValue, -4.8590000000000007E-08, 107.9985, 4.1839599999999996E-11, -6.4186E-05, 25
DataValue, 8.1000000000000014E-09, 108.999, 4.17045E-11, -6.4218700000000009E-05, 25
DataValue, 2.298E-08, 109.9995, 4.14617E-11, -6.33309E-05, 25
DataValue, -1.4830000000000001E-08, 111, 4.13472E-11, -6.39055E-05, 25
DataValue, -4.7200000000000006E-08, 112.0005, 4.11177E-11, -6.32474E-05, 25
DataValue, -1.7410000000000002E-08, 113.0025, 4.11119E-11, -6.33871E-05, 25
DataValue, -5.3980000000000004E-08, 113.9985, 4.08074E-11, -6.29591E-05, 25
DataValue, 6.1000000000000006E-10, 115.002, 4.05991E-11, -6.23E-05, 25
DataValue, 1.258E-08, 115.9965, 4.04654E-11, -6.18273E-05, 25
DataValue, -1.904E-08, 117.00150000000001, 4.034E-11, -6.22535E-05, 25
DataValue, -1.888E-08, 118.0035, 4.01438E-11, -6.18153E-05, 25
DataValue, -1.509E-08, 119.001, 4.00201E-11, -6.15418E-05, 25
DataValue, 5.05E-08, 120.00150000000001, 3.98074E-11, -6.13586E-05, 25
DataValue, 3.085E-08, 121.0005, 3.95688E-11, -6.07597E-05, 25
DataValue, -3.766E-08, 121.995, 3.9435199999999997E-11, -6.0511600000000005E-05, 25
DataValue, -8.96E-09, 123.00450000000001, 3.92983E-11, -6.06397E-05, 25
DataValue, 3.2100000000000003E-09, 124.0035, 3.91599E-11, -6.03141E-05, 25
DataValue, -7.3100000000000006E-09, 124.9995, 3.89647E-11, -6.05861E-05, 25
DataValue, -5.5600000000000007E-09, 125.9985, 3.8847999999999996E-11, -5.98769E-05, 25
DataValue, -5.9170000000000006E-08, 126.99900000000001, 3.8648599999999997E-11, -5.97979E-05, 25
DataValue, -5.144E-08, 127.995, 3.85279E-11, -5.95581E-05, 25
DataValue, 2.429E-08, 129.0045, 3.8453899999999996E-11, -5.92762E-05, 25
DataValue, 3.7420000000000007E-08, 130.0035, 3.82312E-11, -5.9374000000000004E-05, 25
DataValue, 4.156E-08, 130.9995, 3.81346E-11, -5.87237E-05, 25
DataValue, -3.044E-08, 132, 3.79252E-11, -5.8452800000000004E-05, 25
DataValue, -5.7950000000000006E-08, 132.999, 3.78438E-11, -5.83562E-05, 25
DataValue, 4.2740000000000004E-08, 134.001, 3.77626E-11, -5.7621300000000003E-05, 25
DataValue, -2.6290000000000002E-08, 135.00300000000001, 3.75995E-11, -5.7504600000000005E-05, 25
DataValue, 6.297E-08, 136.002, 3.73678E-11, -5.76781E-05, 25
DataValue, -4.666E-08, 136.998, 3.73111E-11, -5.7478E-05, 25
DataValue, 1.0200000000000002E-09, 137.9985, 3.71789E-11, -5.7142600000000004E-05, 25
DataValue, -4.4400000000000007E-08, 139.00050000000002, 3.70118E-11, -5.67992E-05, 25
DataValue, 2.4900000000000003E-09, 139.998, 3.6843499999999997E-11, -5.67461E-05, 25
DataValue, -1.2800000000000002E-08, 141.0015, 3.67323E-11, -5.68561E-05, 25
DataValue, -6.7890000000000008E-08, 141.996, 3.67026E-11, -5.64913E-05, 25
DataValue, -8.3460000000000008E-08, 142.9995, 3.6517999999999996E-11, -5.59676E-05, 25
DataValue, -7.4220000000000012E-08, 143.9985, 3.6296399999999996E-11, -5.63688E-05, 25
DataValue, 1.2050000000000002E-08, 144.9975, 3.61561E-11, -5.55953E-05, 25
DataValue, 2.2780000000000003E-08, 146.004, 3.61363E-11, -5.5733200000000004E-05, 25
DataValue, -4.2910000000000005E-08, 147.0015, 3.59798E-11, -5.5761200000000004E-05, 25
DataValue, -4.91E-08, 148.002, 3.59242E-11, -5.55031E-05, 25
DataValue, 2.7280000000000003E-08, 148.9995, 3.5787899999999996E-11, -5.5087400000000004E-05, 25
DataValue, 3.8470000000000006E-08, 150.0015, 3.57084E-11, -5.4791300000000005E-05, 25
DataValue, -1.8120000000000003E-08, 150.999, 3.5520199999999996E-11, -5.49288E-05, 25
DataValue, -3.402E-08, 151.9965, 3.54535E-11, -5.44994E-05, 25
DataValue, 3.392E-08, 153.0015, 3.5358E-11, -5.45824E-05, 25
DataValue, 2.038E-08, 154.0035, 3.52263E-11, -5.42228E-05, 25
DataValue, -1.2140000000000002E-08, 154.998, 3.50981E-11, -5.39982E-05, 25
DataValue, -5.4500000000000005E-08, 156.00300000000001, 3.49414E-11, -5.40085E-05, 25
DataValue, 8.390000000000001E-09, 156.996, 3.48582E-11, -5.36991E-05, 25
DataValue, 6.9570000000000007E-08, 157.998, 3.4745E-11, -5.34905E-05, 25
DataValue, -1.361E-08, 158.9955, 3.46629E-11, -5.34782E-05, 25
DataValue, -4.771E-08, 160.0035, 3.45727E-11, -5.3511800000000005E-05, 25
DataValue, 5.4670000000000006E-08, 161.001, 3.44517E-11, -5.3064E-05, 25
DataValue, -5.9300000000000008E-09, 162, 3.43021E-11, -5.3007500000000004E-05, 25
DataValue, 5.6270000000000007E-08, 162.999, 3.42277E-11, -5.2753E-05, 25
DataValue, -5.036E-08, 163.995, 3.41078E-11, -5.2188900000000004E-05, 25
DataValue, -7.386E-08, 164.9985, 3.39999E-11, -5.2757600000000005E-05, 25
DataValue, 1.8100000000000002E-09, 166.0035, 3.3915E-11, -5.21308E-05, 25
DataValue, -3.3560000000000004E-08, 166.9995, 3.38663E-11, -5.20782E-05, 25
DataValue, -8.0950000000000007E-08, 168.0015, 3.36599E-11, -5.1879800000000004E-05, 25
DataValue, 4.9670000000000007E-08, 169.0035, 3.35531E-11, -5.19245E-05, 25
DataValue, -7.1000000000000007E-09, 169.9995, 3.35347E-11, -5.16463E-05, 25
DataValue, 8.36E-09, 170.9985, 3.3419E-11, -5.1654300000000004E-05, 25
DataValue, 1.12E-09, 171.999, 3.32509E-11, -5.09333E-05, 25
DataValue, 1.598E-08, 173.0025, 3.31759E-11, -5.14078E-05, 25
DataValue, 5.61E-09, 173.997, 3.31804E-11, -5.10567E-05, 25
DataValue, 3.4920000000000004E-08, 175.00050000000002, 3.29592E-11, -5.11244E-05, 25
DataValue, -5.5640000000000007E-08, 175.998, 3.29369E-11, -5.0900200000000004E-05, 25
DataValue, -1.2081E-07, 176.997, 3.2877899999999997E-11, -5.07246E-05, 25
DataValue, -2.675E-08, 178.00050000000002, 3.26988E-11, -5.07126E-05, 25
DataValue, 2.1930000000000002E-08, 178.9995, 3.26599E-11, -5.0390200000000004E-05, 25
DataValue, 3.66E-09, 180.00300000000001, 3.25619E-11, -5.03913E-05, 25
DataValue, -3.124E-08, 180.9975, 3.24754E-11, -5.07293E-05, 25
DataValue, -3.787E-08, 182.0025, 3.23895E-11, -4.96046E-05, 25
DataValue, -2.141E-08, 182.997, 3.23703E-11, -4.9972E-05, 25
DataValue, 4.8290000000000004E-08, 184.0035, 3.22395E-11, -4.95763E-05, 25
DataValue, -3.3100000000000004E-09, 185.0025, 3.2143399999999997E-11, -4.94887E-05, 25
DataValue, -2.3E-08, 186.0015, 3.20246E-11, -4.941E-05, 25
DataValue, -4.93E-09, 187.002, 3.19633E-11, -4.8965800000000005E-05, 25
DataValue, -2.061E-08, 187.9965, 3.19395E-11, -4.95356E-05, 25
DataValue, 1.649E-08, 189.0015, 3.18379E-11, -4.88651E-05, 25
DataValue, 1.6410000000000003E-08, 190.0035, 3.17683E-11, -4.89203E-05, 25
DataValue, -6.0900000000000009E-08, 191.0025, 3.15937E-11, -4.90045E-05, 25
DataValue, -5.2200000000000006E-09, 191.997, 3.15915E-11, -4.86583E-05, 25
DataValue, -1.4730000000000002E-08, 193.00050000000002, 3.14474E-11, -4.83934E-05, 25
DataValue, 2.9470000000000002E-08, 194.0025, 3.14101E-11, -4.80515E-05, 25
DataValue, 4.285E-08, 195.0045, 3.12946E-11, -4.83272E-05, 25
DataValue, -6.1050000000000007E-08, 196.00050000000002, 3.1312199999999997E-11, -4.8103100000000004E-05, 25
DataValue, 5.650000000000001E-09, 196.998, 3.10867E-11, -4.82935E-05, 25
DataValue, 7.2750000000000013E-08, 198, 3.10126E-11, -4.79722E-05, 25
DataValue, -1.8000000000000002E-08, 199.005, 3.09958E-11, -4.78506E-05, 25
DataValue, 2.6900000000000004E-09, 200.0025, 3.0938999999999997E-11, -4.76732E-05, 25
DataValue, -2.4930000000000002E-08, 201, 3.0868E-11, -4.69055E-05, 25
DataValue, 3.5330000000000006E-08, 202.002, 3.07362E-11, -4.76652E-05, 25
DataValue, 4.3720000000000004E-08, 203.001, 3.06949E-11, -4.7438800000000004E-05, 25
DataValue, 4.258E-08, 204.0015, 3.05015E-11, -4.70779E-05, 25
DataValue, -1.0360000000000001E-08, 204.999, 3.05899E-11, -4.73843E-05, 25
DataValue, 1.776E-08, 205.9995, 3.04712E-11, -4.71769E-05, 25
DataValue, -4.2000000000000006E-08, 207.0045, 3.03659E-11, -4.7065300000000005E-05, 25
DataValue, 2.476E-08, 208.002, 3.02987E-11, -4.7139300000000005E-05, 25
DataValue, -2.2200000000000004E-08, 209.004, 3.01978E-11, -4.6273800000000004E-05, 25
DataValue, -4.6980000000000008E-08, 210.00300000000001, 3.01816E-11, -4.6536300000000004E-05, 25
DataValue, -9.3970000000000014E-08, 210.999, 3.00664E-11, -4.60892E-05, 25
DataValue, -6.604E-08, 211.998, 2.99697E-11, -4.65655E-05, 25
DataValue, -4.3860000000000004E-08, 213.0015, 2.99073E-11, -4.6338600000000004E-05, 25
DataValue, 6.393E-08, 214.002, 2.98707E-11, -4.58804E-05, 25
DataValue, -1.67E-08, 214.9965, 2.98025E-11, -4.62416E-05, 25
DataValue, -4.935E-08, 216.0045, 2.97404E-11, -4.5942E-05, 25
DataValue, -1.7160000000000003E-08, 216.9975, 2.96703E-11, -4.5402000000000003E-05, 25
DataValue, 2.0230000000000003E-08, 218.001, 2.95244E-11, -4.55616E-05, 25
DataValue, 2.9200000000000003E-08, 219.00300000000001, 2.93924E-11, -4.53442E-05, 25
DataValue, 8.6400000000000016E-09, 219.996, 2.9401599999999996E-11, -4.56354E-05, 25
DataValue, -8.7070000000000011E-08, 221.001, 2.93723E-11, -4.52672E-05, 25
DataValue, -3.874E-08, 222.006, 2.93017E-11, -4.53324E-05, 25
DataValue, 4.2320000000000004E-08, 223.00050000000002, 2.93243E-11, -4.50419E-05, 25
DataValue, 1.2880000000000002E-08, 224.001, 2.92028E-11, -4.5584500000000004E-05, 25
DataValue, -1.8590000000000003E-08, 225, 2.91633E-11, -4.5099300000000004E-05, 25
DataValue, -3.7920000000000005E-08, 226.002, 2.90371E-11, -4.52061E-05, 25
DataValue, 2.9180000000000004E-08, 226.9995, 2.9055399999999998E-11, -4.45859E-05, 25
DataValue, -9.1E-09, 228.00300000000001, 2.88797E-11, -4.43529E-05, 25
DataValue, 3.4300000000000004E-09, 229.0035, 2.8877799999999998E-11, -4.46908E-05, 25
DataValue, -3.709E-08, 229.9995, 2.88348E-11, -4.44174E-05, 25
DataValue, -2.2310000000000003E-08, 230.9985, 2.87406E-11, -4.43046E-05, 25
DataValue, -3.6810000000000003E-08, 232.005, 2.8621E-11, -4.44205E-05, 25
DataValue, -5.95E-09, 233.0055, 2.86446E-11, -4.38796E-05, 25
DataValue, -2.5810000000000004E-08, 233.997, 2.8575999999999998E-11, -4.4246300000000004E-05, 25
DataValue, -6.575E-08, 234.996, 2.84952E-11, -4.39511E-05, 25
DataValue, -6.667E-08, 235.99800000000002, 2.84215E-11, -4.37541E-05, 25
DataValue, -2.3700000000000003E-09, 236.9955, 2.83739E-11, -4.39231E-05, 25
DataValue, -2.195E-08, 238.00050000000002, 2.82204E-11, -4.4178800000000005E-05, 25
DataValue, -1.4900000000000002E-09, 239.001, 2.8282999999999998E-11, -4.38274E-05, 25
DataValue, -3.8E-09, 239.9985, 2.8159E-11, -4.36322E-05, 25
DataValue, -6.6540000000000012E-08, 241.002, 2.81258E-11, -4.3628700000000005E-05, 25
DataValue, 1.136E-08, 241.99800000000002, 2.8189299999999998E-11, -4.32378E-05, 25
DataValue, -1.5490000000000002E-08, 243.00300000000001, 2.80668E-11, -4.33614E-05, 25
DataValue, -2.6760000000000003E-08, 243.999, 2.80497E-11, -4.31974E-05, 25
DataValue, -4.9110000000000008E-08, 244.995, 2.7946E-11, -4.2897E-05, 25
DataValue, -3.1910000000000006E-08, 245.9985, 2.77598E-11, -4.3282600000000005E-05, 25
DataValue, -7.563000000000001E-08, 247.00050000000002, 2.78572E-11, -4.2599600000000005E-05, 25
DataValue, -1.666E-08, 247.9995, 2.77252E-11, -4.3130800000000004E-05, 25
DataValue, 4.4590000000000004E-08, 249.00300000000001, 2.76624E-11, -4.29229E-05, 25
