
SetupTitle, Cds
ApplicationTest, Cds, Public
TestParameter, Name, Memo, IntegTime, Frequency, OscLevel, Scale, Drain, VdBias, VdStart, VdStop, VdLinearStep, IdLimit, HoldTime, DelayTime, IdMinRange
TestParameter, Value, , SHORT, 100000, 0.025, LINEAR, CMU1:MF	MFCMU, SMU6:HV	HVSMU, 0, 1000, 1, 0.004, 0, 0.08, 10uA
DutParameter, Name, Polarity, Temp, YAxisCdsMin, YAxisCdsMax
DutParameter, Value, 1, 25, 1E-12, 1E-09
MetaData, TestRecord.EntryPoint, true
MetaData, TestRecord.RecordTime, 04/22/2021 11:22:26
MetaData, TestRecord.TestTarget, 
MetaData, TestRecord.IterationIndex, 48
MetaData, TestRecord.Preservation, true
MetaData, TestRecord.Flag, 
MetaData, TestRecord.Remarks, 
MetaData, TestRecord.LinkKey, eac3d8f3-b9ef-45e2-97ca-7acdc07f6b05
Dimension1, 1001, 1001, 1001, 1001, 1001
Dimension2, 1, 1, 1, 1, 1
DataName, Ids, Vdrain, Cds, G, Ta
DataValue, -6.7610000000000008E-08, -0.0045000000000000005, 3.00305E-09, -1.8108299999999999E-06, 25
DataValue, 3.9200000000000005E-09, 0.996, 2.60431E-09, -4.47427E-06, 25
DataValue, 2.2270000000000004E-08, 1.995, 2.34116E-09, -5.2752E-06, 25
DataValue, 5.1310000000000007E-08, 2.9985, 2.14811E-09, -6.0329099999999993E-06, 25
DataValue, 1.3170000000000002E-08, 4.0005, 1.99841E-09, -6.55358E-06, 25
DataValue, -3.05E-08, 4.998, 1.87569E-09, -6.38344E-06, 25
DataValue, 4.477E-08, 6, 1.77292E-09, -6.5854E-06, 25
DataValue, -1.9810000000000003E-08, 7.0005, 1.6852E-09, -6.4105999999999992E-06, 25
DataValue, -3.996E-08, 7.9935, 1.60584E-09, -7.28574E-06, 25
DataValue, -4.5000000000000006E-09, 9.003, 1.52975E-09, -6.32126E-06, 25
DataValue, 1.163E-08, 9.996, 1.42769E-09, -5.23737E-06, 25
DataValue, -2.0010000000000002E-08, 10.998000000000001, 1.30381E-09, -4.15904E-06, 25
DataValue, -2.8280000000000002E-08, 12.0015, 1.25499E-09, -4.2882E-06, 25
DataValue, -5.700000000000001E-10, 13.002, 1.21336E-09, -4.12974E-06, 25
DataValue, -5.1800000000000007E-09, 14.004, 1.17648E-09, -3.99614E-06, 25
DataValue, 2.511E-08, 15.003, 1.1433E-09, -4.02043E-06, 25
DataValue, 7.3600000000000011E-09, 16.005, 1.11251E-09, -3.8702E-06, 25
DataValue, -9.52E-09, 16.998, 1.08508E-09, -4.14661E-06, 25
DataValue, 8.669E-08, 18.003, 1.0596E-09, -3.6908999999999997E-06, 25
DataValue, -7.2480000000000011E-08, 19.0005, 1.03509E-09, -3.31167E-06, 25
DataValue, 4.7940000000000004E-08, 20.0025, 1.01332E-09, -3.34166E-06, 25
DataValue, 1.032E-08, 21.0015, 9.93139E-10, -3.01032E-06, 25
DataValue, -5.1800000000000007E-08, 21.996000000000002, 9.7342200000000016E-10, -3.54911E-06, 25
DataValue, -9.4900000000000009E-09, 22.9995, 9.54661E-10, -3.56384E-06, 25
DataValue, 5.0090000000000007E-08, 24.003, 9.38087E-10, -3.34229E-06, 25
DataValue, 6.427E-08, 25.002, 9.2183700000000007E-10, -3.41213E-06, 25
DataValue, -1.537E-08, 26.001, 9.0649E-10, -3.19979E-06, 25
DataValue, -1.9740000000000003E-08, 26.9985, 8.92027E-10, -3.1258399999999996E-06, 25
DataValue, -3.004E-08, 28.0005, 8.7766E-10, -2.8644199999999998E-06, 25
DataValue, 2.155E-08, 29.0025, 8.6458300000000005E-10, -3.02996E-06, 25
DataValue, -7.947000000000001E-08, 29.9985, 8.51624E-10, -2.8867399999999997E-06, 25
DataValue, 7.3460000000000011E-08, 31.002, 8.3988800000000007E-10, -2.69664E-06, 25
DataValue, -5.158E-08, 32.001, 8.279710000000001E-10, -2.79775E-06, 25
DataValue, 1.6100000000000002E-08, 33.0015, 8.1696400000000008E-10, -2.5990199999999997E-06, 25
DataValue, -4.3980000000000007E-08, 33.999, 8.0636100000000011E-10, -1.9886999999999997E-06, 25
DataValue, 7.684E-08, 35.0025, 7.96242E-10, -2.3898199999999997E-06, 25
DataValue, -3.5400000000000006E-08, 36.0015, 7.8610800000000007E-10, -2.4293599999999997E-06, 25
DataValue, -2.1890000000000003E-08, 37.002, 7.766370000000001E-10, -2.23232E-06, 25
DataValue, -4.0220000000000005E-08, 37.9965, 7.677660000000001E-10, -1.9097799999999998E-06, 25
DataValue, -3.3620000000000006E-08, 39, 7.58741E-10, -2.0407E-06, 25
DataValue, 1.108E-08, 40.0035, 7.5044700000000011E-10, -2.0178E-06, 25
DataValue, 4.6700000000000008E-08, 41.004, 7.417440000000001E-10, -1.96965E-06, 25
DataValue, -6.1500000000000005E-09, 42.0015, 7.3404000000000008E-10, -1.5817299999999998E-06, 25
DataValue, -2.2000000000000002E-08, 43.002, 7.25284E-10, -1.48174E-06, 25
DataValue, 9.5680000000000007E-08, 43.9995, 7.1857E-10, -1.6438699999999999E-06, 25
DataValue, -8.1150000000000009E-08, 45.003, 7.11384E-10, -1.5441499999999999E-06, 25
DataValue, 2.0690000000000002E-08, 46.0005, 7.04563E-10, -1.4015699999999999E-06, 25
DataValue, -1.623E-08, 46.9965, 6.9737500000000009E-10, -1.3082399999999999E-06, 25
DataValue, -4.1310000000000004E-08, 47.997, 6.90945E-10, -1.1464899999999999E-06, 25
DataValue, 2.307E-08, 49.0035, 6.845640000000001E-10, -1.03439E-06, 25
DataValue, -1.729E-08, 49.9995, 6.78203E-10, -8.9198999999999993E-07, 25
DataValue, 4.334E-08, 51.0015, 6.71826E-10, -6.37337E-07, 25
DataValue, 1.9340000000000003E-08, 52.005, 6.65883E-10, -8.50318E-07, 25
DataValue, -5.5300000000000005E-09, 52.9995, 6.60483E-10, -5.8047899999999994E-07, 25
DataValue, -5.1500000000000006E-09, 54.0015, 6.54569E-10, -2.6865799999999997E-07, 25
DataValue, 1.245E-08, 54.9975, 6.4892100000000008E-10, -8.49172E-07, 25
DataValue, -5.57E-08, 55.999500000000005, 6.4368900000000007E-10, -5.63861E-07, 25
DataValue, 1.965E-08, 56.9925, 6.38214E-10, -4.68776E-07, 25
DataValue, -1.2740000000000002E-08, 57.999, 6.33245E-10, 2.34714E-07, 25
DataValue, -1.006E-08, 58.999500000000005, 6.28146E-10, -1.55824E-07, 25
DataValue, -1.5430000000000003E-08, 60, 6.23798E-10, 9.2618600000000009E-08, 25
DataValue, -1.1566000000000002E-07, 61.0005, 6.18399E-10, -7.92699E-08, 25
DataValue, 5.9350000000000005E-08, 62.0055, 6.13685E-10, 3.838E-07, 25
DataValue, -4.9180000000000008E-08, 62.997, 6.0863900000000007E-10, 1.7377899999999998E-07, 25
DataValue, 1.574E-08, 63.996, 6.04512E-10, 3.34149E-07, 25
DataValue, 6.2500000000000005E-09, 64.9995, 5.9981E-10, 4.64259E-07, 25
DataValue, -5.8150000000000008E-08, 65.9985, 5.9598E-10, 4.25911E-07, 25
DataValue, -8.1340000000000012E-08, 66.999, 5.91146E-10, 6.66651E-07, 25
DataValue, 1.3300000000000002E-08, 68.0055, 5.8752400000000009E-10, -4.98215E-08, 25
DataValue, 1.4740000000000002E-08, 69.003, 5.82922E-10, 8.74694E-07, 25
DataValue, -1.722E-08, 70.0005, 5.78947E-10, 8.2082299999999994E-07, 25
DataValue, 3.452E-08, 71.004, 5.7517000000000009E-10, 9.5143599999999994E-07, 25
DataValue, -6.338E-08, 72, 5.71126E-10, 8.70998E-07, 25
DataValue, 5.4500000000000005E-08, 73.002, 5.6750300000000008E-10, 9.41757E-07, 25
DataValue, -1.1502000000000001E-07, 73.9995, 5.6324500000000005E-10, 1.19843E-06, 25
DataValue, 8.268000000000001E-08, 74.9985, 5.59421E-10, 1.39763E-06, 25
DataValue, -1.6990000000000002E-08, 76.002, 5.55675E-10, 1.31317E-06, 25
DataValue, 4.017E-08, 77.0055, 5.52409E-10, 1.4809599999999998E-06, 25
DataValue, -2.8600000000000005E-09, 78.003, 5.4916E-10, 1.6064799999999999E-06, 25
DataValue, -3.082E-08, 78.999, 5.4526600000000009E-10, 1.5744199999999998E-06, 25
DataValue, 6.3280000000000008E-08, 80.0025, 5.41356E-10, 1.51864E-06, 25
DataValue, -1.101E-08, 81, 5.38858E-10, 2.03708E-06, 25
DataValue, 8.100000000000001E-10, 82.002, 5.3569500000000008E-10, 2.04104E-06, 25
DataValue, 3.73E-09, 82.9995, 5.32664E-10, 1.7951699999999998E-06, 25
DataValue, 1.0210000000000002E-08, 83.9985, 5.2917E-10, 1.9778399999999998E-06, 25
DataValue, -3.529E-08, 84.996, 5.2592100000000009E-10, 2.1267699999999997E-06, 25
DataValue, 2.7870000000000004E-08, 85.995, 5.22381E-10, 1.8861399999999999E-06, 25
DataValue, -4.0200000000000006E-09, 87, 5.1939600000000005E-10, 2.09029E-06, 25
DataValue, 3.4950000000000005E-08, 88.0005, 5.16871E-10, 2.36574E-06, 25
DataValue, -8.35E-09, 89.001, 5.1391400000000007E-10, 2.2951699999999997E-06, 25
DataValue, -6.0100000000000005E-09, 90, 5.11084E-10, 2.30923E-06, 25
DataValue, 6.2100000000000007E-09, 90.999, 5.0801000000000009E-10, 2.35789E-06, 25
DataValue, 3.462E-08, 91.9995, 5.05159E-10, 2.5642399999999998E-06, 25
DataValue, 5.1850000000000004E-08, 92.9985, 5.02397E-10, 2.55863E-06, 25
DataValue, -6.575E-08, 93.9975, 4.9959400000000006E-10, 2.42277E-06, 25
DataValue, -4E-08, 94.9995, 4.96849E-10, 2.4906E-06, 25
DataValue, 6.149E-08, 96, 4.94239E-10, 2.57241E-06, 25
DataValue, -8.5210000000000007E-08, 97.002, 4.91212E-10, 2.5203399999999997E-06, 25
DataValue, 2.9390000000000004E-08, 98.001, 4.8895300000000008E-10, 2.81034E-06, 25
DataValue, 2.3990000000000002E-08, 99.001500000000007, 4.86334E-10, 2.77834E-06, 25
DataValue, 1.306E-08, 100.002, 4.8328500000000005E-10, 2.86183E-06, 25
DataValue, -1.0240000000000001E-08, 101.001, 4.8089000000000008E-10, 2.30403E-06, 25
DataValue, 3.3110000000000003E-08, 101.997, 4.7874500000000009E-10, 2.57831E-06, 25
DataValue, -4.5000000000000006E-08, 102.999, 4.76567E-10, 2.90131E-06, 25
DataValue, 2.785E-08, 104.0025, 4.73674E-10, 2.62543E-06, 25
DataValue, -1.965E-08, 105.003, 4.71109E-10, 2.67944E-06, 25
DataValue, -4.443E-08, 105.999, 4.68669E-10, 2.85772E-06, 25
DataValue, 6.0300000000000009E-09, 107.001, 4.6656900000000007E-10, 2.5429399999999997E-06, 25
DataValue, -4.9740000000000007E-08, 107.9985, 4.64213E-10, 2.61745E-06, 25
DataValue, 2.2900000000000003E-08, 109.0005, 4.6177700000000006E-10, 2.4718299999999998E-06, 25
DataValue, -1.128E-08, 110.001, 4.5981800000000006E-10, 2.30756E-06, 25
DataValue, 2.23E-08, 111, 4.5702000000000004E-10, 2.52517E-06, 25
DataValue, -3.444E-08, 112.0005, 4.55047E-10, 2.46412E-06, 25
DataValue, 2.4330000000000003E-08, 113.001, 4.52979E-10, 2.44614E-06, 25
DataValue, -1.555E-08, 113.997, 4.5107E-10, 2.3972799999999998E-06, 25
DataValue, 7.15E-09, 114.99600000000001, 4.4925900000000005E-10, 2.39176E-06, 25
DataValue, 3.231E-08, 115.9995, 4.45772E-10, 2.02964E-06, 25
DataValue, -7.4500000000000012E-08, 116.9955, 4.4441700000000003E-10, 2.1487399999999997E-06, 25
DataValue, 3.458E-08, 117.99900000000001, 4.42228E-10, 2.10762E-06, 25
DataValue, -3.915E-08, 118.9965, 4.4034400000000004E-10, 2.14695E-06, 25
DataValue, 3.556E-08, 120, 4.3824300000000006E-10, 1.90279E-06, 25
DataValue, 3.0240000000000005E-08, 121.0005, 4.3655000000000006E-10, 1.8611899999999998E-06, 25
DataValue, -1.8120000000000003E-08, 122.001, 4.3427000000000004E-10, 1.94305E-06, 25
DataValue, 2.6320000000000003E-08, 123.00150000000001, 4.3296100000000003E-10, 1.7512299999999998E-06, 25
DataValue, -5.100000000000001E-10, 124.00200000000001, 4.30718E-10, 1.54371E-06, 25
DataValue, 5.5820000000000006E-08, 124.9995, 4.28409E-10, 1.35846E-06, 25
DataValue, 5.3270000000000007E-08, 126, 4.2713300000000003E-10, 1.46068E-06, 25
DataValue, 1.2850000000000001E-08, 127.0035, 4.2526100000000005E-10, 1.4400499999999999E-06, 25
DataValue, -4.0160000000000004E-08, 127.9995, 4.2317600000000005E-10, 1.21489E-06, 25
DataValue, 5.0230000000000007E-08, 129, 4.21919E-10, 1.3263599999999999E-06, 25
DataValue, -5.2930000000000005E-08, 130.00050000000002, 4.1990400000000005E-10, 1.0995099999999999E-06, 25
DataValue, 6.415E-08, 130.9995, 4.1794600000000006E-10, 9.6697199999999988E-07, 25
DataValue, 2.6730000000000002E-08, 132.0045, 4.16548E-10, 8.778E-07, 25
DataValue, -1.1365000000000002E-07, 132.996, 4.1468E-10, 9.9165099999999988E-07, 25
DataValue, 1.907E-08, 134.001, 4.13181E-10, 7.99713E-07, 25
DataValue, -3.3730000000000005E-08, 135.00300000000001, 4.11661E-10, 1.04435E-06, 25
DataValue, 9.7000000000000008E-09, 136.002, 4.1056600000000003E-10, 3.76464E-07, 25
DataValue, -1.907E-08, 136.9995, 4.0823000000000005E-10, 6.88101E-07, 25
DataValue, 5.4080000000000005E-08, 138.0015, 4.0675200000000003E-10, 3.04722E-07, 25
DataValue, 9.3900000000000017E-09, 139.00050000000002, 4.0504200000000005E-10, 3.66102E-07, 25
DataValue, -5.5890000000000006E-08, 139.9995, 4.0381900000000005E-10, 2.27687E-07, 25
DataValue, 6.8300000000000006E-09, 141, 4.0208E-10, 5.26256E-08, 25
DataValue, 2.2290000000000003E-08, 141.9975, 4.0088300000000004E-10, -8.12735E-09, 25
DataValue, -2.8270000000000004E-08, 142.9995, 3.99144E-10, -1.08583E-07, 25
DataValue, 3.7290000000000005E-08, 144, 3.9846600000000004E-10, -1.30585E-07, 25
DataValue, -2.995E-08, 145.0035, 3.96771E-10, -5.44173E-07, 25
DataValue, -7.4400000000000008E-09, 146.004, 3.9483700000000003E-10, -4.58238E-07, 25
DataValue, 5.8690000000000005E-08, 146.9985, 3.9344100000000005E-10, -3.1630099999999997E-07, 25
DataValue, -1.668E-08, 148.002, 3.91563E-10, -1.6257399999999998E-07, 25
DataValue, 4.4800000000000004E-08, 148.998, 3.9097400000000003E-10, -7.6157299999999993E-07, 25
DataValue, -5.4980000000000007E-08, 149.9985, 3.8925900000000005E-10, -7.3293999999999994E-07, 25
DataValue, 3.6200000000000003E-09, 150.999, 3.88291E-10, -9.92858E-07, 25
DataValue, -1.2270000000000002E-08, 151.998, 3.8695700000000005E-10, -9.5401E-07, 25
DataValue, 8.940000000000001E-09, 153.0015, 3.8582300000000004E-10, -1.21164E-06, 25
DataValue, -7.4800000000000015E-09, 153.9975, 3.8431600000000004E-10, -1.1581E-06, 25
DataValue, -8.0400000000000012E-09, 154.995, 3.8308700000000004E-10, -1.21388E-06, 25
DataValue, -5.9220000000000004E-08, 156, 3.8193000000000004E-10, -1.02399E-06, 25
DataValue, -3.159E-08, 156.9975, 3.8010200000000003E-10, -1.5063999999999999E-06, 25
DataValue, 7.5050000000000014E-08, 158.0025, 3.78854E-10, -1.2378099999999999E-06, 25
DataValue, -5.7380000000000008E-08, 159.0015, 3.78262E-10, -1.5438E-06, 25
DataValue, 2.2210000000000002E-08, 160.00050000000002, 3.77287E-10, -1.91602E-06, 25
DataValue, -5.741E-08, 160.998, 3.75718E-10, -1.7906399999999999E-06, 25
DataValue, 4.802E-08, 162.00300000000001, 3.74882E-10, -1.71254E-06, 25
DataValue, 1.0020000000000001E-08, 163.00050000000002, 3.7365000000000005E-10, -1.7607199999999999E-06, 25
DataValue, -3.4290000000000005E-08, 163.9965, 3.7245600000000004E-10, -1.78574E-06, 25
DataValue, 2.8610000000000003E-08, 165.0015, 3.71319E-10, -2.05059E-06, 25
DataValue, 2.2470000000000002E-08, 166.002, 3.7073300000000005E-10, -2.4624699999999997E-06, 25
DataValue, -2.9430000000000003E-08, 167.001, 3.6921200000000003E-10, -2.16279E-06, 25
DataValue, 4.9E-08, 168.0015, 3.6788100000000003E-10, -2.16067E-06, 25
DataValue, -3.053E-08, 169.00050000000002, 3.6700300000000005E-10, -2.2182899999999997E-06, 25
DataValue, -1.4890000000000001E-08, 170.0025, 3.6610400000000004E-10, -2.3435799999999998E-06, 25
DataValue, -5.17E-09, 171, 3.65034E-10, -2.3173399999999997E-06, 25
DataValue, -1.1400000000000002E-09, 172.002, 3.63932E-10, -2.41498E-06, 25
DataValue, 1.239E-08, 172.998, 3.62894E-10, -2.32883E-06, 25
DataValue, -2.6290000000000002E-08, 174.0015, 3.61954E-10, -2.6524E-06, 25
DataValue, 1.6240000000000002E-08, 175.0035, 3.60756E-10, -2.55499E-06, 25
DataValue, -4.5600000000000008E-09, 175.9995, 3.5969000000000003E-10, -2.6014599999999997E-06, 25
DataValue, 0, 177.0045, 3.5835900000000003E-10, -2.42911E-06, 25
DataValue, -1.272E-08, 177.999, 3.5754000000000004E-10, -2.5114299999999998E-06, 25
DataValue, 1.3250000000000001E-08, 179.0025, 3.56265E-10, -2.5280599999999997E-06, 25
DataValue, 2.4390000000000002E-08, 180.0045, 3.55892E-10, -2.7770399999999997E-06, 25
DataValue, 4.868E-08, 181.00050000000002, 3.5502800000000005E-10, -2.88132E-06, 25
DataValue, -3.909E-08, 182.001, 3.54168E-10, -2.7256299999999998E-06, 25
DataValue, -2.981E-08, 182.9985, 3.5316400000000003E-10, -2.83386E-06, 25
DataValue, 9.471E-08, 184.005, 3.5205700000000005E-10, -2.8235599999999997E-06, 25
DataValue, -8.579E-08, 184.995, 3.5084400000000003E-10, -3.3654199999999997E-06, 25
DataValue, 5.1960000000000003E-08, 186, 3.50298E-10, -2.9243299999999997E-06, 25
DataValue, -3.8690000000000004E-08, 187.002, 3.49202E-10, -3.1988899999999997E-06, 25
DataValue, -1.1740000000000001E-08, 188.0025, 3.4851200000000004E-10, -2.9477299999999997E-06, 25
DataValue, 3.6000000000000005E-10, 188.997, 3.47768E-10, -2.8413299999999998E-06, 25
DataValue, 2.232E-08, 189.999, 3.4695700000000004E-10, -3.12637E-06, 25
DataValue, -1.968E-08, 190.998, 3.4574700000000005E-10, -3.1451899999999997E-06, 25
DataValue, 2.6E-08, 191.9985, 3.44856E-10, -3.1455099999999996E-06, 25
DataValue, -5.1870000000000007E-08, 192.996, 3.4396E-10, -3.3311099999999996E-06, 25
DataValue, 1.909E-08, 193.9965, 3.4311400000000005E-10, -3.0428199999999996E-06, 25
DataValue, -3.229E-08, 194.9955, 3.42477E-10, -3.2797899999999996E-06, 25
DataValue, 6.610000000000001E-09, 196.002, 3.41355E-10, -3.2401899999999996E-06, 25
DataValue, -5.06E-09, 196.9995, 3.4062E-10, -3.2463299999999997E-06, 25
DataValue, -2.7950000000000002E-08, 198.0015, 3.3964600000000003E-10, -3.29858E-06, 25
DataValue, 5.9590000000000006E-08, 199.002, 3.3902000000000003E-10, -3.43376E-06, 25
DataValue, 4.52E-09, 199.9965, 3.3820600000000003E-10, -3.3952299999999997E-06, 25
DataValue, 8.6400000000000016E-09, 201.0015, 3.3740500000000004E-10, -3.43281E-06, 25
DataValue, 4.8730000000000007E-08, 202.00050000000002, 3.3653200000000004E-10, -3.3757599999999997E-06, 25
DataValue, -2.1370000000000002E-08, 202.9965, 3.35921E-10, -2.9527899999999996E-06, 25
DataValue, -3.427E-08, 204.0015, 3.35275E-10, -3.75487E-06, 25
DataValue, 2.4720000000000002E-08, 205.0035, 3.3411500000000004E-10, -3.5049299999999997E-06, 25
DataValue, -8.0160000000000011E-08, 206.001, 3.33353E-10, -3.5245199999999996E-06, 25
DataValue, 9.1530000000000013E-08, 206.9985, 3.3189200000000005E-10, -3.34588E-06, 25
DataValue, -1.2470000000000002E-08, 208.00050000000002, 3.3198100000000003E-10, -3.49994E-06, 25
DataValue, -1.3770000000000002E-08, 209.001, 3.3109700000000005E-10, -3.4710099999999997E-06, 25
DataValue, 1.511E-08, 209.9985, 3.30068E-10, -3.18385E-06, 25
DataValue, -2.9750000000000002E-08, 211.00050000000002, 3.2921500000000004E-10, -3.4321299999999997E-06, 25
DataValue, -6.669000000000001E-08, 211.998, 3.2859000000000005E-10, -3.56002E-06, 25
DataValue, 2.2070000000000002E-08, 212.997, 3.27862E-10, -3.7402399999999996E-06, 25
DataValue, -6.2310000000000007E-08, 213.999, 3.2753500000000005E-10, -3.3435099999999997E-06, 25
DataValue, 2.4580000000000002E-08, 214.9995, 3.2665400000000004E-10, -3.75406E-06, 25
DataValue, -5.4890000000000004E-08, 215.997, 3.26145E-10, -3.7351499999999997E-06, 25
DataValue, -2.0420000000000004E-08, 217.00050000000002, 3.2523100000000003E-10, -3.87271E-06, 25
DataValue, 2.6780000000000002E-08, 217.9995, 3.2426000000000003E-10, -3.89524E-06, 25
DataValue, -3.8680000000000006E-08, 218.997, 3.2382200000000004E-10, -3.7687799999999997E-06, 25
DataValue, -1.2150000000000001E-08, 220.002, 3.2285800000000004E-10, -3.6247299999999998E-06, 25
DataValue, 8.1900000000000009E-09, 220.9965, 3.22576E-10, -3.33855E-06, 25
DataValue, -2.033E-08, 221.997, 3.2158000000000004E-10, -3.7358999999999997E-06, 25
DataValue, 3.1390000000000005E-08, 223.00050000000002, 3.20752E-10, -3.70493E-06, 25
DataValue, -2.326E-08, 223.9995, 3.20439E-10, -3.87055E-06, 25
DataValue, -5.1890000000000003E-08, 225.00300000000001, 3.19245E-10, -3.8527699999999994E-06, 25
DataValue, 8.9720000000000012E-08, 225.999, 3.1859600000000003E-10, -3.8446E-06, 25
DataValue, -5.556E-08, 226.9935, 3.17882E-10, -3.8702199999999995E-06, 25
DataValue, 7.1430000000000012E-08, 227.9925, 3.1729400000000003E-10, -3.7738999999999996E-06, 25
DataValue, -7.3500000000000005E-09, 229.00050000000002, 3.1654800000000004E-10, -3.86585E-06, 25
DataValue, -1.8960000000000002E-08, 230.0025, 3.1620400000000004E-10, -3.86323E-06, 25
DataValue, 7.486000000000001E-08, 231.0075, 3.15417E-10, -3.92257E-06, 25
DataValue, -2.3420000000000004E-08, 232.00650000000002, 3.1475100000000003E-10, -3.94998E-06, 25
DataValue, 2.3580000000000003E-08, 232.99800000000002, 3.13904E-10, -3.89644E-06, 25
DataValue, 5.4760000000000009E-08, 234.0045, 3.13526E-10, -3.69516E-06, 25
DataValue, -5.9100000000000006E-08, 234.999, 3.12501E-10, -3.86939E-06, 25
DataValue, 5.5920000000000007E-08, 235.9965, 3.1235400000000005E-10, -4.24422E-06, 25
