
SetupTitle, Cds
ApplicationTest, Cds, Public
TestParameter, Name, Memo, IntegTime, Frequency, OscLevel, Scale, Drain, VdBias, VdStart, VdStop, VdLinearStep, IdLimit, HoldTime, DelayTime, IdMinRange
TestParameter, Value, , SHORT, 1000000, 0.025, LINEAR, CMU1:MF	MFCMU, SMU6:HV	HVSMU, 0, 1000, 1, 0.004, 0, 0.08, 10uA
DutParameter, Name, Polarity, Temp, YAxisCdsMin, YAxisCdsMax
DutParameter, Value, 1, 25, 1E-12, 1E-09
MetaData, TestRecord.EntryPoint, true
MetaData, TestRecord.RecordTime, 12/27/2020 09:21:31
MetaData, TestRecord.TestTarget, 
MetaData, TestRecord.IterationIndex, 7
MetaData, TestRecord.Preservation, true
MetaData, TestRecord.Flag, 
MetaData, TestRecord.Remarks, 
MetaData, TestRecord.LinkKey, 5658dbbc-8584-4078-b9fd-4ae24696060b
Dimension1, 1001, 1001, 1001, 1001, 1001
Dimension2, 1, 1, 1, 1, 1
DataName, Ids, Vdrain, Cds, G, Ta
DataValue, -4.736E-08, 0.0015, 1.07978E-09, -0.00156927, 25
DataValue, -7.190000000000001E-09, 1.0035, 9.3819800000000011E-10, -0.00136239, 25
DataValue, -5.3800000000000009E-09, 1.9965, 8.453400000000001E-10, -0.0012304500000000001, 25
DataValue, 3.3490000000000004E-08, 3.0045, 7.76919E-10, -0.00113276, 25
DataValue, -6.2230000000000009E-08, 3.9975, 7.2319500000000011E-10, -0.0010561, 25
DataValue, 5.3650000000000007E-08, 5.001, 6.7946E-10, -0.000992348, 25
DataValue, 7.1000000000000007E-09, 6, 6.426920000000001E-10, -0.000938848, 25
DataValue, -6.846E-08, 6.9990000000000006, 6.11035E-10, -0.00089326400000000006, 25
DataValue, -2.0200000000000002E-08, 8.001, 5.8289300000000007E-10, -0.00085259200000000011, 25
DataValue, -5.0680000000000008E-08, 9.0015, 5.5537E-10, -0.000809687, 25
DataValue, -1.5780000000000003E-08, 10.0005, 5.1684300000000007E-10, -0.000673083, 25
DataValue, -4.4300000000000006E-09, 10.996500000000001, 4.73448E-10, -0.000679056, 25
DataValue, -4.628E-08, 12.0015, 4.5608000000000004E-10, -0.00065404800000000006, 25
DataValue, -3.222E-08, 13.002, 4.4121700000000003E-10, -0.00063270200000000007, 25
DataValue, -6.5370000000000009E-08, 13.996500000000001, 4.2802100000000005E-10, -0.000614204, 25
DataValue, -1.3990000000000002E-08, 14.9985, 4.1603E-10, -0.000597397, 25
DataValue, 2.9790000000000004E-08, 16.0035, 4.0523900000000003E-10, -0.00058207000000000007, 25
DataValue, -2.544E-08, 16.9995, 3.9514100000000005E-10, -0.000567841, 25
DataValue, 2.1790000000000002E-08, 18.0015, 3.8590000000000003E-10, -0.00055461500000000006, 25
DataValue, -1.862E-08, 18.9975, 3.77444E-10, -0.000543236, 25
DataValue, 1.694E-08, 19.995, 3.69398E-10, -0.00053114900000000007, 25
DataValue, 2.2130000000000004E-08, 21, 3.6192600000000003E-10, -0.00052111600000000007, 25
DataValue, 1.0380000000000001E-08, 22.002, 3.5489400000000004E-10, -0.000511143, 25
DataValue, -1.2150000000000001E-08, 23.001, 3.4825E-10, -0.00050145000000000007, 25
DataValue, -1.9080000000000003E-08, 24.003, 3.4213100000000005E-10, -0.000493312, 25
DataValue, 1.4880000000000002E-08, 25.0005, 3.36174E-10, -0.000484686, 25
DataValue, 3.326E-08, 25.995, 3.30696E-10, -0.00047679300000000004, 25
DataValue, 6.29E-09, 27.003, 3.25284E-10, -0.000469661, 25
DataValue, -1.9E-09, 28.002, 3.20232E-10, -0.000462248, 25
DataValue, 1.9530000000000003E-08, 29.0025, 3.15507E-10, -0.000456175, 25
DataValue, 2.6910000000000004E-08, 30, 3.1084100000000004E-10, -0.000448975, 25
DataValue, -1.5470000000000002E-08, 30.999000000000002, 3.06438E-10, -0.000443133, 25
DataValue, -6.847E-08, 31.998, 3.02244E-10, -0.000436763, 25
DataValue, -4.4060000000000005E-08, 33.0015, 2.982E-10, -0.00043119, 25
DataValue, -1.396E-08, 33.9975, 2.94408E-10, -0.00042617100000000004, 25
DataValue, -5.7330000000000004E-08, 35.0025, 2.90732E-10, -0.00042104500000000005, 25
DataValue, 8.4930000000000007E-08, 36.003, 2.8717300000000003E-10, -0.000415603, 25
DataValue, -5.7900000000000009E-09, 37.002, 2.83713E-10, -0.00041121800000000003, 25
DataValue, 3.025E-08, 37.998, 2.80489E-10, -0.000406459, 25
DataValue, 1.4580000000000002E-08, 39, 2.77283E-10, -0.000402262, 25
DataValue, 1.8280000000000002E-08, 39.999, 2.74274E-10, -0.00039809700000000003, 25
DataValue, 3.651E-08, 41.0025, 2.71266E-10, -0.00039394900000000005, 25
DataValue, 4.4920000000000008E-08, 42.0075, 2.6843700000000003E-10, -0.000389519, 25
DataValue, 1.818E-08, 43.0005, 2.6570100000000003E-10, -0.000385626, 25
DataValue, 8.55E-09, 44.0025, 2.62967E-10, -0.000382021, 25
DataValue, 1.361E-08, 45.0015, 2.6040500000000004E-10, -0.00037837, 25
DataValue, 5.3950000000000003E-08, 46.0005, 2.5781900000000004E-10, -0.000374925, 25
DataValue, -2.5880000000000004E-08, 46.9965, 2.55429E-10, -0.000371082, 25
DataValue, 3.36E-08, 48.0015, 2.53115E-10, -0.00036805100000000004, 25
DataValue, 8.8350000000000007E-08, 49.005, 2.5076200000000004E-10, -0.00036503, 25
DataValue, -1.0850000000000001E-08, 49.993500000000004, 2.4853E-10, -0.000361776, 25
DataValue, -9.830000000000001E-09, 51.003, 2.4631300000000003E-10, -0.000358406, 25
DataValue, 2.176E-08, 52.005, 2.44184E-10, -0.000355455, 25
DataValue, 1.7750000000000003E-08, 52.998, 2.4213100000000003E-10, -0.00035287400000000004, 25
DataValue, -3.452E-08, 54, 2.40049E-10, -0.00035005800000000004, 25
DataValue, -2.1170000000000004E-08, 55.0005, 2.38127E-10, -0.000347003, 25
DataValue, 1.348E-08, 55.999500000000005, 2.36246E-10, -0.00034446700000000005, 25
DataValue, -1.698E-08, 57.0015, 2.3437600000000004E-10, -0.000342059, 25
DataValue, -7.8890000000000014E-08, 58.0005, 2.32519E-10, -0.00033937400000000003, 25
DataValue, -5.186E-08, 59.0025, 2.3074600000000002E-10, -0.000336662, 25
DataValue, -1.4500000000000002E-09, 59.9985, 2.2896900000000003E-10, -0.000334431, 25
DataValue, -1.2030000000000001E-08, 61.002, 2.2735900000000002E-10, -0.000332102, 25
DataValue, -1.8700000000000002E-08, 61.998000000000005, 2.2565900000000002E-10, -0.00032956200000000004, 25
DataValue, -3.13E-09, 63, 2.2406800000000002E-10, -0.000326958, 25
DataValue, -5.4710000000000005E-08, 63.9975, 2.2249300000000003E-10, -0.000325147, 25
DataValue, -4.38E-09, 65.0025, 2.2094400000000002E-10, -0.00032268300000000004, 25
DataValue, -1.6320000000000003E-08, 66.004500000000007, 2.1949200000000003E-10, -0.000320964, 25
DataValue, 1.9480000000000003E-08, 67.005, 2.1789800000000003E-10, -0.000319094, 25
DataValue, -2.8230000000000002E-08, 67.9995, 2.16468E-10, -0.00031731200000000004, 25
DataValue, 5.1800000000000007E-08, 69.001500000000007, 2.14973E-10, -0.00031470200000000004, 25
DataValue, 9.0100000000000009E-09, 69.996, 2.1363000000000002E-10, -0.000312451, 25
DataValue, 3.958E-08, 71.001, 2.12279E-10, -0.000310766, 25
DataValue, 2.715E-08, 72.001500000000007, 2.1093400000000002E-10, -0.00030908000000000004, 25
DataValue, -5.6200000000000009E-09, 73.002, 2.09612E-10, -0.000307457, 25
DataValue, 3.7190000000000004E-08, 74.004, 2.0831300000000003E-10, -0.00030569200000000004, 25
DataValue, 2.6780000000000002E-08, 75, 2.0718200000000002E-10, -0.00030359900000000005, 25
DataValue, 5.8060000000000005E-08, 76.005, 2.0587100000000002E-10, -0.00030209400000000004, 25
DataValue, 1.6400000000000001E-09, 76.998, 2.0462300000000001E-10, -0.000300351, 25
DataValue, 6.428E-08, 78.003, 2.0348200000000002E-10, -0.000298601, 25
DataValue, 2.2460000000000004E-08, 78.999, 2.0225800000000002E-10, -0.000297087, 25
DataValue, -1.5870000000000002E-08, 79.9995, 2.01109E-10, -0.00029497700000000003, 25
DataValue, 1.3510000000000002E-08, 81.003, 2.0003200000000002E-10, -0.00029315900000000003, 25
DataValue, -3.277E-08, 81.996, 1.98933E-10, -0.000292499, 25
DataValue, -6.715E-08, 82.998, 1.9774800000000002E-10, -0.00029042, 25
DataValue, -7.81E-09, 83.9955, 1.96664E-10, -0.000289226, 25
DataValue, -4.32E-08, 85.0005, 1.9569500000000002E-10, -0.000287745, 25
DataValue, 1.5420000000000002E-08, 86.001, 1.9461600000000001E-10, -0.000285949, 25
DataValue, -7.020000000000001E-09, 87.001500000000007, 1.9364900000000002E-10, -0.000284733, 25
DataValue, -3.73E-08, 88.0005, 1.9253800000000002E-10, -0.00028314700000000003, 25
DataValue, 2.476E-08, 88.9995, 1.91653E-10, -0.000281847, 25
DataValue, 1.9530000000000003E-08, 90, 1.9073200000000001E-10, -0.000280459, 25
DataValue, 3.6840000000000004E-08, 91.0005, 1.89665E-10, -0.000279459, 25
DataValue, 1.1240000000000002E-08, 92.001, 1.8882800000000002E-10, -0.000277916, 25
DataValue, 8.9900000000000014E-09, 92.9985, 1.87827E-10, -0.00027646400000000003, 25
DataValue, -2.8350000000000002E-08, 93.9975, 1.8691E-10, -0.000275713, 25
DataValue, 2.7470000000000004E-08, 94.9995, 1.85998E-10, -0.000273914, 25
DataValue, 2.2820000000000002E-08, 96, 1.8508000000000002E-10, -0.000272889, 25
DataValue, -3.001E-08, 97.0005, 1.8406200000000003E-10, -0.000271948, 25
DataValue, 3.839E-08, 98.0025, 1.83382E-10, -0.000270535, 25
DataValue, 4.966E-08, 98.9985, 1.8258800000000002E-10, -0.000269387, 25
DataValue, -3.7400000000000007E-09, 99.996, 1.8171E-10, -0.00026812900000000003, 25
DataValue, 8.9000000000000013E-10, 101.0025, 1.80845E-10, -0.00026663, 25
DataValue, -3.8690000000000004E-08, 101.9955, 1.8007500000000002E-10, -0.00026568100000000003, 25
DataValue, -6.101E-08, 103.0035, 1.7927900000000002E-10, -0.000264389, 25
DataValue, -1.238E-08, 103.9995, 1.7853E-10, -0.0002637, 25
DataValue, 2.7830000000000002E-08, 105.003, 1.7772700000000002E-10, -0.000262137, 25
DataValue, 2.3110000000000003E-08, 105.996, 1.76957E-10, -0.000261079, 25
DataValue, 1.4150000000000001E-08, 106.9995, 1.76117E-10, -0.00025976, 25
DataValue, -2.3200000000000003E-09, 108, 1.75532E-10, -0.000259151, 25
DataValue, -3.25E-09, 108.99600000000001, 1.7477200000000003E-10, -0.00025816900000000004, 25
DataValue, 1.834E-08, 109.9965, 1.73911E-10, -0.000257079, 25
DataValue, 2.6720000000000004E-08, 110.994, 1.7325500000000001E-10, -0.000256404, 25
DataValue, 6.458E-08, 112.002, 1.72601E-10, -0.000255293, 25
DataValue, 1.495E-08, 112.9995, 1.71883E-10, -0.000254296, 25
DataValue, 1.7530000000000002E-08, 114.003, 1.71269E-10, -0.000253653, 25
DataValue, 6.0100000000000005E-09, 115.0005, 1.7047700000000002E-10, -0.000251835, 25
DataValue, 2.4540000000000003E-08, 116.0025, 1.69852E-10, -0.00025115, 25
DataValue, -6.995E-08, 116.997, 1.6916600000000001E-10, -0.000250076, 25
DataValue, -1.245E-08, 118.0035, 1.6853700000000002E-10, -0.00024899700000000004, 25
DataValue, 1.7E-10, 119.0025, 1.67861E-10, -0.000248073, 25
DataValue, 7.9000000000000006E-10, 119.994, 1.6728000000000002E-10, -0.00024713000000000003, 25
DataValue, -8.82E-09, 121.00200000000001, 1.66683E-10, -0.000246668, 25
DataValue, 8.8420000000000007E-08, 122.001, 1.6594500000000002E-10, -0.000245063, 25
DataValue, 1.4820000000000001E-08, 123, 1.6544300000000003E-10, -0.00024492700000000004, 25
DataValue, 1.4780000000000002E-08, 124.0035, 1.64741E-10, -0.00024396400000000002, 25
DataValue, 2.256E-08, 125.001, 1.64236E-10, -0.000242865, 25
DataValue, 1.773E-08, 126, 1.63575E-10, -0.0002424, 25
DataValue, 3.3980000000000004E-08, 127.0035, 1.6299000000000002E-10, -0.00024096700000000003, 25
DataValue, -4.3300000000000006E-09, 128.004, 1.6241E-10, -0.000240243, 25
DataValue, 2.3100000000000002E-08, 129.0015, 1.61791E-10, -0.00023973100000000003, 25
DataValue, -4.8910000000000006E-08, 130.0035, 1.61256E-10, -0.00023897800000000002, 25
DataValue, -3.8830000000000004E-08, 130.9995, 1.6073300000000002E-10, -0.000238363, 25
DataValue, 4.107E-08, 132, 1.6016900000000002E-10, -0.00023719300000000002, 25
DataValue, 3.884E-08, 133.00650000000002, 1.5964E-10, -0.000236478, 25
DataValue, -2.647E-08, 133.998, 1.5910800000000002E-10, -0.00023587100000000002, 25
DataValue, -1.5680000000000002E-08, 135.0045, 1.5854200000000002E-10, -0.00023495900000000003, 25
DataValue, 4.094E-08, 136.00050000000002, 1.5814700000000002E-10, -0.000233672, 25
DataValue, 2.4000000000000004E-09, 136.998, 1.57528E-10, -0.000233119, 25
DataValue, 7.042E-08, 138.00300000000001, 1.56952E-10, -0.000232501, 25
DataValue, 5.7580000000000003E-08, 139.0035, 1.5651E-10, -0.00023156700000000001, 25
DataValue, -7.980000000000001E-09, 139.998, 1.5598000000000001E-10, -0.00023146200000000001, 25
DataValue, 2.6200000000000005E-09, 140.9985, 1.55434E-10, -0.000230024, 25
DataValue, 9.17E-09, 142.002, 1.54952E-10, -0.00022978200000000002, 25
DataValue, 6.799E-08, 143.001, 1.54514E-10, -0.00022885800000000002, 25
DataValue, 4.059E-08, 143.9985, 1.5407900000000002E-10, -0.000228518, 25
DataValue, 6.016E-08, 145.002, 1.5348000000000002E-10, -0.00022769600000000002, 25
DataValue, -2.6090000000000004E-08, 145.998, 1.53059E-10, -0.000226989, 25
DataValue, -1.834E-08, 146.9985, 1.52599E-10, -0.00022642700000000002, 25
DataValue, -1.266E-08, 148.002, 1.5211E-10, -0.00022569400000000003, 25
DataValue, -4.9570000000000006E-08, 148.9995, 1.5167400000000001E-10, -0.00022508300000000003, 25
DataValue, 2.272E-08, 150.0075, 1.5122000000000002E-10, -0.000224371, 25
DataValue, -2.3630000000000004E-08, 151.002, 1.50776E-10, -0.00022360200000000002, 25
DataValue, -8.01E-09, 151.9995, 1.5030300000000001E-10, -0.00022316700000000003, 25
DataValue, -2.4610000000000003E-08, 152.9955, 1.4985400000000001E-10, -0.000221981, 25
DataValue, 4.5840000000000005E-08, 154.00050000000002, 1.49486E-10, -0.000221713, 25
DataValue, -3.951E-08, 155.001, 1.49082E-10, -0.00022123200000000003, 25
DataValue, -5.81E-09, 155.9985, 1.4854100000000002E-10, -0.00022027300000000002, 25
DataValue, -2.1380000000000004E-08, 157.0035, 1.48114E-10, -0.000219969, 25
DataValue, -2.8800000000000004E-09, 157.9965, 1.4776400000000002E-10, -0.000219289, 25
DataValue, -2.2870000000000002E-08, 158.9985, 1.4732100000000002E-10, -0.00021803800000000002, 25
DataValue, 1.1170000000000002E-08, 160.002, 1.469E-10, -0.000218323, 25
DataValue, 3.0560000000000004E-08, 160.998, 1.46568E-10, -0.000217354, 25
DataValue, 1.0490000000000002E-08, 162, 1.46101E-10, -0.00021675600000000002, 25
DataValue, -4.48E-09, 162.996, 1.45746E-10, -0.00021623100000000002, 25
DataValue, 1.501E-08, 163.9995, 1.4528600000000001E-10, -0.00021607100000000003, 25
DataValue, -4.509E-08, 165, 1.4489200000000002E-10, -0.00021506400000000003, 25
DataValue, -1.9900000000000004E-09, 166.0035, 1.4448800000000002E-10, -0.00021481400000000002, 25
DataValue, -1.8870000000000003E-08, 166.9965, 1.4413900000000002E-10, -0.000214083, 25
DataValue, -3.175E-08, 168.0015, 1.43745E-10, -0.00021347800000000002, 25
DataValue, -1.4500000000000002E-09, 169.00050000000002, 1.43369E-10, -0.00021283, 25
DataValue, -1.647E-08, 169.9965, 1.4304100000000001E-10, -0.000212319, 25
DataValue, 4.7020000000000007E-08, 171, 1.4252600000000002E-10, -0.000211601, 25
DataValue, 5.0200000000000004E-09, 172.002, 1.42218E-10, -0.000211706, 25
DataValue, 2.2950000000000004E-08, 173.001, 1.4191200000000002E-10, -0.00021045900000000003, 25
DataValue, -8.07E-09, 174.0015, 1.41594E-10, -0.000210745, 25
DataValue, -7.1300000000000008E-09, 175.002, 1.41111E-10, -0.000209738, 25
DataValue, -6.5E-10, 175.998, 1.40799E-10, -0.00020912100000000002, 25
DataValue, -1.6760000000000003E-08, 176.997, 1.40427E-10, -0.000208301, 25
DataValue, -1.068E-08, 178.00050000000002, 1.4003400000000002E-10, -0.00020839, 25
DataValue, -2.3480000000000002E-08, 178.9995, 1.3973300000000002E-10, -0.000207614, 25
DataValue, 5.0500000000000006E-09, 180.0015, 1.39388E-10, -0.000206894, 25
DataValue, -4.86E-09, 181.002, 1.38997E-10, -0.00020638700000000002, 25
DataValue, 3.793E-08, 182.0025, 1.3875E-10, -0.00020597100000000002, 25
DataValue, 3.3800000000000005E-08, 183.0015, 1.3834E-10, -0.0002055, 25
DataValue, 1.565E-08, 183.999, 1.38072E-10, -0.00020498300000000003, 25
DataValue, -8.89E-09, 185.001, 1.37739E-10, -0.00020476400000000002, 25
DataValue, 1.375E-08, 186.0015, 1.37426E-10, -0.00020456600000000002, 25
DataValue, -3.0940000000000004E-08, 186.996, 1.37034E-10, -0.000203673, 25
DataValue, -2.9150000000000003E-08, 187.9995, 1.3676E-10, -0.000203341, 25
DataValue, -4.5700000000000006E-09, 188.997, 1.36384E-10, -0.00020294800000000002, 25
DataValue, -3.2300000000000005E-08, 190.002, 1.36203E-10, -0.00020216, 25
DataValue, -6.144E-08, 190.9965, 1.35772E-10, -0.00020162200000000002, 25
DataValue, -4.537E-08, 191.9985, 1.3552900000000001E-10, -0.000201585, 25
DataValue, -2.9160000000000004E-08, 193.00650000000002, 1.3516500000000002E-10, -0.000200812, 25
DataValue, -2.75E-08, 194.004, 1.34866E-10, -0.000200475, 25
DataValue, 4.11E-09, 194.997, 1.34539E-10, -0.000200582, 25
DataValue, -4.1370000000000006E-08, 195.9975, 1.3427000000000002E-10, -0.000199642, 25
DataValue, -1.649E-08, 197.004, 1.3387E-10, -0.000199251, 25
DataValue, -2.4530000000000002E-08, 197.9985, 1.3362200000000002E-10, -0.000198853, 25
DataValue, 5.0090000000000007E-08, 199.0035, 1.3334800000000002E-10, -0.000198545, 25
DataValue, -5.1540000000000004E-08, 199.9965, 1.33091E-10, -0.00019822900000000002, 25
DataValue, 4.9970000000000003E-08, 201, 1.3271500000000002E-10, -0.000197388, 25
DataValue, 4.0640000000000005E-08, 202.0035, 1.32512E-10, -0.000197178, 25
DataValue, 6.8780000000000011E-08, 203.001, 1.32129E-10, -0.00019674500000000001, 25
DataValue, 1.4100000000000002E-08, 204.0015, 1.3188100000000002E-10, -0.00019618900000000002, 25
DataValue, 5.2330000000000006E-08, 205.00050000000002, 1.31593E-10, -0.00019600200000000003, 25
DataValue, -3.3420000000000004E-08, 205.998, 1.3131700000000002E-10, -0.000195519, 25
DataValue, -4.4700000000000005E-09, 207.00300000000001, 1.31044E-10, -0.000194818, 25
DataValue, -1.7180000000000002E-08, 207.996, 1.30721E-10, -0.000194346, 25
DataValue, -1.54E-09, 209.001, 1.3052E-10, -0.000194162, 25
DataValue, -5.9630000000000012E-08, 209.997, 1.30216E-10, -0.000193529, 25
DataValue, -4.537E-08, 210.9975, 1.2994900000000002E-10, -0.00019364700000000003, 25
DataValue, -2.9240000000000002E-08, 211.998, 1.2967200000000002E-10, -0.00019272600000000003, 25
DataValue, -7.4500000000000005E-09, 212.997, 1.2939100000000001E-10, -0.00019242100000000002, 25
DataValue, -5.4900000000000009E-08, 214.002, 1.2907500000000002E-10, -0.000192033, 25
DataValue, 1.2960000000000002E-08, 215.0025, 1.28892E-10, -0.00019154100000000002, 25
DataValue, -1.1720000000000002E-07, 215.997, 1.28651E-10, -0.000191503, 25
DataValue, -3.2410000000000004E-08, 217.00050000000002, 1.28357E-10, -0.000190418, 25
DataValue, -4.4270000000000005E-08, 217.9965, 1.28076E-10, -0.00019069, 25
DataValue, -7.0400000000000008E-08, 218.9985, 1.2783100000000002E-10, -0.000189933, 25
DataValue, -1.1920000000000002E-08, 220.002, 1.2759600000000002E-10, -0.000189891, 25
DataValue, -1.348E-08, 221.004, 1.27317E-10, -0.00018904200000000002, 25
DataValue, 1.93E-08, 222, 1.27054E-10, -0.00018902300000000002, 25
DataValue, -4.5550000000000008E-08, 222.999, 1.2673700000000002E-10, -0.00018851300000000002, 25
DataValue, 2.7600000000000004E-09, 223.9995, 1.26543E-10, -0.000188235, 25
DataValue, -3.0690000000000005E-08, 225, 1.2637800000000002E-10, -0.000188528, 25
DataValue, 1.2560000000000001E-08, 226.00050000000002, 1.2613100000000002E-10, -0.00018745, 25
DataValue, -2.082E-08, 226.9995, 1.2583600000000002E-10, -0.0001873, 25
DataValue, 3.7050000000000004E-08, 228, 1.2559200000000002E-10, -0.000186889, 25
DataValue, -3.9410000000000007E-08, 229.00050000000002, 1.25347E-10, -0.00018673300000000002, 25
DataValue, -2.4180000000000002E-08, 229.9995, 1.2516100000000002E-10, -0.000186602, 25
DataValue, 2.23E-08, 231.0015, 1.2487500000000002E-10, -0.000185608, 25
DataValue, 9.04E-09, 232.00050000000002, 1.24663E-10, -0.000185374, 25
DataValue, 2.983E-08, 232.995, 1.24376E-10, -0.00018552300000000002, 25
DataValue, 1.2460000000000002E-08, 234, 1.24184E-10, -0.00018474000000000002, 25
DataValue, -2.4730000000000004E-08, 235.002, 1.2394000000000001E-10, -0.000184828, 25
DataValue, 3.515E-08, 236.0055, 1.2373000000000002E-10, -0.00018409, 25
DataValue, -3.5480000000000004E-08, 236.997, 1.23468E-10, -0.00018430100000000002, 25
