
SetupTitle, Cds
ApplicationTest, Cds, Public
TestParameter, Name, Memo, IntegTime, Frequency, OscLevel, Scale, Drain, VdBias, VdStart, VdStop, VdLinearStep, IdLimit, HoldTime, DelayTime, IdMinRange
TestParameter, Value, , SHORT, 100000, 0.025, LINEAR, CMU1:MF	MFCMU, SMU6:HV	HVSMU, 0, 1000, 1, 0.004, 0, 0.08, 10uA
DutParameter, Name, Polarity, Temp, YAxisCdsMin, YAxisCdsMax
DutParameter, Value, 1, 25, 1E-12, 1E-09
MetaData, TestRecord.EntryPoint, true
MetaData, TestRecord.RecordTime, 04/22/2021 09:31:12
MetaData, TestRecord.TestTarget, 
MetaData, TestRecord.IterationIndex, 21
MetaData, TestRecord.Preservation, true
MetaData, TestRecord.Flag, 
MetaData, TestRecord.Remarks, 
MetaData, TestRecord.LinkKey, 03ec7f9b-1574-4385-9561-50f62ed40ccb
Dimension1, 1001, 1001, 1001, 1001, 1001
Dimension2, 1, 1, 1, 1, 1
DataName, Ids, Vdrain, Cds, G, Ta
DataValue, -2.67E-09, -0.0015, 1.75039E-09, -2.4830300000000002E-05, 25
DataValue, -4.2830000000000007E-08, 0.999, 1.39258E-09, -2.20649E-05, 25
DataValue, -3.7080000000000005E-08, 2.001, 1.233E-09, -1.88055E-05, 25
DataValue, 6.553E-08, 3.0015, 1.12844E-09, -1.7332E-05, 25
DataValue, -5.5950000000000008E-08, 4.002, 1.04966E-09, -1.6013600000000002E-05, 25
DataValue, -4.0050000000000005E-08, 4.9995, 9.82267E-10, -1.516E-05, 25
DataValue, 2.242E-08, 5.994, 9.2709100000000006E-10, -1.40519E-05, 25
DataValue, -3.7670000000000006E-08, 7.0005, 8.7875800000000006E-10, -1.4041600000000001E-05, 25
DataValue, 1.4487000000000003E-07, 8.004, 8.3531300000000011E-10, -1.26846E-05, 25
DataValue, 1.136E-08, 8.9985, 7.9634000000000006E-10, -1.2243800000000001E-05, 25
DataValue, -9.3490000000000012E-08, 9.999, 7.6054100000000005E-10, -1.20147E-05, 25
DataValue, 4.9150000000000007E-08, 10.998000000000001, 7.2686500000000005E-10, -1.1521400000000001E-05, 25
DataValue, -5.5430000000000007E-08, 12.0015, 6.9426300000000007E-10, -1.12427E-05, 25
DataValue, -5.7680000000000004E-08, 12.996, 6.64438E-10, -1.0442100000000001E-05, 25
DataValue, 8.258E-08, 13.999500000000001, 6.28373E-10, -9.6561199999999986E-06, 25
DataValue, -6.0100000000000005E-09, 15.0015, 5.52563E-10, -8.50842E-06, 25
DataValue, 1.0089000000000001E-07, 15.999, 5.2665600000000009E-10, -8.43989E-06, 25
DataValue, 3.0240000000000005E-08, 16.998, 5.08553E-10, -8.17835E-06, 25
DataValue, -2.3290000000000002E-08, 18.0015, 4.92613E-10, -7.5482499999999993E-06, 25
DataValue, 1.0191E-07, 18.9975, 4.77788E-10, -7.5447E-06, 25
DataValue, -4.6130000000000003E-08, 19.9965, 4.65437E-10, -6.9144499999999995E-06, 25
DataValue, -1.026E-08, 21, 4.5393300000000003E-10, -6.55172E-06, 25
DataValue, 2.1070000000000003E-08, 22.0035, 4.44066E-10, -7.26351E-06, 25
DataValue, 4.799E-08, 22.9995, 4.3361300000000004E-10, -6.41262E-06, 25
DataValue, -1.0614000000000001E-07, 23.997, 4.2492200000000003E-10, -6.92625E-06, 25
DataValue, 9.029000000000001E-08, 25.0005, 4.1637700000000004E-10, -6.81368E-06, 25
DataValue, 4.6980000000000008E-08, 26.0025, 4.0847000000000004E-10, -6.0804099999999993E-06, 25
DataValue, -9.185E-08, 26.9985, 4.00879E-10, -6.1131499999999992E-06, 25
DataValue, 5.9290000000000004E-08, 27.999000000000002, 3.94033E-10, -6.25588E-06, 25
DataValue, -5.242E-08, 28.9995, 3.8758900000000005E-10, -5.81337E-06, 25
DataValue, -6.2210000000000012E-08, 30.003, 3.8060900000000003E-10, -5.9569699999999995E-06, 25
DataValue, 8.8350000000000007E-08, 31.002, 3.7449E-10, -6.013E-06, 25
DataValue, -8.076E-08, 32.001, 3.69096E-10, -5.91162E-06, 25
DataValue, 7.2330000000000013E-08, 33, 3.6383800000000004E-10, -5.76218E-06, 25
DataValue, 3.1490000000000006E-08, 33.9975, 3.5855400000000005E-10, -5.82894E-06, 25
DataValue, -6.932E-08, 35.001, 3.5372000000000005E-10, -5.5708399999999995E-06, 25
DataValue, 4.4800000000000004E-08, 36, 3.48701E-10, -5.76403E-06, 25
DataValue, -3.281E-08, 36.999, 3.4448800000000005E-10, -5.86356E-06, 25
DataValue, -5.022E-08, 38.001, 3.3971400000000004E-10, -5.12943E-06, 25
DataValue, 1.4134000000000002E-07, 39, 3.3585800000000005E-10, -5.29432E-06, 25
DataValue, -2.1850000000000004E-08, 40.002, 3.31226E-10, -5.7915599999999995E-06, 25
DataValue, 5.7390000000000006E-08, 40.9965, 3.2840300000000005E-10, -5.36981E-06, 25
DataValue, -2.3930000000000003E-08, 41.994, 3.24872E-10, -4.89476E-06, 25
DataValue, -1.1929E-07, 43.002, 3.2086800000000003E-10, -4.78508E-06, 25
DataValue, 4.4820000000000007E-08, 43.995, 3.17236E-10, -5.0546299999999994E-06, 25
DataValue, -1.7090000000000003E-08, 44.9985, 3.1382400000000004E-10, -4.8904799999999995E-06, 25
DataValue, -4.2200000000000007E-08, 45.996, 3.1101600000000005E-10, -5.0611199999999994E-06, 25
DataValue, 8.8280000000000007E-08, 47.004, 3.06889E-10, -4.47675E-06, 25
DataValue, -5.1120000000000004E-08, 48.0045, 3.04535E-10, -5.3026899999999994E-06, 25
DataValue, -1.7900000000000002E-09, 49.0005, 3.00937E-10, -4.5879199999999994E-06, 25
DataValue, 2.7250000000000002E-08, 50.004, 2.9831700000000004E-10, -5.33322E-06, 25
DataValue, 1.8000000000000003E-10, 51.0045, 2.95855E-10, -4.25781E-06, 25
DataValue, 1.3406000000000002E-07, 52.0005, 2.9277300000000004E-10, -4.13473E-06, 25
DataValue, -1.5800000000000001E-09, 52.998, 2.9043500000000004E-10, -4.71751E-06, 25
DataValue, -2.1500000000000002E-09, 54.003, 2.88152E-10, -4.49414E-06, 25
DataValue, 1.3065000000000002E-07, 55.0035, 2.855E-10, -4.5508699999999995E-06, 25
DataValue, -5.0800000000000005E-08, 55.995000000000005, 2.82174E-10, -4.0542999999999995E-06, 25
DataValue, 2.7000000000000005E-10, 57.0015, 2.7991900000000004E-10, -4.20623E-06, 25
DataValue, 5.0980000000000004E-08, 57.999, 2.7817700000000004E-10, -4.49842E-06, 25
DataValue, -1.075E-08, 58.999500000000005, 2.7595800000000003E-10, -4.83143E-06, 25
DataValue, 1.1817000000000002E-07, 60.0015, 2.7368600000000003E-10, -3.9341499999999994E-06, 25
DataValue, 1.0490000000000002E-08, 61.005, 2.7213700000000003E-10, -4.4292E-06, 25
DataValue, -9.6930000000000008E-08, 62.001000000000005, 2.6961800000000003E-10, -3.7491999999999996E-06, 25
DataValue, 1.4217E-07, 63.003, 2.67354E-10, -4.00455E-06, 25
DataValue, -5.3940000000000005E-08, 64.0005, 2.65777E-10, -3.74763E-06, 25
DataValue, -4.2000000000000005E-10, 64.9995, 2.6359800000000003E-10, -4.4964799999999995E-06, 25
DataValue, 5.8050000000000007E-08, 66.001500000000007, 2.62312E-10, -4.1274099999999995E-06, 25
DataValue, -2.6340000000000003E-08, 67.0005, 2.59763E-10, -4.18009E-06, 25
DataValue, 1.4921000000000002E-07, 67.9995, 2.58058E-10, -4.2837999999999995E-06, 25
DataValue, -2.0160000000000003E-08, 69.001500000000007, 2.55591E-10, -4.14029E-06, 25
DataValue, -8.0030000000000009E-08, 69.9975, 2.54386E-10, -3.64534E-06, 25
DataValue, 2.7160000000000003E-08, 70.998, 2.53653E-10, -3.63173E-06, 25
DataValue, -1.4070000000000001E-08, 71.9985, 2.5181600000000003E-10, -3.9657E-06, 25
DataValue, 1.808E-08, 72.9975, 2.49415E-10, -3.88064E-06, 25
DataValue, 8.7620000000000013E-08, 73.9995, 2.47825E-10, -4.2338E-06, 25
DataValue, -3.5680000000000006E-08, 74.997, 2.46873E-10, -3.88599E-06, 25
DataValue, 5.437E-08, 76.002, 2.44981E-10, -3.96297E-06, 25
DataValue, -9.9E-10, 76.995, 2.43419E-10, -3.8536E-06, 25
DataValue, -6.409E-08, 78.001500000000007, 2.41904E-10, -4.01539E-06, 25
DataValue, 9.8240000000000011E-08, 79.002, 2.4058200000000003E-10, -3.5012499999999997E-06, 25
DataValue, -4.258E-08, 79.998, 2.38478E-10, -3.3428499999999997E-06, 25
DataValue, 1.883E-08, 81, 2.37416E-10, -4.1290299999999993E-06, 25
DataValue, 7.335E-08, 82.0005, 2.3596100000000004E-10, -3.4650999999999997E-06, 25
DataValue, -4.9390000000000007E-08, 82.9995, 2.3509900000000004E-10, -3.6477599999999998E-06, 25
DataValue, 2.3530000000000003E-08, 84.001500000000007, 2.33144E-10, -3.6996899999999996E-06, 25
DataValue, 1.3160000000000002E-08, 85.0005, 2.3143300000000002E-10, -3.7552499999999997E-06, 25
DataValue, -1.0889000000000002E-07, 85.998, 2.3112500000000002E-10, -3.7716599999999996E-06, 25
DataValue, 4.3350000000000008E-08, 87.001500000000007, 2.29696E-10, -3.3275399999999997E-06, 25
DataValue, 7.9000000000000006E-10, 88.0005, 2.28256E-10, -3.6679299999999996E-06, 25
DataValue, 4.9970000000000003E-08, 88.9965, 2.2689600000000003E-10, -3.5641E-06, 25
DataValue, 1.1575000000000001E-07, 90.004500000000007, 2.2604900000000003E-10, -3.59796E-06, 25
DataValue, -7.2400000000000013E-08, 91.0005, 2.2415500000000001E-10, -3.63474E-06, 25
DataValue, 5.7990000000000005E-08, 92.001, 2.2351700000000002E-10, -3.4567E-06, 25
DataValue, 1.6360000000000002E-08, 93.001500000000007, 2.2296900000000002E-10, -3.20006E-06, 25
DataValue, -1.1122000000000001E-07, 93.999, 2.2119400000000002E-10, -3.6472199999999997E-06, 25
DataValue, 1.2918000000000002E-07, 95.001, 2.1943700000000002E-10, -3.1768999999999996E-06, 25
DataValue, -3.916E-08, 95.997, 2.19321E-10, -3.5933E-06, 25
DataValue, -1.238E-08, 97.0005, 2.1839100000000002E-10, -3.35317E-06, 25
DataValue, 1.0711000000000001E-07, 98.001, 2.1677600000000002E-10, -3.42232E-06, 25
DataValue, -1.2926E-07, 99.003, 2.1641700000000001E-10, -3.49589E-06, 25
DataValue, 3.5990000000000007E-08, 99.9975, 2.1490900000000003E-10, -3.2740399999999997E-06, 25
DataValue, -2.79E-09, 101.001, 2.13759E-10, -3.1424099999999996E-06, 25
DataValue, -6.4330000000000008E-08, 101.9955, 2.12779E-10, -3.45426E-06, 25
DataValue, 1.2347E-07, 103.002, 2.1189100000000001E-10, -3.5969399999999996E-06, 25
DataValue, -7.174E-08, 103.998, 2.1134900000000002E-10, -3.6215799999999996E-06, 25
DataValue, -8.2E-09, 104.9985, 2.0931000000000003E-10, -3.3986E-06, 25
DataValue, 2.703E-08, 106.0005, 2.0917100000000002E-10, -2.64657E-06, 25
DataValue, -7.6890000000000009E-08, 106.998, 2.0820900000000002E-10, -3.5039199999999997E-06, 25
DataValue, 4.8640000000000004E-08, 108.003, 2.0641300000000001E-10, -3.68758E-06, 25
DataValue, 2.8980000000000002E-08, 108.999, 2.0705000000000002E-10, -3.1491199999999998E-06, 25
DataValue, -2.5850000000000003E-08, 109.998, 2.0517300000000003E-10, -3.1418599999999997E-06, 25
DataValue, 8.624000000000001E-08, 110.997, 2.04695E-10, -3.2046599999999997E-06, 25
DataValue, -3.2570000000000006E-08, 112.0005, 2.0373500000000002E-10, -3.33437E-06, 25
DataValue, -6.5230000000000009E-08, 112.9995, 2.0218000000000002E-10, -2.8527E-06, 25
DataValue, -1.6900000000000002E-09, 113.9955, 2.01745E-10, -3.3702699999999998E-06, 25
DataValue, -7.9960000000000009E-08, 115.0005, 2.02203E-10, -3.08851E-06, 25
DataValue, 4.3530000000000007E-08, 116.0025, 1.99861E-10, -3.15571E-06, 25
DataValue, 5.9200000000000007E-08, 116.9985, 1.9931500000000003E-10, -3.22648E-06, 25
DataValue, -5.3690000000000006E-08, 118.0005, 1.9829600000000002E-10, -2.81692E-06, 25
DataValue, 1.0778000000000002E-07, 119.004, 1.9822700000000002E-10, -3.1451899999999997E-06, 25
DataValue, -2.846E-08, 120.003, 1.96704E-10, -3.6710799999999998E-06, 25
DataValue, -5.8020000000000006E-08, 121.005, 1.96221E-10, -3.25114E-06, 25
DataValue, 1.2952E-07, 121.9995, 1.95441E-10, -3.03748E-06, 25
DataValue, -4.205E-08, 122.9985, 1.94546E-10, -2.8701099999999997E-06, 25
DataValue, 3.022E-08, 124.00200000000001, 1.93693E-10, -3.70682E-06, 25
DataValue, -1.736E-08, 125.0025, 1.93928E-10, -2.68404E-06, 25
DataValue, -1.2867E-07, 126.00150000000001, 1.9196900000000003E-10, -2.48525E-06, 25
DataValue, 5.4590000000000008E-08, 126.99600000000001, 1.9179700000000003E-10, -2.57546E-06, 25
DataValue, -3.919E-08, 128.004, 1.9164300000000002E-10, -3.34844E-06, 25
DataValue, -4.9750000000000005E-08, 129.00300000000001, 1.8997700000000003E-10, -3.18314E-06, 25
DataValue, 1.1472000000000001E-07, 129.999, 1.89297E-10, -3.2856099999999998E-06, 25
DataValue, -1.8100000000000003E-08, 131.0025, 1.8875600000000002E-10, -2.24271E-06, 25
DataValue, -7.845E-08, 132.00300000000001, 1.88963E-10, -2.5123199999999998E-06, 25
DataValue, 3.7610000000000004E-08, 132.996, 1.8709300000000002E-10, -2.69131E-06, 25
DataValue, -9.1420000000000007E-08, 134.001, 1.87384E-10, -3.1050099999999998E-06, 25
DataValue, 2.389E-08, 134.9985, 1.85994E-10, -2.9495399999999997E-06, 25
DataValue, 1.375E-08, 136.0035, 1.8615900000000002E-10, -2.48885E-06, 25
DataValue, -1.3476000000000002E-07, 136.9995, 1.8476000000000002E-10, -3.18748E-06, 25
DataValue, 4.5170000000000007E-08, 137.994, 1.8439500000000001E-10, -2.88695E-06, 25
DataValue, -2.8690000000000004E-08, 138.9975, 1.8424800000000002E-10, -2.61765E-06, 25
DataValue, -6.031E-08, 139.998, 1.8280400000000001E-10, -2.92521E-06, 25
DataValue, 3.151E-08, 141.00300000000001, 1.8267800000000002E-10, -2.79526E-06, 25
DataValue, -8.1640000000000008E-08, 141.9975, 1.82514E-10, -3.2551999999999998E-06, 25
DataValue, 6.036E-08, 143.001, 1.8166900000000002E-10, -2.93505E-06, 25
DataValue, 2.7530000000000002E-08, 143.9985, 1.8087100000000003E-10, -3.2188799999999997E-06, 25
DataValue, -7.3180000000000011E-08, 144.999, 1.79907E-10, -2.98833E-06, 25
DataValue, 2.7270000000000002E-08, 146.001, 1.7887800000000002E-10, -2.90771E-06, 25
DataValue, -6.959E-08, 147.0015, 1.7964100000000002E-10, -2.70552E-06, 25
DataValue, -2.9180000000000004E-08, 147.999, 1.78097E-10, -2.5148199999999998E-06, 25
DataValue, 3.6130000000000007E-08, 148.998, 1.7777500000000001E-10, -2.7803399999999997E-06, 25
DataValue, -7.3620000000000007E-08, 150.00300000000001, 1.76988E-10, -2.74722E-06, 25
DataValue, 5.6700000000000005E-08, 150.996, 1.7593100000000002E-10, -2.73398E-06, 25
DataValue, 4.006E-08, 152.0025, 1.7623300000000002E-10, -3.06772E-06, 25
DataValue, -1.1091E-07, 152.997, 1.76783E-10, -2.54651E-06, 25
DataValue, 5.7990000000000005E-08, 154.002, 1.75342E-10, -2.5942499999999998E-06, 25
DataValue, 1.5710000000000003E-08, 154.9995, 1.74689E-10, -2.9240099999999997E-06, 25
DataValue, 1.4840000000000001E-08, 156.0015, 1.7476200000000002E-10, -2.97489E-06, 25
DataValue, 9.5370000000000013E-08, 157.002, 1.73733E-10, -2.3618999999999998E-06, 25
DataValue, -8.0650000000000011E-08, 157.995, 1.7325800000000001E-10, -2.30587E-06, 25
DataValue, 1.0860000000000001E-08, 159.00300000000001, 1.7257800000000002E-10, -3.0512599999999996E-06, 25
DataValue, 2.53E-09, 159.999, 1.72272E-10, -2.3975399999999997E-06, 25
DataValue, -1.1575000000000001E-07, 160.9995, 1.7133100000000003E-10, -2.97362E-06, 25
DataValue, -2.462E-08, 162, 1.7108000000000002E-10, -2.6907399999999998E-06, 25
DataValue, 3.6110000000000004E-08, 162.9975, 1.7064600000000002E-10, -2.8585899999999998E-06, 25
DataValue, -5.584E-08, 163.9995, 1.70635E-10, -2.5825399999999997E-06, 25
DataValue, 7.97E-08, 165, 1.6865200000000002E-10, -3.09526E-06, 25
DataValue, -5.3250000000000004E-08, 166.002, 1.68834E-10, -2.64464E-06, 25
DataValue, -2.504E-08, 166.998, 1.6780100000000001E-10, -2.65265E-06, 25
DataValue, 5.5760000000000004E-08, 168.0015, 1.67891E-10, -2.5619199999999997E-06, 25
DataValue, -8.1480000000000012E-08, 168.996, 1.6745E-10, -2.80769E-06, 25
DataValue, 1.2029E-07, 170.004, 1.66616E-10, -2.3991199999999997E-06, 25
DataValue, 7.832E-08, 171.0015, 1.6682600000000002E-10, -2.69625E-06, 25
DataValue, -3.4430000000000005E-08, 172.0035, 1.6648E-10, -2.54221E-06, 25
DataValue, 3.9030000000000006E-08, 172.998, 1.6592E-10, -2.5003199999999997E-06, 25
DataValue, -3.9390000000000004E-08, 174, 1.6546600000000002E-10, -2.7567899999999997E-06, 25
DataValue, -7.4640000000000012E-08, 175.00050000000002, 1.64905E-10, -2.84307E-06, 25
DataValue, 4.949E-08, 175.998, 1.63648E-10, -2.27712E-06, 25
DataValue, -3.2690000000000004E-08, 176.9985, 1.6380300000000002E-10, -2.4736399999999997E-06, 25
DataValue, 5.3720000000000007E-08, 177.996, 1.63602E-10, -2.22489E-06, 25
DataValue, 2.4390000000000002E-08, 179.0025, 1.62961E-10, -2.5993399999999997E-06, 25
DataValue, -4.143E-08, 180.0045, 1.6241400000000002E-10, -2.66813E-06, 25
DataValue, 8.607E-08, 181.002, 1.6241700000000002E-10, -2.3841899999999997E-06, 25
DataValue, -6.1530000000000009E-08, 181.995, 1.6136000000000003E-10, -2.75973E-06, 25
DataValue, -5.636E-08, 183.0045, 1.6178700000000002E-10, -2.77914E-06, 25
DataValue, 4.8730000000000007E-08, 183.999, 1.6050400000000002E-10, -2.5481E-06, 25
DataValue, -1.3864E-07, 185.001, 1.60661E-10, -2.4782899999999998E-06, 25
DataValue, -6.504E-08, 185.9955, 1.60406E-10, -2.51009E-06, 25
DataValue, 8.0310000000000009E-08, 187.002, 1.5981600000000002E-10, -2.50722E-06, 25
DataValue, -1.1211000000000002E-07, 187.998, 1.58679E-10, -2.6105E-06, 25
DataValue, 5.5260000000000006E-08, 189.0045, 1.5947300000000002E-10, -2.05375E-06, 25
DataValue, -8.173E-08, 189.999, 1.5987100000000002E-10, -2.8182499999999997E-06, 25
DataValue, -7.02E-08, 191.0025, 1.5820100000000002E-10, -2.28298E-06, 25
DataValue, 2.047E-08, 192.0015, 1.5729200000000002E-10, -2.46499E-06, 25
DataValue, -3.51E-08, 193.00050000000002, 1.5730600000000002E-10, -2.09734E-06, 25
DataValue, 2.3770000000000004E-08, 193.998, 1.56488E-10, -2.2889899999999997E-06, 25
DataValue, 1.3229E-07, 195.006, 1.57064E-10, -2.64226E-06, 25
DataValue, -1.4478E-07, 195.996, 1.5553400000000001E-10, -2.4614099999999997E-06, 25
DataValue, -1.569E-08, 197.001, 1.5570900000000002E-10, -2.22483E-06, 25
DataValue, -1.9000000000000002E-10, 198.0015, 1.56275E-10, -2.3493799999999998E-06, 25
DataValue, -5.3760000000000006E-08, 198.999, 1.5530900000000002E-10, -2.57617E-06, 25
DataValue, 4.648E-08, 199.998, 1.5507600000000001E-10, -2.4349899999999997E-06, 25
DataValue, -1.4630000000000001E-08, 201.0045, 1.5389200000000002E-10, -3.03048E-06, 25
DataValue, -1.827E-08, 201.9975, 1.53134E-10, -2.63656E-06, 25
DataValue, 6.665E-08, 203.001, 1.5359E-10, -2.29239E-06, 25
DataValue, -1.0096000000000001E-07, 204.0015, 1.5309100000000002E-10, -2.5958299999999998E-06, 25
DataValue, -6.300000000000001E-09, 205.00050000000002, 1.5255100000000001E-10, -2.78176E-06, 25
DataValue, -6.8600000000000007E-09, 205.9965, 1.52665E-10, -2.34653E-06, 25
DataValue, -5.6340000000000007E-08, 207.006, 1.52439E-10, -2.0971599999999998E-06, 25
DataValue, 8.2670000000000012E-08, 207.999, 1.5185800000000002E-10, -2.21414E-06, 25
DataValue, -3.8580000000000005E-08, 208.9995, 1.5087000000000002E-10, -2.17936E-06, 25
DataValue, -6.2150000000000011E-08, 209.9985, 1.51475E-10, -2.4525099999999997E-06, 25
DataValue, -3.8960000000000006E-08, 211.00050000000002, 1.513E-10, -2.6793399999999997E-06, 25
DataValue, -1.1451000000000001E-07, 211.9995, 1.5078900000000002E-10, -2.06037E-06, 25
DataValue, 3.501E-08, 213.006, 1.5026500000000002E-10, -2.6335E-06, 25
DataValue, 5.6480000000000007E-08, 214.0035, 1.5022E-10, -2.4790999999999997E-06, 25
DataValue, -5.2650000000000005E-08, 214.9965, 1.50079E-10, -2.78587E-06, 25
DataValue, 8.6700000000000015E-08, 216.0045, 1.4932100000000002E-10, -2.22006E-06, 25
DataValue, 1.9570000000000003E-08, 216.999, 1.4906800000000002E-10, -2.2793E-06, 25
DataValue, -3.9530000000000004E-08, 217.9995, 1.48751E-10, -2.19272E-06, 25
DataValue, 1.0299000000000001E-07, 219, 1.48344E-10, -2.5248499999999996E-06, 25
DataValue, -9.3400000000000016E-08, 220.002, 1.47954E-10, -2.32648E-06, 25
DataValue, 7.1100000000000005E-09, 221.004, 1.48048E-10, -2.39764E-06, 25
DataValue, -2.7460000000000002E-08, 222, 1.4828200000000002E-10, -2.49069E-06, 25
DataValue, -1.59E-09, 222.99450000000002, 1.46662E-10, -2.15576E-06, 25
DataValue, 5.6070000000000005E-08, 224.004, 1.4672E-10, -2.09984E-06, 25
DataValue, -1.1251E-07, 224.9985, 1.4579600000000002E-10, -1.8818799999999998E-06, 25
DataValue, 7.535000000000001E-08, 226.00050000000002, 1.46479E-10, -2.01102E-06, 25
DataValue, -9.848E-08, 226.9995, 1.4540400000000002E-10, -3.29726E-06, 25
DataValue, -4.5460000000000005E-08, 227.997, 1.46418E-10, -2.53143E-06, 25
DataValue, 5.992000000000001E-08, 229.00050000000002, 1.43905E-10, -1.81075E-06, 25
DataValue, -7.809E-08, 230.001, 1.4543100000000002E-10, -2.15504E-06, 25
DataValue, 2.4280000000000003E-08, 230.9985, 1.4415400000000002E-10, -2.5238999999999997E-06, 25
