
SetupTitle, Cds
ApplicationTest, Cds, Public
TestParameter, Name, Memo, IntegTime, Frequency, OscLevel, Scale, Drain, VdBias, VdStart, VdStop, VdLinearStep, IdLimit, HoldTime, DelayTime, IdMinRange
TestParameter, Value, , SHORT, 100000, 0.026000000000000002, LINEAR, CMU1:MF	MFCMU, SMU6:HV	HVSMU, 0, 1000, 1, 0.004, 0, 0.08, 10uA
DutParameter, Name, Polarity, Temp, YAxisCdsMin, YAxisCdsMax
DutParameter, Value, 1, 25, 1E-12, 1E-09
MetaData, TestRecord.EntryPoint, true
MetaData, TestRecord.RecordTime, 04/22/2021 07:36:36
MetaData, TestRecord.TestTarget, 
MetaData, TestRecord.IterationIndex, 1
MetaData, TestRecord.Preservation, true
MetaData, TestRecord.Flag, 
MetaData, TestRecord.Remarks, 
MetaData, TestRecord.LinkKey, 096f742e-4ef8-49e7-b5ed-f3b0a74f463a
Dimension1, 1001, 1001, 1001, 1001, 1001
Dimension2, 1, 1, 1, 1, 1
DataName, Ids, Vdrain, Cds, G, Ta
DataValue, -1.0830000000000002E-08, -0.003, 2.71275E-09, -3.42764E-05, 25
DataValue, 3.374E-08, 1.0035, 2.37402E-09, -3.10974E-05, 25
DataValue, -2.0370000000000003E-08, 1.9965, 2.14601E-09, -2.86885E-05, 25
DataValue, 1.916E-08, 3, 1.97555E-09, -2.66658E-05, 25
DataValue, 3.4400000000000005E-09, 4.005, 1.84118E-09, -2.53982E-05, 25
DataValue, -4.1580000000000006E-08, 5.001, 1.73173E-09, -2.3938900000000002E-05, 25
DataValue, -4.9700000000000008E-09, 6.003, 1.63783E-09, -2.26908E-05, 25
DataValue, 5.3440000000000007E-08, 7.0005, 1.55732E-09, -2.18364E-05, 25
DataValue, 4.484E-08, 8.001, 1.48592E-09, -2.0769600000000002E-05, 25
DataValue, -7.8990000000000008E-08, 9, 1.41632E-09, -1.9888E-05, 25
DataValue, -2.1580000000000002E-08, 9.999, 1.32822E-09, -1.4750900000000001E-05, 25
DataValue, -2.2600000000000004E-08, 10.998000000000001, 1.19924E-09, -1.6577500000000002E-05, 25
DataValue, -5.3870000000000005E-08, 12.003, 1.15419E-09, -1.60462E-05, 25
DataValue, 5.9120000000000009E-08, 13.002, 1.11556E-09, -1.56471E-05, 25
DataValue, 3.4E-10, 13.996500000000001, 1.08171E-09, -1.53402E-05, 25
DataValue, 3.874E-08, 15, 1.05081E-09, -1.46923E-05, 25
DataValue, 9.2000000000000013E-10, 15.999, 1.02314E-09, -1.4498900000000001E-05, 25
DataValue, 7.090000000000001E-09, 16.9995, 9.97809E-10, -1.40877E-05, 25
DataValue, -8.244E-08, 17.994, 9.73967E-10, -1.3621300000000001E-05, 25
DataValue, 2.368E-08, 18.999, 9.5244800000000014E-10, -1.35228E-05, 25
DataValue, 2.4000000000000004E-09, 19.998, 9.3203200000000016E-10, -1.32858E-05, 25
DataValue, 7.474E-08, 21.003, 9.1321200000000011E-10, -1.30883E-05, 25
DataValue, 7.0500000000000011E-09, 22.0005, 8.9587900000000011E-10, -1.29926E-05, 25
DataValue, 9.57E-09, 23.004, 8.7857200000000012E-10, -1.2529E-05, 25
DataValue, 5.8030000000000004E-08, 24.0045, 8.62832E-10, -1.22697E-05, 25
DataValue, -2.7280000000000003E-08, 25.0005, 8.4801400000000009E-10, -1.20516E-05, 25
DataValue, 4.8100000000000006E-09, 26.0025, 8.339260000000001E-10, -1.18425E-05, 25
DataValue, -1.1800000000000001E-08, 27, 8.2049400000000006E-10, -1.16252E-05, 25
DataValue, 1.9690000000000003E-08, 28.0005, 8.0762400000000008E-10, -1.16054E-05, 25
DataValue, 5.8850000000000008E-08, 29.0025, 7.955010000000001E-10, -1.13602E-05, 25
DataValue, -2.0210000000000004E-08, 29.9985, 7.8384000000000006E-10, -1.13009E-05, 25
DataValue, 6.576E-08, 31.005, 7.731300000000001E-10, -1.1014500000000001E-05, 25
DataValue, 1.1270000000000001E-08, 32.0025, 7.6237700000000009E-10, -1.1047000000000001E-05, 25
DataValue, -3.005E-08, 33.0015, 7.521330000000001E-10, -1.0782800000000001E-05, 25
DataValue, 1.114E-08, 34.0005, 7.4238200000000009E-10, -1.07335E-05, 25
DataValue, -1.012E-08, 35.0025, 7.3300600000000011E-10, -1.06423E-05, 25
DataValue, -5.9600000000000009E-09, 35.9985, 7.24188E-10, -1.04597E-05, 25
DataValue, 5.0420000000000004E-08, 37.005, 7.156370000000001E-10, -1.04252E-05, 25
DataValue, -7.99E-09, 37.9995, 7.0711300000000008E-10, -1.0083600000000001E-05, 25
DataValue, -2.216E-08, 39.0015, 6.99055E-10, -1.0070400000000001E-05, 25
DataValue, 1.0650000000000001E-08, 39.999, 6.9125100000000008E-10, -1.00389E-05, 25
DataValue, -8.49E-09, 41.001, 6.83823E-10, -9.7454799999999987E-06, 25
DataValue, -4.2200000000000007E-09, 41.9985, 6.7658200000000007E-10, -9.8825199999999987E-06, 25
DataValue, 2.3280000000000004E-08, 43.0005, 6.6951900000000007E-10, -9.5943699999999987E-06, 25
DataValue, -3.7100000000000002E-09, 43.998, 6.6257800000000009E-10, -9.6618599999999987E-06, 25
DataValue, 6.9350000000000009E-08, 45.0015, 6.5606E-10, -9.55256E-06, 25
DataValue, 2.4650000000000002E-08, 46.0005, 6.49722E-10, -9.4613999999999989E-06, 25
DataValue, 3.8270000000000005E-08, 47.001, 6.4361500000000006E-10, -9.4981599999999989E-06, 25
DataValue, -6.1050000000000007E-08, 48.0015, 6.37563E-10, -9.38961E-06, 25
DataValue, -2.4450000000000004E-08, 49.002, 6.3151800000000009E-10, -9.24247E-06, 25
DataValue, 5.6280000000000005E-08, 50.004, 6.25964E-10, -9.2401799999999987E-06, 25
DataValue, 2.628E-08, 51.006, 6.2073900000000006E-10, -9.4087299999999989E-06, 25
DataValue, 5.7490000000000007E-08, 52.0035, 6.15396E-10, -8.71792E-06, 25
DataValue, 2.4700000000000004E-09, 52.996500000000005, 6.09744E-10, -9.01462E-06, 25
DataValue, -5.1770000000000006E-08, 54.003, 6.04319E-10, -8.81057E-06, 25
DataValue, -2.2400000000000002E-08, 55.002, 5.9959900000000007E-10, -8.8081E-06, 25
DataValue, -5.078E-08, 55.996500000000005, 5.9535600000000007E-10, -9.2357999999999989E-06, 25
DataValue, -2.935E-08, 57, 5.9005400000000008E-10, -8.72402E-06, 25
DataValue, 4.485E-08, 58.0065, 5.8583500000000008E-10, -8.86757E-06, 25
DataValue, -1.7300000000000002E-09, 58.998000000000005, 5.8093100000000009E-10, -8.5416E-06, 25
DataValue, 3.543E-08, 60.0015, 5.7667E-10, -8.37727E-06, 25
DataValue, -4.0980000000000007E-08, 60.999, 5.7193700000000007E-10, -8.90003E-06, 25
DataValue, -5.9350000000000005E-08, 61.996500000000005, 5.6787700000000009E-10, -8.4156E-06, 25
DataValue, -1.3810000000000001E-08, 62.997, 5.63967E-10, -8.2893999999999989E-06, 25
DataValue, -9.2510000000000012E-08, 63.999, 5.5989400000000005E-10, -8.43689E-06, 25
DataValue, 3.3500000000000002E-09, 64.9965, 5.55995E-10, -8.0103299999999989E-06, 25
DataValue, -2.242E-08, 66, 5.51673E-10, -8.21204E-06, 25
DataValue, -5.4590000000000008E-08, 67.0005, 5.4802200000000005E-10, -8.05044E-06, 25
DataValue, 2.7560000000000003E-08, 68.001, 5.44416E-10, -8.03868E-06, 25
DataValue, 2.8950000000000004E-08, 69, 5.4109600000000009E-10, -8.20804E-06, 25
DataValue, 5.3000000000000005E-08, 70.0065, 5.37241E-10, -8.16593E-06, 25
DataValue, -2.4110000000000002E-08, 70.9935, 5.3376500000000007E-10, -7.4499299999999992E-06, 25
DataValue, -5.3750000000000008E-08, 72.001500000000007, 5.30265E-10, -7.72404E-06, 25
DataValue, 3.608E-08, 73.0035, 5.27223E-10, -7.8171E-06, 25
DataValue, -1.4490000000000001E-08, 74.0025, 5.23926E-10, -7.90721E-06, 25
DataValue, -6.631E-08, 74.9955, 5.2018200000000008E-10, -7.33139E-06, 25
DataValue, -3.6530000000000004E-08, 76.0005, 5.1726E-10, -7.6698699999999988E-06, 25
DataValue, -5.75E-09, 77.0025, 5.13989E-10, -7.72563E-06, 25
DataValue, -2.441E-08, 77.9955, 5.10652E-10, -7.7311E-06, 25
DataValue, -3.005E-08, 79.0005, 5.08028E-10, -7.47115E-06, 25
DataValue, -1.0733000000000001E-07, 80.001, 5.05217E-10, -7.5054699999999991E-06, 25
DataValue, -1.6180000000000003E-08, 81.001500000000007, 5.023E-10, -7.50048E-06, 25
DataValue, -1.2330000000000002E-08, 81.996, 4.99384E-10, -7.25823E-06, 25
DataValue, 4.163E-08, 82.998, 4.9699100000000007E-10, -7.3349299999999994E-06, 25
DataValue, 3.378E-08, 84.001500000000007, 4.9417300000000009E-10, -7.2210499999999992E-06, 25
DataValue, -2.22E-09, 84.9975, 4.9166400000000007E-10, -7.4274699999999992E-06, 25
DataValue, -4.2070000000000005E-08, 85.998, 4.8869E-10, -7.1773299999999994E-06, 25
DataValue, 3.7120000000000004E-08, 87.003, 4.86123E-10, -7.14837E-06, 25
DataValue, -4.0220000000000005E-08, 87.999, 4.83631E-10, -7.14951E-06, 25
DataValue, 6.357E-08, 89.001, 4.81328E-10, -7.2410999999999992E-06, 25
DataValue, -4.1750000000000007E-08, 89.9985, 4.79078E-10, -6.8817299999999992E-06, 25
DataValue, 3.5470000000000006E-08, 91.0035, 4.76316E-10, -7.3635E-06, 25
DataValue, 1.224E-08, 92.001, 4.74117E-10, -6.9880799999999995E-06, 25
DataValue, 2.1630000000000002E-08, 93.001500000000007, 4.7157000000000006E-10, -7.0801499999999995E-06, 25
DataValue, 3.204E-08, 93.999, 4.6945100000000008E-10, -6.9324399999999993E-06, 25
DataValue, 4.3740000000000007E-08, 95.0025, 4.6698000000000008E-10, -6.99645E-06, 25
DataValue, 2.8140000000000002E-08, 96.001500000000007, 4.6491400000000003E-10, -7.0314599999999993E-06, 25
DataValue, -2.8120000000000003E-08, 97.0035, 4.6251600000000004E-10, -6.9217999999999995E-06, 25
DataValue, 2.6170000000000002E-08, 98.0025, 4.60337E-10, -6.8580499999999995E-06, 25
DataValue, -7.4280000000000014E-08, 99, 4.5826600000000003E-10, -6.82749E-06, 25
DataValue, -4.6190000000000005E-08, 100.0005, 4.5670800000000005E-10, -7.09259E-06, 25
DataValue, 3.7770000000000007E-08, 100.9995, 4.5399100000000006E-10, -6.5492799999999996E-06, 25
DataValue, -7.1700000000000007E-09, 101.997, 4.5195400000000006E-10, -6.7737999999999994E-06, 25
DataValue, 4.1730000000000004E-08, 102.9975, 4.5001000000000003E-10, -6.8012099999999992E-06, 25
DataValue, -3.011E-08, 104.001, 4.48104E-10, -6.60278E-06, 25
DataValue, 4.5740000000000005E-08, 105, 4.4627400000000003E-10, -6.6020699999999995E-06, 25
DataValue, -2.8760000000000004E-08, 106.002, 4.4377400000000004E-10, -6.5422799999999995E-06, 25
DataValue, -5.3980000000000004E-08, 106.9995, 4.4220800000000005E-10, -6.66615E-06, 25
DataValue, -2.5760000000000004E-08, 107.9925, 4.4047600000000003E-10, -6.5593499999999993E-06, 25
DataValue, 1.2290000000000001E-08, 108.999, 4.3962600000000003E-10, -6.39862E-06, 25
DataValue, 2.75E-08, 109.9965, 4.3676100000000006E-10, -6.57407E-06, 25
DataValue, 2.284E-08, 110.9985, 4.34719E-10, -6.5362499999999995E-06, 25
DataValue, 1.0180000000000001E-08, 112.0005, 4.33104E-10, -6.52159E-06, 25
DataValue, 4.4300000000000006E-08, 113.007, 4.30542E-10, -6.89709E-06, 25
DataValue, -3.4000000000000007E-08, 113.9985, 4.29385E-10, -6.5581299999999995E-06, 25
DataValue, -4.5350000000000006E-08, 114.99900000000001, 4.2782800000000004E-10, -6.42715E-06, 25
DataValue, 3.7710000000000005E-08, 115.9995, 4.2631600000000005E-10, -6.4127E-06, 25
DataValue, 2.1100000000000004E-09, 116.994, 4.2404800000000003E-10, -6.25813E-06, 25
DataValue, 4.739E-08, 118.0035, 4.2279000000000005E-10, -6.50718E-06, 25
DataValue, 1.965E-08, 118.9965, 4.2100500000000004E-10, -6.1905099999999993E-06, 25
DataValue, -6.08E-08, 120, 4.19225E-10, -6.4240299999999994E-06, 25
DataValue, -1.7440000000000003E-08, 121.00200000000001, 4.17917E-10, -6.28167E-06, 25
DataValue, -7.2830000000000011E-08, 122.001, 4.1632E-10, -6.23027E-06, 25
DataValue, 1.4070000000000001E-08, 123.003, 4.14868E-10, -6.63146E-06, 25
DataValue, 3.543E-08, 124.0005, 4.1311800000000005E-10, -6.21981E-06, 25
DataValue, -6.93E-08, 124.9965, 4.1155000000000004E-10, -6.45995E-06, 25
DataValue, 1.907E-08, 126, 4.10385E-10, -5.91893E-06, 25
DataValue, -5.5800000000000003E-08, 126.9975, 4.08618E-10, -6.15981E-06, 25
DataValue, 7.5600000000000012E-09, 127.998, 4.07165E-10, -6.22469E-06, 25
DataValue, 8.3000000000000015E-09, 128.9985, 4.0572300000000005E-10, -6.40894E-06, 25
DataValue, -2.0300000000000002E-09, 129.999, 4.04497E-10, -6.25957E-06, 25
DataValue, 6.603E-08, 131.0025, 4.0287600000000003E-10, -5.97515E-06, 25
DataValue, -4.2250000000000004E-08, 132.00300000000001, 4.0137800000000005E-10, -6.1135E-06, 25
DataValue, -5.1400000000000004E-08, 133.002, 4.00036E-10, -6.11907E-06, 25
DataValue, 3.818E-08, 134.004, 3.9846700000000005E-10, -6.0180299999999994E-06, 25
DataValue, -5.75E-09, 135.0015, 3.9733500000000006E-10, -5.96454E-06, 25
DataValue, -3.702E-08, 135.999, 3.9587400000000003E-10, -6.0139599999999993E-06, 25
DataValue, -8.400000000000001E-10, 137.001, 3.9440500000000005E-10, -5.92392E-06, 25
DataValue, -7.804E-08, 138.0045, 3.93589E-10, -5.95545E-06, 25
DataValue, -1.35E-09, 138.999, 3.9187900000000004E-10, -5.88195E-06, 25
DataValue, -1.259E-08, 139.998, 3.9075300000000005E-10, -5.9375699999999993E-06, 25
DataValue, -8.88E-09, 141.00300000000001, 3.89453E-10, -5.82325E-06, 25
DataValue, 5.357E-08, 141.999, 3.88181E-10, -5.82146E-06, 25
DataValue, -5.9570000000000003E-08, 142.998, 3.86688E-10, -5.93431E-06, 25
DataValue, -6.379E-08, 143.9985, 3.8567300000000005E-10, -5.8739E-06, 25
DataValue, -4.2590000000000006E-08, 144.9975, 3.8452200000000005E-10, -5.8306899999999992E-06, 25
DataValue, -5.6950000000000004E-08, 145.998, 3.8330900000000004E-10, -5.74369E-06, 25
DataValue, -2.6600000000000003E-09, 147.0015, 3.82E-10, -5.6979499999999994E-06, 25
DataValue, 1.2550000000000002E-08, 147.999, 3.80788E-10, -5.78826E-06, 25
DataValue, 1.6530000000000003E-08, 148.9995, 3.7968200000000004E-10, -5.71727E-06, 25
DataValue, -4.1200000000000007E-09, 150, 3.7853600000000004E-10, -5.67173E-06, 25
DataValue, -5.5080000000000007E-08, 151.00050000000002, 3.77044E-10, -5.5131299999999993E-06, 25
DataValue, -2.1730000000000003E-08, 151.998, 3.76112E-10, -5.6415999999999995E-06, 25
DataValue, -4.6580000000000004E-08, 152.997, 3.7459000000000005E-10, -5.45485E-06, 25
DataValue, -5.5020000000000006E-08, 154.002, 3.73797E-10, -5.76351E-06, 25
DataValue, 3.528E-08, 154.9995, 3.72803E-10, -5.6506899999999993E-06, 25
DataValue, 4.4860000000000006E-08, 156.0045, 3.7193100000000004E-10, -5.54801E-06, 25
DataValue, -1.8590000000000003E-08, 157.00050000000002, 3.70718E-10, -5.7037999999999995E-06, 25
DataValue, 5.9E-10, 157.998, 3.6956400000000005E-10, -5.59706E-06, 25
DataValue, -2.9800000000000005E-09, 159.0015, 3.68342E-10, -5.5506399999999993E-06, 25
DataValue, -4.17E-08, 159.999, 3.67444E-10, -5.5321299999999995E-06, 25
DataValue, -2.696E-08, 161.0025, 3.6625500000000004E-10, -5.44147E-06, 25
DataValue, 6.98E-09, 161.9955, 3.6514500000000004E-10, -5.44626E-06, 25
DataValue, -2.6840000000000004E-08, 162.9975, 3.63757E-10, -5.51963E-06, 25
DataValue, 2.6450000000000002E-08, 164.001, 3.6338500000000003E-10, -5.36077E-06, 25
DataValue, 3.7260000000000004E-08, 165.00300000000001, 3.6205300000000003E-10, -5.4907799999999995E-06, 25
DataValue, 5.8380000000000004E-08, 166.002, 3.6126400000000004E-10, -5.54251E-06, 25
DataValue, -2.157E-08, 166.9995, 3.6026900000000003E-10, -5.37998E-06, 25
DataValue, 1.3900000000000002E-08, 168.0015, 3.5900000000000005E-10, -5.5728499999999995E-06, 25
DataValue, -2.7160000000000003E-08, 168.9975, 3.5825000000000003E-10, -5.38492E-06, 25
DataValue, -6.655000000000001E-08, 170.001, 3.5711800000000004E-10, -5.4370299999999993E-06, 25
DataValue, -4.5830000000000007E-08, 170.997, 3.5628200000000005E-10, -5.52608E-06, 25
DataValue, -7.4870000000000008E-08, 172.002, 3.55398E-10, -5.3978599999999993E-06, 25
DataValue, -3.2050000000000006E-08, 172.9995, 3.54432E-10, -5.2154399999999995E-06, 25
DataValue, -1.9190000000000002E-08, 174.0015, 3.5337500000000003E-10, -5.41097E-06, 25
DataValue, -2.9800000000000005E-09, 175.0095, 3.52414E-10, -5.26045E-06, 25
DataValue, 8.575000000000001E-08, 176.001, 3.51583E-10, -5.3137699999999994E-06, 25
DataValue, 1.682E-08, 177, 3.50728E-10, -5.28243E-06, 25
DataValue, -3.522E-08, 178.0035, 3.4979100000000005E-10, -5.39639E-06, 25
DataValue, -3.256E-08, 178.9995, 3.48906E-10, -5.2426599999999995E-06, 25
DataValue, -4.0630000000000007E-08, 179.9925, 3.4789900000000005E-10, -5.31318E-06, 25
DataValue, -5.3E-09, 181.002, 3.4705400000000004E-10, -5.38221E-06, 25
DataValue, 1.4140000000000001E-08, 181.998, 3.4619200000000004E-10, -5.2426699999999994E-06, 25
DataValue, 2.0800000000000003E-09, 183, 3.45345E-10, -5.2152099999999995E-06, 25
DataValue, 4.2840000000000005E-08, 183.999, 3.44376E-10, -5.2609899999999994E-06, 25
DataValue, 1.0900000000000002E-09, 185.0025, 3.43459E-10, -5.19716E-06, 25
DataValue, 1.0500000000000001E-08, 186.00300000000001, 3.4288400000000004E-10, -5.1358399999999994E-06, 25
DataValue, 2.415E-08, 187.002, 3.41886E-10, -5.20732E-06, 25
DataValue, 2.2240000000000003E-08, 188.001, 3.4107400000000003E-10, -5.08142E-06, 25
DataValue, 2.8680000000000003E-08, 189, 3.40397E-10, -5.1418799999999993E-06, 25
DataValue, -6.1730000000000011E-08, 190.00050000000002, 3.39609E-10, -5.25299E-06, 25
DataValue, -3.4700000000000002E-09, 191.001, 3.38741E-10, -5.21272E-06, 25
DataValue, 2.1790000000000002E-08, 191.9985, 3.37729E-10, -5.148E-06, 25
DataValue, -3.6100000000000006E-08, 193.002, 3.3672900000000003E-10, -5.22858E-06, 25
DataValue, 1.5140000000000002E-08, 193.995, 3.3597700000000004E-10, -5.01969E-06, 25
DataValue, 1.5700000000000002E-09, 194.9955, 3.3531500000000005E-10, -4.9735399999999993E-06, 25
DataValue, -2.3720000000000003E-08, 196.00050000000002, 3.3459700000000004E-10, -5.0136799999999994E-06, 25
DataValue, 4.7680000000000007E-08, 197.0025, 3.33721E-10, -5.21319E-06, 25
DataValue, -2.0700000000000003E-08, 198.0045, 3.3296400000000004E-10, -5.09566E-06, 25
DataValue, 4.0600000000000005E-09, 199.00650000000002, 3.32227E-10, -5.0755999999999993E-06, 25
DataValue, -9.37E-09, 199.9995, 3.3141600000000005E-10, -4.99028E-06, 25
DataValue, -4.7140000000000004E-08, 201.0015, 3.30773E-10, -5.0245399999999993E-06, 25
DataValue, 1.135E-08, 201.99450000000002, 3.29833E-10, -5.01204E-06, 25
DataValue, -2.2450000000000003E-08, 203.004, 3.2915600000000005E-10, -5.10337E-06, 25
DataValue, -1.7020000000000003E-08, 204.0015, 3.2853500000000004E-10, -5.09303E-06, 25
DataValue, -1.628E-08, 205.002, 3.27633E-10, -5.01566E-06, 25
DataValue, -7.9480000000000008E-08, 205.998, 3.2667100000000003E-10, -4.91749E-06, 25
DataValue, -1.8160000000000002E-08, 206.9985, 3.26242E-10, -4.99423E-06, 25
DataValue, -9.25E-09, 207.999, 3.2537100000000004E-10, -4.8455599999999996E-06, 25
DataValue, -2.7880000000000002E-08, 208.998, 3.24801E-10, -4.9511299999999995E-06, 25
DataValue, 4.3330000000000005E-08, 210.0015, 3.24247E-10, -4.9789399999999993E-06, 25
DataValue, -1.12E-09, 210.999, 3.23335E-10, -4.96896E-06, 25
DataValue, 1.605E-08, 211.9995, 3.2255000000000004E-10, -4.84618E-06, 25
DataValue, 3.4840000000000006E-08, 213.0015, 3.21877E-10, -4.8692799999999996E-06, 25
DataValue, -3.9030000000000006E-08, 214.00050000000002, 3.2139300000000004E-10, -4.79909E-06, 25
DataValue, -5.1690000000000008E-08, 215.0055, 3.2065900000000005E-10, -4.99803E-06, 25
DataValue, -4.59E-09, 216.0015, 3.19981E-10, -4.76914E-06, 25
DataValue, -1.1530000000000001E-08, 217.002, 3.1916800000000003E-10, -4.8604499999999993E-06, 25
DataValue, 3.2690000000000004E-08, 217.998, 3.1905400000000003E-10, -4.7354599999999996E-06, 25
DataValue, -1.6410000000000003E-08, 218.997, 3.18641E-10, -4.9143199999999994E-06, 25
DataValue, 4.676E-08, 220.005, 3.1715000000000004E-10, -4.6782099999999994E-06, 25
DataValue, -1.4010000000000001E-08, 221.001, 3.1643200000000003E-10, -4.8619299999999995E-06, 25
DataValue, -1.0090000000000001E-08, 222.0015, 3.1610200000000004E-10, -5.0277499999999994E-06, 25
DataValue, 7.800000000000001E-10, 223.0035, 3.15298E-10, -4.64561E-06, 25
DataValue, -6.149E-08, 223.9995, 3.14585E-10, -4.7281699999999995E-06, 25
DataValue, -3.4960000000000003E-08, 225, 3.13832E-10, -4.9423E-06, 25
DataValue, 3.5610000000000006E-08, 225.999, 3.1334800000000004E-10, -4.78243E-06, 25
DataValue, -2.9250000000000004E-08, 227.004, 3.12753E-10, -4.8023299999999993E-06, 25
DataValue, 4.872E-08, 228, 3.1231600000000003E-10, -4.84001E-06, 25
DataValue, -3.9690000000000007E-08, 228.999, 3.1142500000000004E-10, -4.8059299999999996E-06, 25
DataValue, -6.9430000000000007E-08, 229.995, 3.10796E-10, -4.82079E-06, 25
DataValue, 4.1600000000000005E-09, 231.00300000000001, 3.10337E-10, -4.7124299999999995E-06, 25
DataValue, -6.462E-08, 231.999, 3.10077E-10, -4.48382E-06, 25
