
SetupTitle, Cds
ApplicationTest, Cds, Public
TestParameter, Name, Memo, IntegTime, Frequency, OscLevel, Scale, Drain, VdBias, VdStart, VdStop, VdLinearStep, IdLimit, HoldTime, DelayTime, IdMinRange
TestParameter, Value, , SHORT, 1000000, 0.025, LINEAR, CMU1:MF	MFCMU, SMU6:HV	HVSMU, 0, 1000, 1, 0.004, 0, 0.08, 10uA
DutParameter, Name, Polarity, Temp, YAxisCdsMin, YAxisCdsMax
DutParameter, Value, 1, 25, 1E-12, 1E-09
MetaData, TestRecord.EntryPoint, true
MetaData, TestRecord.RecordTime, 12/27/2020 11:04:39
MetaData, TestRecord.TestTarget, 
MetaData, TestRecord.IterationIndex, 18
MetaData, TestRecord.Preservation, true
MetaData, TestRecord.Flag, 
MetaData, TestRecord.Remarks, 
MetaData, TestRecord.LinkKey, 85edddfb-a25a-40ef-9fba-a0ff9c8e1da5
Dimension1, 1001, 1001, 1001, 1001, 1001
Dimension2, 1, 1, 1, 1, 1
DataName, Ids, Vdrain, Cds, G, Ta
DataValue, -1.4680000000000001E-08, -0.003, 1.11526E-09, -0.00162967, 25
DataValue, 2.2080000000000003E-08, 0.9975, 9.63613E-10, -0.00139486, 25
DataValue, -3.9830000000000007E-08, 1.9995, 8.665050000000001E-10, -0.00125001, 25
DataValue, -1.54E-09, 2.9955000000000003, 7.95166E-10, -0.00114329, 25
DataValue, -3.458E-08, 4.0035, 7.3952100000000006E-10, -0.00105947, 25
DataValue, 2.4350000000000003E-08, 5.001, 6.94473E-10, -0.000992084, 25
DataValue, -1.773E-08, 6.0045, 6.5654800000000006E-10, -0.000935419, 25
DataValue, -3.35E-08, 7.0005, 6.2397000000000007E-10, -0.000886547, 25
DataValue, -3.772E-08, 7.998, 5.9504E-10, -0.000842635, 25
DataValue, -3.4120000000000004E-08, 9.0015, 5.6711700000000008E-10, -0.00079879000000000007, 25
DataValue, -3.7540000000000004E-08, 9.996, 5.33913E-10, -0.000705388, 25
DataValue, 1.032E-08, 10.9995, 4.83971E-10, -0.00066393700000000008, 25
DataValue, -1.258E-08, 12, 4.6638E-10, -0.00063863900000000009, 25
DataValue, -2.7000000000000004E-08, 12.999, 4.51105E-10, -0.000616725, 25
DataValue, 6.338E-08, 13.999500000000001, 4.3755500000000005E-10, -0.00059779000000000006, 25
DataValue, 3.7500000000000005E-08, 15.003, 4.2534000000000005E-10, -0.000579375, 25
DataValue, -2.5680000000000002E-08, 15.999, 4.14145E-10, -0.00056388, 25
DataValue, 4.0510000000000003E-08, 17.001, 4.04001E-10, -0.000550045, 25
DataValue, 7.476E-08, 18.0045, 3.9456100000000004E-10, -0.000536225, 25
DataValue, 4.6650000000000004E-08, 19.0035, 3.85748E-10, -0.000524248, 25
DataValue, -1.9120000000000002E-08, 19.9965, 3.7741700000000005E-10, -0.00051233000000000008, 25
DataValue, -6.3100000000000008E-09, 20.9985, 3.70043E-10, -0.000501337, 25
DataValue, 1.6450000000000002E-08, 22.002, 3.6267000000000005E-10, -0.00049233200000000006, 25
DataValue, -1.78E-08, 22.9965, 3.5599000000000003E-10, -0.00048320800000000005, 25
DataValue, -4.0000000000000007E-10, 24, 3.49653E-10, -0.00047377000000000004, 25
DataValue, -4.4300000000000006E-09, 25.0005, 3.4358300000000004E-10, -0.00046598300000000005, 25
DataValue, -8.138E-08, 25.998, 3.3786E-10, -0.00045820400000000003, 25
DataValue, -1.7390000000000002E-08, 26.997, 3.32364E-10, -0.000450824, 25
DataValue, 2.333E-08, 27.999000000000002, 3.27231E-10, -0.000443213, 25
DataValue, 1.1510000000000002E-08, 28.998, 3.2236900000000004E-10, -0.00043686800000000003, 25
DataValue, 1.286E-08, 30, 3.17594E-10, -0.00043025, 25
DataValue, 1.348E-08, 31.0035, 3.1302800000000004E-10, -0.000424331, 25
DataValue, 4.0260000000000004E-08, 31.9965, 3.0877E-10, -0.00041903100000000005, 25
DataValue, -1.2800000000000002E-08, 32.9985, 3.04595E-10, -0.000413389, 25
DataValue, -1.314E-08, 34.0035, 3.00675E-10, -0.000408253, 25
DataValue, 3.3910000000000004E-08, 34.998, 2.96869E-10, -0.00040275200000000004, 25
DataValue, -8.3710000000000013E-08, 36, 2.9319500000000004E-10, -0.00039805200000000003, 25
DataValue, 2.366E-08, 37.0005, 2.8969300000000004E-10, -0.00039299, 25
DataValue, -4.6560000000000008E-08, 37.998, 2.8636100000000004E-10, -0.000388834, 25
DataValue, 4.0880000000000006E-08, 38.997, 2.82964E-10, -0.000385113, 25
DataValue, 2.654E-08, 40.005, 2.79962E-10, -0.000380877, 25
DataValue, -5.7680000000000004E-08, 40.9995, 2.76858E-10, -0.00037679200000000003, 25
DataValue, -6.802000000000001E-08, 42.0015, 2.73914E-10, -0.000373272, 25
DataValue, -1.0000000000000002E-10, 43.002, 2.71003E-10, -0.00036922400000000003, 25
DataValue, 4.0320000000000006E-08, 43.998, 2.68333E-10, -0.000365512, 25
DataValue, 3.5120000000000006E-08, 45.003, 2.65591E-10, -0.00036222, 25
DataValue, -4.8340000000000008E-08, 45.9945, 2.6299600000000004E-10, -0.000358736, 25
DataValue, -5.985000000000001E-08, 46.998, 2.6044700000000004E-10, -0.00035599400000000005, 25
DataValue, 7.7600000000000013E-09, 48, 2.5800000000000004E-10, -0.000352655, 25
DataValue, 1.665E-08, 49.005, 2.5558E-10, -0.00034964, 25
DataValue, -1.1050000000000001E-08, 49.992000000000004, 2.53282E-10, -0.00034711800000000005, 25
DataValue, -5.4630000000000007E-08, 51, 2.51077E-10, -0.000343684, 25
DataValue, 6.230000000000001E-09, 51.9975, 2.48867E-10, -0.00034086100000000003, 25
DataValue, 6.386E-08, 53.004, 2.4674900000000004E-10, -0.000338416, 25
DataValue, -2.1160000000000002E-08, 53.9985, 2.4460200000000003E-10, -0.000335922, 25
DataValue, -6.8700000000000005E-09, 55.0005, 2.42546E-10, -0.00033280100000000003, 25
DataValue, -2.708E-08, 55.999500000000005, 2.40538E-10, -0.000330828, 25
DataValue, -5.5430000000000007E-08, 57, 2.3870200000000003E-10, -0.00032776500000000004, 25
DataValue, 5.3070000000000005E-08, 58.0005, 2.36771E-10, -0.000326087, 25
DataValue, -1.3300000000000002E-09, 58.993500000000004, 2.34896E-10, -0.000323759, 25
DataValue, -2.066E-08, 60.003, 2.33076E-10, -0.000321544, 25
DataValue, -2.3000000000000003E-09, 61.0005, 2.3131300000000003E-10, -0.000319893, 25
DataValue, -1.998E-08, 62.001000000000005, 2.29651E-10, -0.000317513, 25
DataValue, 3.3900000000000005E-09, 63.0045, 2.27873E-10, -0.00031586, 25
DataValue, 1.693E-08, 64.0035, 2.26321E-10, -0.000313495, 25
DataValue, -5.4120000000000004E-08, 65.0025, 2.2463500000000002E-10, -0.000311361, 25
DataValue, 1.0842000000000001E-07, 66.004500000000007, 2.2310500000000003E-10, -0.000309411, 25
DataValue, -2.9500000000000003E-08, 67.0005, 2.21581E-10, -0.000307459, 25
DataValue, 1.7810000000000002E-08, 67.998, 2.19975E-10, -0.000306255, 25
DataValue, -1.7300000000000003E-08, 69.006, 2.1859900000000002E-10, -0.000304161, 25
DataValue, -2.2900000000000003E-08, 69.9975, 2.1701700000000002E-10, -0.000302116, 25
DataValue, -2.1630000000000002E-08, 70.9965, 2.1566500000000003E-10, -0.00030067900000000004, 25
DataValue, -6.664E-08, 71.997, 2.1423000000000002E-10, -0.000299094, 25
DataValue, 6.071E-08, 72.999, 2.1286500000000002E-10, -0.00029684700000000004, 25
DataValue, -1.666E-08, 74.0025, 2.11586E-10, -0.000295493, 25
DataValue, -2.7110000000000003E-08, 74.9985, 2.10312E-10, -0.00029403000000000003, 25
DataValue, 8.021E-08, 75.999, 2.08968E-10, -0.000293096, 25
DataValue, -2.4700000000000004E-09, 77.001, 2.0772200000000003E-10, -0.00029057400000000004, 25
DataValue, 5.1750000000000003E-08, 78.006, 2.0640700000000001E-10, -0.000289662, 25
DataValue, -5.3340000000000006E-08, 78.9975, 2.0524800000000002E-10, -0.000288347, 25
DataValue, -1.6060000000000003E-08, 80.001, 2.0400300000000002E-10, -0.000286826, 25
DataValue, 1.2430000000000001E-08, 81, 2.0286800000000003E-10, -0.000285411, 25
DataValue, 2.9320000000000004E-08, 82.0035, 2.01672E-10, -0.000284372, 25
DataValue, -8.3670000000000007E-08, 82.995, 2.0062000000000003E-10, -0.000282759, 25
DataValue, 2.2270000000000004E-08, 84, 1.99424E-10, -0.000281783, 25
DataValue, -1.416E-08, 85.0005, 1.9832600000000002E-10, -0.00028053, 25
DataValue, 1.9780000000000002E-08, 86.004, 1.9723300000000003E-10, -0.000278429, 25
DataValue, -2.1100000000000004E-09, 86.997, 1.96137E-10, -0.000277447, 25
DataValue, -4.83E-08, 88.0005, 1.9520500000000003E-10, -0.00027613000000000003, 25
DataValue, 1.787E-08, 88.9965, 1.9409500000000002E-10, -0.00027505300000000004, 25
DataValue, -2.1070000000000003E-08, 89.997, 1.9305900000000002E-10, -0.000274511, 25
DataValue, 8.95E-09, 91.0005, 1.92148E-10, -0.000273482, 25
DataValue, -3.7290000000000005E-08, 91.995, 1.91093E-10, -0.000271973, 25
DataValue, -7.273E-08, 93, 1.9016400000000003E-10, -0.00027108000000000004, 25
DataValue, 2.3290000000000002E-08, 93.9975, 1.8924400000000002E-10, -0.00026952000000000004, 25
DataValue, 1.584E-08, 95.001, 1.88233E-10, -0.00026843200000000003, 25
DataValue, -3.821E-08, 95.997, 1.8735200000000002E-10, -0.000266922, 25
DataValue, 6.418000000000001E-08, 97.0005, 1.86386E-10, -0.000266209, 25
DataValue, -3.87E-08, 97.9995, 1.85539E-10, -0.000265997, 25
DataValue, -4.7440000000000007E-08, 98.9955, 1.8467600000000002E-10, -0.000264825, 25
DataValue, -1.2400000000000002E-08, 100.0005, 1.8380300000000003E-10, -0.00026329900000000004, 25
DataValue, -1.5590000000000003E-08, 100.998, 1.82903E-10, -0.000262213, 25
DataValue, 7.479000000000001E-08, 102.00150000000001, 1.8211700000000001E-10, -0.000261325, 25
DataValue, -6.6500000000000008E-09, 103.0005, 1.8123500000000002E-10, -0.00026001, 25
DataValue, -6.243000000000001E-08, 103.995, 1.8037600000000002E-10, -0.000259297, 25
DataValue, 9.1000000000000006E-10, 105, 1.79649E-10, -0.000258721, 25
DataValue, 1.6000000000000002E-10, 105.999, 1.7887900000000002E-10, -0.00025734600000000004, 25
DataValue, -4.31E-09, 107.001, 1.78085E-10, -0.000256458, 25
DataValue, -3.9900000000000005E-09, 108.003, 1.77259E-10, -0.00025577600000000004, 25
DataValue, -6.581E-08, 108.999, 1.7649500000000002E-10, -0.000254911, 25
DataValue, -3.8300000000000005E-08, 109.998, 1.7573000000000002E-10, -0.000253877, 25
DataValue, 5.8130000000000005E-08, 111.00450000000001, 1.7504000000000002E-10, -0.00025292500000000004, 25
DataValue, -6.527E-08, 111.99900000000001, 1.74276E-10, -0.000252076, 25
DataValue, -3.5500000000000004E-09, 112.9995, 1.73543E-10, -0.000251289, 25
DataValue, -3.396E-08, 113.9955, 1.72865E-10, -0.00025050100000000003, 25
DataValue, -8.3100000000000013E-09, 115.0005, 1.7214400000000002E-10, -0.000249462, 25
DataValue, 8.81E-09, 116.0055, 1.71492E-10, -0.000248481, 25
DataValue, 8.4500000000000012E-09, 117, 1.7076000000000001E-10, -0.000247817, 25
DataValue, 2.9380000000000002E-08, 117.99900000000001, 1.70093E-10, -0.000247212, 25
DataValue, -1.9620000000000003E-08, 119.001, 1.69418E-10, -0.000246564, 25
DataValue, -5.7160000000000004E-08, 119.997, 1.68759E-10, -0.000245372, 25
DataValue, -7.0600000000000008E-09, 121.00200000000001, 1.68014E-10, -0.000245222, 25
DataValue, -4.132E-08, 122.0055, 1.67424E-10, -0.000243965, 25
DataValue, -4.76E-09, 123, 1.66737E-10, -0.00024308900000000002, 25
DataValue, -3.13E-09, 124.0035, 1.6620400000000001E-10, -0.00024185000000000002, 25
DataValue, -4.8590000000000007E-08, 124.9965, 1.6550800000000001E-10, -0.00024188600000000002, 25
DataValue, 4.9290000000000007E-08, 126, 1.64935E-10, -0.000241136, 25
DataValue, 1.012E-08, 126.99900000000001, 1.64326E-10, -0.000239761, 25
DataValue, -1.13E-09, 127.9965, 1.6373E-10, -0.00023934700000000002, 25
DataValue, 2.4300000000000003E-08, 128.9985, 1.6313100000000002E-10, -0.00023895100000000002, 25
DataValue, -5.3510000000000007E-08, 129.9975, 1.6249300000000003E-10, -0.00023849, 25
DataValue, -4.41E-09, 131.001, 1.6193800000000002E-10, -0.00023696400000000002, 25
DataValue, 3.242E-08, 131.9955, 1.6133E-10, -0.00023702100000000002, 25
DataValue, -5.6580000000000008E-08, 132.9975, 1.60888E-10, -0.000236318, 25
DataValue, 1.3490000000000002E-08, 134.001, 1.60198E-10, -0.00023543700000000002, 25
DataValue, -2.3230000000000004E-08, 135.00300000000001, 1.5962900000000001E-10, -0.00023529800000000002, 25
DataValue, -2.9190000000000002E-08, 135.999, 1.59122E-10, -0.00023455100000000003, 25
DataValue, 7.1800000000000004E-09, 137.001, 1.5862300000000002E-10, -0.00023348200000000003, 25
DataValue, -2.9250000000000004E-08, 138.0015, 1.58131E-10, -0.00023294600000000002, 25
DataValue, 1.6450000000000002E-08, 139.0035, 1.57604E-10, -0.000232271, 25
DataValue, 9.24E-09, 139.998, 1.5699900000000002E-10, -0.00023173300000000003, 25
DataValue, 1.7800000000000003E-09, 141.0045, 1.565E-10, -0.00023117300000000002, 25
DataValue, 3.5600000000000005E-09, 142.002, 1.56022E-10, -0.000230659, 25
DataValue, -1.4840000000000001E-08, 142.9995, 1.55449E-10, -0.00022984900000000002, 25
DataValue, -2.825E-08, 144.0015, 1.5502000000000002E-10, -0.00022930900000000002, 25
DataValue, -1.2700000000000001E-08, 145.0035, 1.54575E-10, -0.00022838, 25
DataValue, -4.8280000000000006E-08, 145.998, 1.5397700000000002E-10, -0.000228053, 25
DataValue, -1.1340000000000001E-08, 147.0015, 1.53533E-10, -0.000227521, 25
DataValue, 2.7300000000000003E-08, 147.999, 1.53075E-10, -0.00022675800000000003, 25
DataValue, -1.9120000000000002E-08, 148.998, 1.5262400000000002E-10, -0.000226187, 25
DataValue, 1.7840000000000003E-08, 149.9955, 1.5213900000000002E-10, -0.00022584200000000002, 25
DataValue, -4.6540000000000005E-08, 151.002, 1.5159300000000002E-10, -0.000225428, 25
DataValue, 2.0220000000000002E-08, 151.995, 1.5125900000000002E-10, -0.00022446300000000002, 25
DataValue, 5.41E-09, 153, 1.5076400000000001E-10, -0.000223889, 25
DataValue, -7.2210000000000009E-08, 153.999, 1.5028500000000001E-10, -0.000223312, 25
DataValue, -6.2160000000000009E-08, 155.0025, 1.49875E-10, -0.000222555, 25
DataValue, 1.4250000000000002E-08, 155.9985, 1.49362E-10, -0.000222288, 25
DataValue, -5.6280000000000005E-08, 157.002, 1.48949E-10, -0.000221091, 25
DataValue, 5.6610000000000009E-08, 157.9995, 1.48525E-10, -0.000220854, 25
DataValue, -4.6840000000000008E-08, 158.9985, 1.48141E-10, -0.00022079100000000002, 25
DataValue, 5.6370000000000008E-08, 160.002, 1.4774200000000002E-10, -0.00021988900000000002, 25
DataValue, 1.4110000000000002E-08, 160.9995, 1.4729600000000002E-10, -0.0002198, 25
DataValue, 3.2600000000000003E-09, 162.0045, 1.4683E-10, -0.00021933300000000002, 25
DataValue, -1.3370000000000002E-08, 162.9975, 1.46388E-10, -0.000218673, 25
DataValue, -1.6990000000000002E-08, 163.998, 1.4597400000000002E-10, -0.000218161, 25
DataValue, -9.84E-09, 165, 1.45593E-10, -0.00021759100000000003, 25
DataValue, 3.458E-08, 166.0035, 1.4528100000000002E-10, -0.000216924, 25
DataValue, -6.394E-08, 166.998, 1.4483700000000001E-10, -0.000216641, 25
DataValue, 1.074E-08, 168.0015, 1.44442E-10, -0.000216089, 25
DataValue, 3.615E-08, 169.0035, 1.44067E-10, -0.00021560800000000003, 25
DataValue, -1.0290000000000002E-08, 170.004, 1.43657E-10, -0.00021539600000000002, 25
DataValue, -2.0040000000000003E-08, 170.997, 1.43299E-10, -0.000214851, 25
DataValue, -4.1090000000000006E-08, 171.9975, 1.42919E-10, -0.000214121, 25
DataValue, -8.0040000000000007E-08, 172.998, 1.42576E-10, -0.000213524, 25
DataValue, -9.29E-09, 174, 1.4213E-10, -0.00021317700000000002, 25
DataValue, -1.129E-08, 175.002, 1.41783E-10, -0.00021248100000000001, 25
DataValue, -5.0400000000000008E-09, 175.998, 1.4146600000000002E-10, -0.00021196300000000002, 25
DataValue, 1.1529000000000001E-07, 177, 1.40967E-10, -0.00021203200000000002, 25
DataValue, -8.3630000000000015E-08, 177.999, 1.4076300000000001E-10, -0.00021074300000000003, 25
DataValue, -7.500000000000001E-10, 178.9965, 1.40307E-10, -0.00021093200000000002, 25
DataValue, -4.5900000000000007E-08, 179.9985, 1.39931E-10, -0.000210237, 25
DataValue, -2.1800000000000003E-08, 181.005, 1.39636E-10, -0.00020973, 25
DataValue, 1.3120000000000001E-08, 182.001, 1.3928700000000002E-10, -0.00020932600000000002, 25
DataValue, 4.1000000000000003E-10, 183.0015, 1.38996E-10, -0.00020896800000000002, 25
DataValue, 7.3700000000000008E-09, 184.002, 1.3863900000000002E-10, -0.000208161, 25
DataValue, -1.8000000000000002E-09, 184.9965, 1.38292E-10, -0.00020809500000000002, 25
DataValue, -7.594E-08, 185.9985, 1.3793E-10, -0.000207593, 25
DataValue, -2.8350000000000002E-08, 187.0035, 1.3757000000000002E-10, -0.000206901, 25
DataValue, 3.023E-08, 188.0025, 1.37252E-10, -0.00020675200000000002, 25
DataValue, -3.207E-08, 189.00300000000001, 1.36983E-10, -0.00020654, 25
DataValue, 3.7200000000000004E-09, 190.00050000000002, 1.3664800000000002E-10, -0.00020637700000000002, 25
DataValue, 3.54E-09, 190.9995, 1.36288E-10, -0.00020548000000000002, 25
DataValue, -5.1500000000000006E-09, 191.9985, 1.3597900000000002E-10, -0.000205039, 25
DataValue, 2.2800000000000004E-09, 193.002, 1.35627E-10, -0.000204458, 25
DataValue, -4.662E-08, 193.9965, 1.3533700000000002E-10, -0.00020440400000000002, 25
DataValue, 2.9310000000000002E-08, 195, 1.3509000000000002E-10, -0.000203608, 25
DataValue, -2.6400000000000004E-09, 196.0035, 1.34745E-10, -0.00020354200000000002, 25
DataValue, -3.0500000000000004E-09, 197.0025, 1.34426E-10, -0.00020286900000000003, 25
DataValue, -4.2140000000000005E-08, 197.9955, 1.3411600000000002E-10, -0.00020269500000000002, 25
DataValue, -8.0000000000000013E-10, 199.0035, 1.33729E-10, -0.00020224400000000002, 25
DataValue, 8.649E-08, 199.9965, 1.3366100000000002E-10, -0.000202012, 25
DataValue, -6.1050000000000007E-08, 201.00300000000001, 1.3318500000000002E-10, -0.00020158100000000002, 25
DataValue, 2.7670000000000002E-08, 201.996, 1.32934E-10, -0.000200936, 25
DataValue, -3.9390000000000004E-08, 202.9995, 1.3267300000000002E-10, -0.00020031600000000003, 25
DataValue, 2.3910000000000004E-08, 204, 1.3234500000000002E-10, -0.000200423, 25
DataValue, 1.9450000000000002E-08, 205.002, 1.32163E-10, -0.00019960500000000002, 25
DataValue, -2.4720000000000002E-08, 206.001, 1.3179900000000002E-10, -0.000199234, 25
DataValue, 4.5480000000000008E-08, 206.9985, 1.31436E-10, -0.00019935300000000001, 25
DataValue, -6.2450000000000007E-08, 207.999, 1.3115400000000002E-10, -0.00019879900000000002, 25
DataValue, -7.409000000000001E-08, 209.001, 1.30978E-10, -0.000198576, 25
DataValue, 5.0050000000000008E-08, 210, 1.3060300000000002E-10, -0.000197915, 25
DataValue, -2.8850000000000004E-08, 211.0035, 1.30331E-10, -0.00019769400000000002, 25
DataValue, 6.825E-08, 212.001, 1.3010300000000002E-10, -0.000197023, 25
DataValue, -7.419E-08, 212.997, 1.2984600000000001E-10, -0.000196705, 25
DataValue, -6.84E-09, 214.00050000000002, 1.2952400000000002E-10, -0.000196013, 25
DataValue, -9.643000000000001E-08, 214.9965, 1.2926E-10, -0.000196324, 25
DataValue, -4.5210000000000006E-08, 216.0045, 1.29073E-10, -0.00019574000000000002, 25
DataValue, -2.2360000000000003E-08, 216.999, 1.2871400000000002E-10, -0.000195341, 25
DataValue, -3.3210000000000004E-08, 217.998, 1.2850000000000002E-10, -0.000194386, 25
DataValue, -2.8580000000000002E-08, 219.0045, 1.28248E-10, -0.00019422500000000002, 25
DataValue, -2.1780000000000004E-08, 220.002, 1.27988E-10, -0.000194111, 25
DataValue, -1.1860000000000002E-08, 220.9995, 1.2784900000000002E-10, -0.000193594, 25
DataValue, -5.9600000000000009E-09, 222.0045, 1.27522E-10, -0.000193541, 25
DataValue, 6.5E-10, 223.005, 1.27292E-10, -0.00019333700000000002, 25
DataValue, 2.0760000000000002E-08, 223.99800000000002, 1.2699900000000002E-10, -0.000192616, 25
DataValue, -6.0070000000000008E-08, 224.9985, 1.26699E-10, -0.000192279, 25
DataValue, -2.2460000000000004E-08, 225.999, 1.2649300000000002E-10, -0.00019183200000000002, 25
DataValue, 2.2810000000000004E-08, 227.001, 1.26254E-10, -0.000192043, 25
DataValue, -9.78E-09, 228, 1.25907E-10, -0.000191367, 25
DataValue, 3.444E-08, 229.00050000000002, 1.2570300000000002E-10, -0.000191253, 25
DataValue, -3.5890000000000006E-08, 230.0025, 1.2554400000000002E-10, -0.000190382, 25
DataValue, 6.025E-08, 231, 1.2529100000000002E-10, -0.00019054100000000002, 25
DataValue, -3.246E-08, 232.008, 1.2503700000000002E-10, -0.000190081, 25
DataValue, 1.9080000000000003E-08, 233.0025, 1.2482000000000002E-10, -0.00018974400000000002, 25
DataValue, 1.2710000000000001E-08, 234, 1.24578E-10, -0.000189284, 25
