
SetupTitle, Cds
ApplicationTest, Cds, Public
TestParameter, Name, Memo, IntegTime, Frequency, OscLevel, Scale, Drain, VdBias, VdStart, VdStop, VdLinearStep, IdLimit, HoldTime, DelayTime, IdMinRange
TestParameter, Value, , SHORT, 1000000, 0.025, LINEAR, CMU1:MF	MFCMU, SMU6:HV	HVSMU, 0, 1000, 1, 0.004, 0, 0.08, 10uA
DutParameter, Name, Polarity, Temp, YAxisCdsMin, YAxisCdsMax
DutParameter, Value, 1, 25, 1E-12, 1E-09
MetaData, TestRecord.EntryPoint, true
MetaData, TestRecord.RecordTime, 12/27/2020 11:01:59
MetaData, TestRecord.TestTarget, 
MetaData, TestRecord.IterationIndex, 17
MetaData, TestRecord.Preservation, true
MetaData, TestRecord.Flag, 
MetaData, TestRecord.Remarks, 
MetaData, TestRecord.LinkKey, ff63bbd4-f32a-4d97-9114-dd79cf5dc25f
Dimension1, 1001, 1001, 1001, 1001, 1001
Dimension2, 1, 1, 1, 1, 1
DataName, Ids, Vdrain, Cds, G, Ta
DataValue, -1.3500000000000002E-08, 0.003, 1.1718E-09, -0.00191463, 25
DataValue, -4.45E-09, 1.0035, 1.00331E-09, -0.00157651, 25
DataValue, 6.115E-08, 1.9995, 9.0093700000000007E-10, -0.00139944, 25
DataValue, -4.8100000000000006E-09, 3.0015, 8.2550700000000005E-10, -0.00127407, 25
DataValue, -4.1920000000000007E-08, 3.9975, 7.6747500000000008E-10, -0.00117984, 25
DataValue, -6.4200000000000006E-09, 4.998, 7.2072200000000009E-10, -0.00110414, 25
DataValue, -8.9850000000000014E-08, 5.9985, 6.816110000000001E-10, -0.00104132, 25
DataValue, -7.8830000000000012E-08, 7.0005, 6.4819700000000007E-10, -0.00098737800000000013, 25
DataValue, 1.1536000000000001E-07, 8.004, 6.18756E-10, -0.0009397120000000001, 25
DataValue, -3.2970000000000003E-08, 8.9985, 5.92648E-10, -0.00089734900000000008, 25
DataValue, -3.1390000000000005E-08, 10.0005, 5.6762500000000009E-10, -0.000856044, 25
DataValue, 3.6380000000000005E-08, 10.998000000000001, 5.3765E-10, -0.0008038, 25
DataValue, 1.2890000000000002E-08, 12.003, 4.79879E-10, -0.000697659, 25
DataValue, -3.385E-08, 12.999, 4.6050500000000006E-10, -0.00066970800000000009, 25
DataValue, 1.7900000000000002E-09, 14.001, 4.42994E-10, -0.00064345100000000007, 25
DataValue, -5.2030000000000003E-08, 14.994, 4.2695900000000003E-10, -0.00061921400000000009, 25
DataValue, 9.16E-09, 16.0035, 4.1227300000000004E-10, -0.000598212, 25
DataValue, 1.121E-08, 16.998, 3.98844E-10, -0.00057882700000000007, 25
DataValue, -4.39E-08, 17.9985, 3.8656500000000005E-10, -0.000560509, 25
DataValue, 5.2270000000000004E-08, 19.002, 3.75382E-10, -0.00054465200000000007, 25
DataValue, 1.6620000000000003E-08, 20.004, 3.64943E-10, -0.00052941, 25
DataValue, -2.757E-08, 21, 3.5497900000000004E-10, -0.000515891, 25
DataValue, -7.6400000000000009E-09, 21.9975, 3.45636E-10, -0.00050254, 25
DataValue, -8.48E-09, 22.9965, 3.36534E-10, -0.000489954, 25
DataValue, 2.77E-09, 23.9985, 3.27995E-10, -0.000478045, 25
DataValue, 4.879E-08, 25.0005, 3.19974E-10, -0.000465602, 25
DataValue, -3.0690000000000005E-08, 25.9965, 3.12439E-10, -0.00045588000000000003, 25
DataValue, -2.0630000000000003E-08, 26.9985, 3.0526700000000005E-10, -0.00044576, 25
DataValue, 1.239E-08, 28.002, 2.98572E-10, -0.00043580500000000005, 25
DataValue, -1.0550000000000002E-08, 28.998, 2.91895E-10, -0.00042621200000000003, 25
DataValue, 3.4400000000000005E-09, 30, 2.85357E-10, -0.000416864, 25
DataValue, 2.8E-10, 31.000500000000002, 2.78722E-10, -0.000407464, 25
DataValue, 2.8510000000000002E-08, 32.0025, 2.7257200000000004E-10, -0.000398103, 25
DataValue, -1.787E-08, 33, 2.66857E-10, -0.00039011000000000004, 25
DataValue, 3.41E-08, 34.0035, 2.61593E-10, -0.00038232, 25
DataValue, 2.6850000000000002E-08, 34.998, 2.56786E-10, -0.00037468500000000004, 25
DataValue, 4.5980000000000005E-08, 36.0015, 2.5213500000000003E-10, -0.000368256, 25
DataValue, -2.3270000000000003E-08, 37.002, 2.47764E-10, -0.00036281800000000005, 25
DataValue, -2.422E-08, 37.998, 2.43628E-10, -0.00035667, 25
DataValue, 8.2E-09, 39.009, 2.39723E-10, -0.000350914, 25
DataValue, -2.7840000000000003E-08, 39.9945, 2.35993E-10, -0.00034645300000000004, 25
DataValue, -1.677E-08, 40.9965, 2.3246000000000002E-10, -0.00034046200000000003, 25
DataValue, -1.88E-09, 41.9955, 2.29102E-10, -0.000335282, 25
DataValue, -5.2390000000000008E-08, 43.0005, 2.26002E-10, -0.00033163100000000004, 25
DataValue, -4.4940000000000004E-08, 43.9995, 2.2297E-10, -0.00032731700000000004, 25
DataValue, -3.772E-08, 44.9985, 2.1998000000000003E-10, -0.000322837, 25
DataValue, -7.081000000000001E-08, 45.9975, 2.1734300000000002E-10, -0.00031847, 25
DataValue, 6.383000000000001E-08, 46.9995, 2.14569E-10, -0.00031513600000000004, 25
DataValue, -4.9690000000000004E-08, 47.994, 2.11924E-10, -0.000311126, 25
DataValue, -4.687E-08, 49.002, 2.09447E-10, -0.000307429, 25
DataValue, 2.2750000000000002E-08, 50.001, 2.0703E-10, -0.00030422, 25
DataValue, -7.07E-08, 51, 2.0467600000000003E-10, -0.000300787, 25
DataValue, 5.5530000000000008E-08, 51.999, 2.0243300000000002E-10, -0.000296739, 25
DataValue, -4.3990000000000005E-08, 52.996500000000005, 2.0024200000000002E-10, -0.00029480800000000003, 25
DataValue, -7.190000000000001E-09, 54, 1.98138E-10, -0.000291367, 25
DataValue, -5.1100000000000008E-09, 55.0035, 1.9614E-10, -0.000288654, 25
DataValue, 2.2990000000000003E-08, 55.996500000000005, 1.9415200000000001E-10, -0.000285398, 25
DataValue, 1.026E-08, 56.9985, 1.9231E-10, -0.000283241, 25
DataValue, -3.3600000000000004E-09, 58.002, 1.9047900000000002E-10, -0.00028045500000000004, 25
DataValue, -4.4280000000000003E-08, 58.999500000000005, 1.88722E-10, -0.000277713, 25
DataValue, 6.54E-08, 60.0045, 1.86947E-10, -0.000275468, 25
DataValue, -3.9100000000000008E-09, 61.005, 1.8528100000000001E-10, -0.000273272, 25
DataValue, -5.3800000000000005E-08, 61.996500000000005, 1.8356400000000002E-10, -0.000270034, 25
DataValue, -1.815E-08, 63, 1.81963E-10, -0.000268412, 25
DataValue, -3.8660000000000003E-08, 64.0005, 1.80299E-10, -0.000265933, 25
DataValue, 2.1730000000000003E-08, 65.001, 1.7881600000000003E-10, -0.000263934, 25
DataValue, 6.5E-10, 65.9985, 1.77213E-10, -0.000260982, 25
DataValue, 1.1780000000000002E-08, 66.999, 1.75885E-10, -0.000259144, 25
DataValue, -1.522E-08, 68.001, 1.7437300000000001E-10, -0.00025760100000000004, 25
DataValue, 8.795E-08, 69.007500000000007, 1.73077E-10, -0.000254849, 25
DataValue, -4.1030000000000004E-08, 69.996, 1.71696E-10, -0.000253488, 25
DataValue, 9.4800000000000012E-09, 70.9995, 1.70407E-10, -0.00025156500000000004, 25
DataValue, -1.4320000000000002E-08, 72, 1.69075E-10, -0.000249756, 25
DataValue, 3.168E-08, 73.002, 1.67917E-10, -0.000247638, 25
DataValue, -3.385E-08, 74.004, 1.6683100000000002E-10, -0.00024666600000000004, 25
DataValue, 8.0640000000000013E-08, 75, 1.65547E-10, -0.00024476, 25
DataValue, -5.1690000000000008E-08, 75.999, 1.6434000000000002E-10, -0.00024303200000000001, 25
DataValue, 1.0376000000000001E-07, 77.001, 1.63172E-10, -0.00024127100000000002, 25
DataValue, -4.8110000000000005E-08, 77.9985, 1.6206800000000002E-10, -0.000239816, 25
DataValue, 8.06E-09, 79.002, 1.6096E-10, -0.00023798000000000002, 25
DataValue, -3.2330000000000006E-08, 79.9995, 1.5991600000000002E-10, -0.00023621900000000002, 25
DataValue, -1.3180000000000001E-08, 81, 1.58779E-10, -0.000235431, 25
DataValue, 5.1030000000000008E-08, 82.002, 1.5773700000000002E-10, -0.000233457, 25
DataValue, -1.693E-08, 82.998, 1.5672500000000002E-10, -0.00023249400000000003, 25
DataValue, 1.1410000000000001E-08, 83.994, 1.5569800000000002E-10, -0.000230391, 25
DataValue, 1.7400000000000002E-09, 84.996, 1.5466400000000002E-10, -0.00022883700000000002, 25
DataValue, -1.389E-08, 85.998, 1.5370800000000001E-10, -0.00022752000000000002, 25
DataValue, 9.555E-08, 87.001500000000007, 1.5274100000000002E-10, -0.00022609300000000002, 25
DataValue, 3.4290000000000005E-08, 87.9975, 1.5183100000000002E-10, -0.000224892, 25
DataValue, -6.4800000000000011E-08, 89.001, 1.50892E-10, -0.00022352500000000003, 25
DataValue, -2.9040000000000004E-08, 89.9985, 1.50028E-10, -0.00022189, 25
DataValue, -4.8150000000000004E-08, 90.999, 1.49202E-10, -0.000220757, 25
DataValue, 4.0800000000000008E-09, 91.9965, 1.48395E-10, -0.00021958600000000002, 25
DataValue, 4.3640000000000006E-08, 93.004500000000007, 1.4752300000000002E-10, -0.00021820400000000003, 25
DataValue, -7.0940000000000012E-08, 94.002, 1.46686E-10, -0.00021795400000000002, 25
DataValue, 2.434E-08, 94.9965, 1.4593800000000002E-10, -0.000215991, 25
DataValue, 3.4420000000000006E-08, 96, 1.45153E-10, -0.00021558700000000002, 25
DataValue, -4.6100000000000004E-09, 97.0005, 1.44279E-10, -0.000214496, 25
DataValue, 5.3330000000000008E-08, 98.001, 1.4363200000000002E-10, -0.000213021, 25
DataValue, -5.0940000000000005E-08, 98.9985, 1.4287000000000002E-10, -0.00021172400000000002, 25
DataValue, 1.2190000000000002E-08, 100.0005, 1.42051E-10, -0.000210974, 25
DataValue, -8.7400000000000008E-09, 101.001, 1.4139400000000002E-10, -0.00020958200000000001, 25
DataValue, -5.008E-08, 102, 1.40584E-10, -0.000208896, 25
DataValue, -3.7910000000000007E-08, 103.0035, 1.3985600000000001E-10, -0.00020748200000000002, 25
DataValue, -3.18E-09, 103.998, 1.3913300000000002E-10, -0.000205791, 25
DataValue, -9.78E-09, 104.9985, 1.3849800000000002E-10, -0.000205171, 25
DataValue, 5.100000000000001E-10, 106.002, 1.37745E-10, -0.000204173, 25
DataValue, -4.3960000000000005E-08, 107.001, 1.3711500000000002E-10, -0.000203021, 25
DataValue, -2.9470000000000002E-08, 107.9955, 1.36365E-10, -0.00020198900000000002, 25
DataValue, -6.345E-08, 109.0005, 1.35718E-10, -0.000201071, 25
DataValue, 5.7300000000000007E-09, 110.001, 1.3512900000000002E-10, -0.000200456, 25
DataValue, -3.6670000000000003E-08, 111, 1.34413E-10, -0.000199575, 25
DataValue, -3.3490000000000004E-08, 112.0005, 1.33733E-10, -0.000198592, 25
DataValue, 4.2900000000000007E-09, 112.9965, 1.33165E-10, -0.000197566, 25
DataValue, -1.1247000000000001E-07, 113.997, 1.32514E-10, -0.00019694300000000002, 25
DataValue, 3.93E-08, 115.0005, 1.31861E-10, -0.000195326, 25
DataValue, -8.06E-09, 116.001, 1.3131100000000002E-10, -0.000195116, 25
DataValue, -4.7980000000000003E-08, 117.00150000000001, 1.3077500000000002E-10, -0.00019372400000000002, 25
DataValue, -9.7500000000000013E-09, 117.99600000000001, 1.3021100000000002E-10, -0.00019284100000000002, 25
DataValue, -8.7800000000000015E-09, 118.9965, 1.2956000000000002E-10, -0.000192398, 25
DataValue, -3.5160000000000005E-08, 120.003, 1.29095E-10, -0.00019147600000000002, 25
DataValue, 6.285000000000001E-08, 120.9975, 1.28561E-10, -0.000190568, 25
DataValue, -9.5160000000000013E-08, 122.0025, 1.2804E-10, -0.000190189, 25
DataValue, 7.616E-08, 123.00150000000001, 1.27416E-10, -0.000188733, 25
DataValue, -3.56E-08, 123.9975, 1.2691E-10, -0.00018840100000000001, 25
DataValue, -3.95E-08, 125.001, 1.26458E-10, -0.000187765, 25
DataValue, 2.2640000000000003E-08, 126.00150000000001, 1.2598400000000002E-10, -0.000186479, 25
DataValue, 1.033E-08, 127.00200000000001, 1.2542300000000002E-10, -0.00018615300000000002, 25
DataValue, -2.9560000000000005E-08, 127.998, 1.24918E-10, -0.000185939, 25
DataValue, -2.0790000000000003E-08, 128.9985, 1.2440200000000002E-10, -0.00018465400000000003, 25
DataValue, 3.6300000000000005E-09, 130.002, 1.2398000000000002E-10, -0.00018391000000000002, 25
DataValue, 2.5630000000000002E-08, 131.0025, 1.23393E-10, -0.000183623, 25
DataValue, 2.997E-08, 132, 1.22855E-10, -0.000182599, 25
DataValue, -8.8970000000000009E-08, 132.996, 1.2239E-10, -0.000181575, 25
DataValue, 1.3350000000000002E-08, 134.0025, 1.21935E-10, -0.000181019, 25
DataValue, 1.703E-08, 134.997, 1.2143300000000001E-10, -0.00018050800000000001, 25
DataValue, 1.0000000000000002E-10, 136.0035, 1.20973E-10, -0.000179707, 25
DataValue, -2.5730000000000003E-08, 136.9965, 1.20516E-10, -0.000178784, 25
DataValue, 3.814E-08, 138, 1.2006800000000001E-10, -0.000178306, 25
DataValue, -3.63E-08, 138.9975, 1.19694E-10, -0.000177693, 25
DataValue, 6.408E-08, 140.0025, 1.19181E-10, -0.000176803, 25
DataValue, -4.4400000000000007E-08, 141.0015, 1.18644E-10, -0.000176312, 25
DataValue, 4.3700000000000004E-09, 142.00050000000002, 1.18165E-10, -0.000175541, 25
DataValue, -1.0960000000000002E-08, 142.995, 1.17829E-10, -0.000174987, 25
DataValue, -6.2100000000000007E-09, 143.997, 1.17382E-10, -0.00017449200000000002, 25
DataValue, -1.4960000000000003E-08, 145.002, 1.17E-10, -0.000173771, 25
DataValue, -5.0280000000000004E-08, 145.998, 1.16472E-10, -0.00017330400000000002, 25
DataValue, 1.851E-08, 147, 1.1611600000000001E-10, -0.00017302000000000002, 25
DataValue, -3.175E-08, 147.9975, 1.1568600000000001E-10, -0.000172515, 25
DataValue, 1.785E-08, 148.998, 1.15294E-10, -0.000171897, 25
DataValue, -5.6900000000000008E-09, 150, 1.14866E-10, -0.000170908, 25
DataValue, -2.052E-08, 151.0035, 1.14554E-10, -0.000170741, 25
DataValue, 1.0000000000000001E-11, 151.9995, 1.1406800000000001E-10, -0.000169738, 25
DataValue, -2.2500000000000003E-09, 153.0045, 1.1380300000000001E-10, -0.000169691, 25
DataValue, -2.019E-08, 153.999, 1.1344400000000001E-10, -0.000168808, 25
DataValue, -3.2360000000000007E-08, 154.9995, 1.13097E-10, -0.000168839, 25
DataValue, 4.2530000000000004E-08, 156, 1.1265200000000001E-10, -0.000167917, 25
DataValue, -2.211E-08, 157.0035, 1.12383E-10, -0.000167104, 25
DataValue, 4.3750000000000005E-08, 157.9965, 1.1201300000000001E-10, -0.000166734, 25
DataValue, 1.4740000000000002E-08, 159.0015, 1.1161200000000001E-10, -0.000166059, 25
DataValue, -5.3440000000000007E-08, 160.005, 1.1130400000000001E-10, -0.00016573300000000002, 25
DataValue, 7.4500000000000005E-09, 160.9995, 1.1092E-10, -0.00016483800000000002, 25
DataValue, 1.7860000000000002E-08, 162, 1.1057900000000001E-10, -0.000165364, 25
DataValue, -4.216E-08, 163.002, 1.1027900000000001E-10, -0.00016412000000000002, 25
DataValue, -7.6400000000000009E-09, 164.001, 1.0988400000000001E-10, -0.000164119, 25
DataValue, -6.0960000000000011E-08, 164.9985, 1.0951E-10, -0.000163646, 25
DataValue, 3.8E-08, 166.005, 1.09186E-10, -0.00016276500000000002, 25
DataValue, -1.273E-08, 166.9995, 1.0887600000000001E-10, -0.000162125, 25
DataValue, 8.96E-09, 168.00300000000001, 1.0849700000000001E-10, -0.000162082, 25
DataValue, -2.846E-08, 169.0035, 1.0814900000000001E-10, -0.0001617, 25
DataValue, 5.5000000000000004E-09, 169.9995, 1.0788E-10, -0.000160905, 25
DataValue, 4.7400000000000006E-09, 171.00300000000001, 1.0749300000000001E-10, -0.000160555, 25
DataValue, 1.7800000000000003E-09, 172.002, 1.0718700000000001E-10, -0.000159894, 25
DataValue, -4.62E-09, 172.998, 1.0682900000000001E-10, -0.000159342, 25
DataValue, -1.8240000000000003E-08, 173.997, 1.06533E-10, -0.000158436, 25
DataValue, -5.0500000000000006E-09, 175.002, 1.06209E-10, -0.000158746, 25
DataValue, -1.8660000000000003E-08, 176.001, 1.05844E-10, -0.000158087, 25
DataValue, -5.9290000000000004E-08, 176.997, 1.0555900000000001E-10, -0.00015751800000000002, 25
DataValue, -8.0000000000000013E-10, 178.0035, 1.05296E-10, -0.00015685700000000002, 25
DataValue, 3.0500000000000004E-09, 179.0025, 1.0496100000000001E-10, -0.000156777, 25
DataValue, -1.2480000000000002E-08, 180, 1.04657E-10, -0.00015568800000000002, 25
DataValue, 2.1800000000000003E-08, 181.002, 1.0429900000000001E-10, -0.00015577900000000001, 25
DataValue, -2.2740000000000004E-08, 181.998, 1.04107E-10, -0.000155183, 25
DataValue, 1.163E-08, 183.00300000000001, 1.0379900000000001E-10, -0.000154417, 25
DataValue, 8.81E-09, 184.00050000000002, 1.03482E-10, -0.00015446400000000002, 25
DataValue, -1.825E-08, 184.9995, 1.0311200000000001E-10, -0.00015413200000000002, 25
DataValue, 4.8400000000000007E-09, 186.0015, 1.0290000000000001E-10, -0.00015359300000000002, 25
DataValue, -1.705E-08, 187.00050000000002, 1.0257900000000001E-10, -0.000153389, 25
DataValue, -4.8430000000000004E-08, 187.998, 1.0235100000000001E-10, -0.000152752, 25
DataValue, 6.692E-08, 189.00300000000001, 1.02126E-10, -0.000152415, 25
DataValue, -4.331E-08, 190.00050000000002, 1.0176500000000001E-10, -0.000152098, 25
DataValue, -1.8350000000000002E-08, 190.9965, 1.0151800000000001E-10, -0.000151399, 25
DataValue, -5.277E-08, 192.0045, 1.0133300000000001E-10, -0.000151007, 25
DataValue, -4.2180000000000004E-08, 192.996, 1.0101200000000001E-10, -0.00015058, 25
DataValue, -4.171E-08, 193.998, 1.0074E-10, -0.000150476, 25
DataValue, 2.4020000000000003E-08, 194.9985, 1.00434E-10, -0.00015021000000000001, 25
DataValue, -9.9400000000000017E-09, 196.002, 1.00244E-10, -0.00014969, 25
DataValue, -2.12E-09, 196.9995, 9.99832E-11, -0.00014978000000000002, 25
DataValue, 3.8510000000000005E-08, 198.00300000000001, 9.97448E-11, -0.00014896200000000002, 25
DataValue, -8.06E-09, 199.00050000000002, 9.9479199999999992E-11, -0.000148474, 25
DataValue, 4.0280000000000007E-08, 200.001, 9.92103E-11, -0.000148052, 25
DataValue, -1.08E-08, 201.0015, 9.90148E-11, -0.00014780900000000002, 25
DataValue, -4.966E-08, 202.00050000000002, 9.87053E-11, -0.00014714800000000002, 25
DataValue, -2.143E-08, 202.9935, 9.8509799999999992E-11, -0.000147038, 25
DataValue, -6.1190000000000007E-08, 204, 9.82648E-11, -0.00014666400000000002, 25
DataValue, 1.6340000000000003E-08, 205.002, 9.7984E-11, -0.000146117, 25
DataValue, -9.2000000000000013E-09, 205.9965, 9.7733599999999992E-11, -0.000146327, 25
DataValue, -8.526000000000001E-08, 207.0015, 9.7527E-11, -0.00014535900000000002, 25
DataValue, -2.3430000000000002E-08, 208.005, 9.72522E-11, -0.000145143, 25
DataValue, 6.278000000000001E-08, 209.0025, 9.6961899999999992E-11, -0.00014519400000000002, 25
DataValue, 2.0360000000000002E-08, 210.0015, 9.67558E-11, -0.00014418000000000002, 25
DataValue, 2.1680000000000003E-08, 211.00050000000002, 9.65625E-11, -0.000143907, 25
DataValue, -1.3790000000000001E-08, 212.001, 9.62221E-11, -0.000143713, 25
DataValue, -8.8050000000000011E-08, 212.9985, 9.60344E-11, -0.000143132, 25
DataValue, 2.4590000000000004E-08, 214.00050000000002, 9.57061E-11, -0.000142988, 25
DataValue, -4.3360000000000006E-08, 214.9995, 9.56248E-11, -0.000143112, 25
DataValue, -1.4700000000000001E-08, 216, 9.53557E-11, -0.00014268400000000002, 25
DataValue, -4.8010000000000004E-08, 217.005, 9.50992E-11, -0.00014223300000000002, 25
DataValue, -2.4600000000000002E-08, 217.9995, 9.48719E-11, -0.000142182, 25
DataValue, -1.963E-08, 218.9985, 9.46184E-11, -0.000141235, 25
DataValue, 5.0700000000000009E-09, 220.002, 9.44623E-11, -0.00014173700000000002, 25
DataValue, -3.008E-08, 220.9965, 9.42057E-11, -0.000140996, 25
DataValue, 2.71E-08, 222.0015, 9.39823E-11, -0.000140759, 25
DataValue, -1.586E-08, 222.993, 9.37409E-11, -0.00014030300000000002, 25
DataValue, 6.704000000000001E-08, 224.001, 9.35573E-11, -0.000139796, 25
DataValue, -2.6760000000000003E-08, 225.00300000000001, 9.34019E-11, -0.000139381, 25
DataValue, -1.3470000000000001E-08, 226.00050000000002, 9.31539E-11, -0.000139278, 25
DataValue, -6.334000000000001E-08, 226.9965, 9.2992E-11, -0.000138922, 25
DataValue, -4.9700000000000008E-08, 227.9985, 9.27253E-11, -0.000138775, 25
DataValue, 3.79E-09, 228.999, 9.2510099999999992E-11, -0.000138553, 25
DataValue, 1.846E-08, 229.9995, 9.24106E-11, -0.000137806, 25
DataValue, -3.1400000000000003E-09, 231, 9.21111E-11, -0.000137989, 25
DataValue, -3.531E-08, 231.9975, 9.18715E-11, -0.00013748500000000002, 25
DataValue, -6.2380000000000007E-08, 233.0025, 9.17671E-11, -0.000137133, 25
DataValue, 6.540000000000001E-09, 234.0015, 9.16148E-11, -0.000137273, 25
DataValue, -3.074E-08, 235.00050000000002, 9.13885E-11, -0.00013667800000000002, 25
DataValue, -6.0620000000000009E-08, 236.001, 9.11995E-11, -0.000136517, 25
DataValue, 1.5960000000000002E-08, 237.0015, 9.09716E-11, -0.000135594, 25
DataValue, 1.8310000000000003E-08, 238.002, 9.07899E-11, -0.000135818, 25
DataValue, 3.637E-08, 238.9995, 9.06079E-11, -0.000135796, 25
