
SetupTitle, Cds
ApplicationTest, Cds, Public
TestParameter, Name, Memo, IntegTime, Frequency, OscLevel, Scale, Drain, VdBias, VdStart, VdStop, VdLinearStep, IdLimit, HoldTime, DelayTime, IdMinRange
TestParameter, Value, , SHORT, 1000000, 0.025, LINEAR, CMU1:MF	MFCMU, SMU6:HV	HVSMU, 0, 1000, 1, 0.004, 0, 0.08, 10uA
DutParameter, Name, Polarity, Temp, YAxisCdsMin, YAxisCdsMax
DutParameter, Value, 1, 25, 1E-12, 1E-09
MetaData, TestRecord.EntryPoint, true
MetaData, TestRecord.RecordTime, 12/27/2020 11:35:52
MetaData, TestRecord.TestTarget, 
MetaData, TestRecord.IterationIndex, 19
MetaData, TestRecord.Preservation, true
MetaData, TestRecord.Flag, 
MetaData, TestRecord.Remarks, 
MetaData, TestRecord.LinkKey, 56bdd66f-d1ed-4e2c-90ae-47e0005e7d92
Dimension1, 1001, 1001, 1001, 1001, 1001
Dimension2, 1, 1, 1, 1, 1
DataName, Ids, Vdrain, Cds, G, Ta
DataValue, 1.225E-08, -0.003, 1.12818E-09, -0.00161705, 25
DataValue, 3.005E-08, 1.0005, 9.7478100000000013E-10, -0.0013815000000000001, 25
DataValue, 1.0760000000000002E-08, 1.9965, 8.7607400000000009E-10, -0.00123281, 25
DataValue, 7.4200000000000004E-09, 2.9985, 8.0316500000000009E-10, -0.00112378, 25
DataValue, -2.5890000000000002E-08, 3.999, 7.4745E-10, -0.00103996, 25
DataValue, -8.940000000000001E-09, 4.9995, 7.0142100000000005E-10, -0.00097107700000000009, 25
DataValue, 2.5070000000000002E-08, 6.006, 6.6332400000000008E-10, -0.00091481300000000011, 25
DataValue, 1.0510000000000001E-08, 6.996, 6.3057400000000006E-10, -0.00086484100000000009, 25
DataValue, 9.0600000000000014E-09, 7.998, 6.01428E-10, -0.000820745, 25
DataValue, 2.2480000000000003E-08, 9.0015, 5.7319000000000006E-10, -0.00077785600000000006, 25
DataValue, -7.61E-09, 9.999, 5.3984100000000008E-10, -0.000692931, 25
DataValue, 4.17E-09, 11.001, 4.9000100000000007E-10, -0.000643074, 25
DataValue, -8.5000000000000006E-10, 11.9985, 4.72181E-10, -0.000617545, 25
DataValue, -9.1400000000000011E-09, 13.0035, 4.5673500000000003E-10, -0.00059629600000000007, 25
DataValue, 1.8500000000000002E-09, 13.998000000000001, 4.4321400000000005E-10, -0.000576618, 25
DataValue, -3.046E-08, 15.003, 4.3078000000000004E-10, -0.000559686, 25
DataValue, -4.3700000000000004E-09, 16.0005, 4.1955400000000005E-10, -0.000543611, 25
DataValue, 1.48E-09, 16.9965, 4.09274E-10, -0.00052991000000000008, 25
DataValue, 2.1990000000000004E-08, 18.003, 3.99776E-10, -0.000516795, 25
DataValue, -9.09E-09, 18.996, 3.9083600000000003E-10, -0.000504554, 25
DataValue, 7.4000000000000009E-09, 19.998, 3.8262400000000005E-10, -0.000493519, 25
DataValue, -3.396E-08, 21, 3.74887E-10, -0.000483454, 25
DataValue, -2.108E-08, 21.999, 3.6754E-10, -0.000473104, 25
DataValue, 1.5190000000000002E-08, 22.998, 3.60816E-10, -0.00046444700000000005, 25
DataValue, 2.1440000000000002E-08, 24, 3.5430300000000003E-10, -0.000455107, 25
DataValue, -4.11E-09, 25.002, 3.4817600000000005E-10, -0.00044700500000000005, 25
DataValue, 4.3300000000000006E-09, 25.995, 3.42391E-10, -0.00043964000000000004, 25
DataValue, 1.41E-09, 26.997, 3.3695200000000003E-10, -0.000432891, 25
DataValue, 2.2050000000000002E-08, 28.0035, 3.31599E-10, -0.00042575, 25
DataValue, -1.4010000000000001E-08, 29.0025, 3.2670100000000003E-10, -0.00042003900000000004, 25
DataValue, 2.1590000000000003E-08, 30.0015, 3.2188100000000004E-10, -0.00041299, 25
DataValue, -2.073E-08, 31.000500000000002, 3.17315E-10, -0.00040742800000000004, 25
DataValue, -5.2460000000000008E-08, 32.001, 3.1286500000000004E-10, -0.00040197000000000003, 25
DataValue, -6.6290000000000007E-08, 32.997, 3.08836E-10, -0.000396109, 25
DataValue, -1.4480000000000001E-08, 33.996, 3.0466200000000003E-10, -0.000391382, 25
DataValue, 3.458E-08, 34.998, 3.0083500000000003E-10, -0.000385894, 25
DataValue, 2.8310000000000003E-08, 36.0045, 2.9716700000000005E-10, -0.00038137200000000005, 25
DataValue, -1.841E-08, 36.996, 2.93704E-10, -0.000376553, 25
DataValue, -3.511E-08, 37.9995, 2.90107E-10, -0.000373034, 25
DataValue, 3.099E-08, 39.003, 2.8677600000000003E-10, -0.00036986900000000005, 25
DataValue, -9.02E-09, 40.0005, 2.83489E-10, -0.00036548500000000003, 25
DataValue, 2.366E-08, 40.9995, 2.80482E-10, -0.000361307, 25
DataValue, -2.9200000000000003E-09, 41.9985, 2.7744700000000003E-10, -0.000357551, 25
DataValue, -1.836E-08, 42.999, 2.7455400000000003E-10, -0.000353796, 25
DataValue, -1.53E-09, 44.001, 2.71791E-10, -0.00035039800000000003, 25
DataValue, 5.6680000000000009E-08, 45.0015, 2.6902900000000004E-10, -0.000346886, 25
DataValue, 6.1800000000000006E-09, 45.9975, 2.6632E-10, -0.000344085, 25
DataValue, -4.89E-09, 46.998, 2.63805E-10, -0.00034039700000000004, 25
DataValue, -3.1040000000000005E-08, 48.0045, 2.61311E-10, -0.00033753900000000004, 25
DataValue, 1.1440000000000002E-08, 48.999, 2.5884E-10, -0.00033530500000000004, 25
DataValue, -3.1780000000000004E-08, 50.0025, 2.5645100000000004E-10, -0.000331984, 25
DataValue, -3.9250000000000004E-08, 50.9985, 2.54229E-10, -0.000329429, 25
DataValue, -5.4500000000000008E-09, 51.9975, 2.5194800000000003E-10, -0.000326813, 25
DataValue, 1.286E-08, 53.001, 2.49716E-10, -0.000324503, 25
DataValue, -3.9170000000000006E-08, 54, 2.4763500000000004E-10, -0.00032163900000000003, 25
DataValue, 1.1720000000000002E-08, 55.0005, 2.45479E-10, -0.000319365, 25
DataValue, 1.6010000000000002E-08, 56.001, 2.4349400000000004E-10, -0.00031732, 25
DataValue, 5.7280000000000007E-08, 57.0015, 2.41521E-10, -0.000314844, 25
DataValue, 3.529E-08, 58.005, 2.3955900000000004E-10, -0.00031315600000000004, 25
DataValue, -4.509E-08, 59.001000000000005, 2.3761800000000004E-10, -0.000310889, 25
DataValue, -5.0900000000000004E-09, 60.003, 2.35742E-10, -0.000308809, 25
DataValue, -4.9700000000000008E-08, 60.999, 2.33986E-10, -0.00030689300000000003, 25
DataValue, -2.6220000000000003E-08, 62.002500000000005, 2.3213300000000003E-10, -0.000304856, 25
DataValue, 9.0000000000000012E-09, 62.9955, 2.3047700000000002E-10, -0.000302688, 25
DataValue, -1.5100000000000003E-08, 64.0005, 2.2872200000000003E-10, -0.00030098500000000003, 25
DataValue, -2.1920000000000004E-08, 64.998, 2.27089E-10, -0.000299224, 25
DataValue, -3.305E-08, 65.994, 2.2544600000000003E-10, -0.000297647, 25
DataValue, 3.3400000000000005E-09, 66.9945, 2.2394200000000002E-10, -0.00029543, 25
DataValue, -1.3110000000000001E-08, 67.9995, 2.22244E-10, -0.000293871, 25
DataValue, -2.82E-09, 69.001500000000007, 2.2081E-10, -0.00029213000000000004, 25
DataValue, -7.2770000000000009E-08, 70.002, 2.1930800000000003E-10, -0.00029085, 25
DataValue, -5.92E-09, 71.004, 2.1782900000000003E-10, -0.000289302, 25
DataValue, 2.36E-09, 72.007500000000007, 2.1642700000000002E-10, -0.00028808400000000003, 25
DataValue, 1.7800000000000003E-09, 73.005, 2.1502900000000002E-10, -0.000286692, 25
DataValue, 3.4350000000000006E-08, 73.995, 2.1364200000000002E-10, -0.000284818, 25
DataValue, -2.5010000000000004E-08, 74.9985, 2.1234600000000001E-10, -0.00028364700000000004, 25
DataValue, -7.3100000000000006E-09, 75.9945, 2.1096400000000002E-10, -0.000281624, 25
DataValue, -5.9190000000000009E-08, 76.9995, 2.0964800000000003E-10, -0.00028041700000000004, 25
DataValue, 1.0380000000000001E-08, 78.001500000000007, 2.0841700000000002E-10, -0.000279313, 25
DataValue, 6.000000000000001E-10, 79.0005, 2.07175E-10, -0.00027785900000000004, 25
DataValue, -7.3500000000000005E-09, 79.9965, 2.0591400000000002E-10, -0.000276892, 25
DataValue, -5.9040000000000005E-08, 81, 2.0469000000000002E-10, -0.000276136, 25
DataValue, 8.9E-09, 82.002, 2.03505E-10, -0.000274723, 25
DataValue, -2.6250000000000003E-08, 82.995, 2.0234300000000002E-10, -0.00027322800000000003, 25
DataValue, 1.0790000000000001E-08, 84.003, 2.0118500000000001E-10, -0.000271745, 25
DataValue, -8.6000000000000009E-09, 84.999, 2.00093E-10, -0.000270906, 25
DataValue, -3.9410000000000007E-08, 86.004, 1.98949E-10, -0.00026956800000000003, 25
DataValue, 1.604E-08, 87, 1.9783200000000002E-10, -0.000268682, 25
DataValue, 3.0730000000000005E-08, 87.996, 1.9672000000000002E-10, -0.000268321, 25
DataValue, 1.2510000000000001E-08, 89.004, 1.9574000000000001E-10, -0.00026594600000000003, 25
DataValue, -4.8700000000000006E-08, 90.001500000000007, 1.9466200000000002E-10, -0.00026557800000000004, 25
DataValue, -6.254E-08, 91.002, 1.9366500000000002E-10, -0.000264344, 25
DataValue, -5.1840000000000006E-08, 91.995, 1.9267000000000002E-10, -0.00026317500000000004, 25
DataValue, -5.7830000000000009E-08, 93, 1.91581E-10, -0.00026259, 25
DataValue, -4.0840000000000007E-08, 93.996, 1.90686E-10, -0.00026133, 25
DataValue, -7.5130000000000012E-08, 94.9995, 1.8981600000000001E-10, -0.00026023100000000004, 25
DataValue, 7.86E-08, 96.004500000000007, 1.88772E-10, -0.000259486, 25
DataValue, -1.108E-08, 96.999, 1.87838E-10, -0.00025891, 25
DataValue, -1.5330000000000002E-08, 97.9995, 1.8696600000000002E-10, -0.000257608, 25
DataValue, -1.4E-10, 98.9985, 1.8591500000000002E-10, -0.00025721100000000003, 25
DataValue, 1.598E-08, 100.0035, 1.851E-10, -0.000256038, 25
DataValue, 7.72E-09, 101.0025, 1.8425700000000002E-10, -0.00025535, 25
DataValue, -7.2410000000000011E-08, 101.997, 1.83301E-10, -0.000254012, 25
DataValue, -2.5590000000000003E-08, 103.0035, 1.8251900000000002E-10, -0.000253088, 25
DataValue, 3.801E-08, 103.995, 1.81622E-10, -0.000252562, 25
DataValue, 4.9040000000000008E-08, 105.00450000000001, 1.8091900000000002E-10, -0.000251771, 25
DataValue, 1.1240000000000002E-08, 106.0005, 1.8002300000000002E-10, -0.000250714, 25
DataValue, -6.275E-08, 106.998, 1.7928000000000003E-10, -0.00025004300000000003, 25
DataValue, 2.3440000000000003E-08, 107.997, 1.78434E-10, -0.000249438, 25
DataValue, -1.0230000000000001E-08, 109.0005, 1.7767300000000002E-10, -0.000248843, 25
DataValue, 1.801E-08, 109.998, 1.7688300000000001E-10, -0.000248023, 25
DataValue, -1.85E-08, 110.9985, 1.7612500000000003E-10, -0.00024742000000000004, 25
DataValue, -3.5600000000000005E-09, 112.002, 1.7544900000000002E-10, -0.000246368, 25
DataValue, -3.6690000000000006E-08, 112.9995, 1.7468400000000002E-10, -0.000245704, 25
DataValue, -2.2290000000000003E-08, 114, 1.7392800000000002E-10, -0.000244728, 25
DataValue, 7.5690000000000011E-08, 115.0005, 1.7316900000000003E-10, -0.000243911, 25
DataValue, 1.6240000000000002E-08, 116.0055, 1.72452E-10, -0.00024382300000000003, 25
DataValue, 4.188E-08, 116.997, 1.71865E-10, -0.00024289500000000003, 25
DataValue, -2.9300000000000004E-09, 118.0035, 1.71012E-10, -0.000241463, 25
DataValue, -1.525E-08, 119.0025, 1.70404E-10, -0.00024183300000000003, 25
DataValue, 1.1000000000000001E-08, 120.006, 1.6968E-10, -0.00024068300000000003, 25
DataValue, 4.5560000000000006E-08, 120.99900000000001, 1.6901600000000002E-10, -0.00023993600000000003, 25
DataValue, 3.455E-08, 121.9995, 1.6835000000000002E-10, -0.00023920400000000002, 25
DataValue, -1.4550000000000001E-08, 123.003, 1.67788E-10, -0.000239067, 25
DataValue, -2.9600000000000004E-08, 124.00200000000001, 1.67068E-10, -0.00023805400000000002, 25
DataValue, -9.5600000000000009E-09, 125.001, 1.66465E-10, -0.00023748100000000003, 25
DataValue, -8E-09, 126.00150000000001, 1.65853E-10, -0.00023674200000000002, 25
DataValue, -2.338E-08, 127.00200000000001, 1.6525000000000002E-10, -0.00023650500000000003, 25
DataValue, -5.4670000000000006E-08, 127.9995, 1.6455000000000002E-10, -0.00023561300000000002, 25
DataValue, -3.382E-08, 129, 1.6394500000000002E-10, -0.000235137, 25
DataValue, -1.5070000000000002E-08, 130.005, 1.63362E-10, -0.000234245, 25
DataValue, 2.6180000000000003E-08, 131.0025, 1.6279600000000001E-10, -0.00023347300000000002, 25
DataValue, 2.771E-08, 132.0045, 1.6214900000000002E-10, -0.000233056, 25
DataValue, -4.11E-09, 133.002, 1.6163600000000001E-10, -0.000232279, 25
DataValue, -5.4050000000000004E-08, 134.001, 1.6112200000000003E-10, -0.00023177100000000003, 25
DataValue, 1.7090000000000003E-08, 135.00300000000001, 1.60505E-10, -0.00023082400000000003, 25
DataValue, -3.333E-08, 135.999, 1.5997000000000002E-10, -0.00023074500000000003, 25
DataValue, -5.008E-08, 137.001, 1.5934000000000002E-10, -0.000230105, 25
DataValue, -5.6350000000000005E-08, 138.0015, 1.5887600000000002E-10, -0.00022936200000000002, 25
DataValue, 5.2760000000000004E-08, 138.9975, 1.5821600000000002E-10, -0.000228955, 25
DataValue, -7.5500000000000008E-08, 139.998, 1.5778800000000001E-10, -0.000228179, 25
DataValue, 2.5240000000000003E-08, 141.0045, 1.5729200000000002E-10, -0.000227332, 25
DataValue, -7.141E-08, 141.999, 1.56765E-10, -0.00022740300000000002, 25
DataValue, 2.7180000000000003E-08, 142.9995, 1.5626100000000002E-10, -0.000226228, 25
DataValue, -1.4520000000000002E-08, 144.006, 1.55675E-10, -0.00022575900000000002, 25
DataValue, -1.2950000000000002E-08, 145.00050000000002, 1.5516700000000002E-10, -0.00022547000000000002, 25
DataValue, 4.4200000000000005E-08, 146.001, 1.54686E-10, -0.00022504000000000003, 25
DataValue, -1.35E-09, 146.994, 1.5409800000000003E-10, -0.00022434200000000002, 25
DataValue, -1.3840000000000002E-08, 148.00050000000002, 1.5367800000000002E-10, -0.000224033, 25
DataValue, 1.3040000000000001E-08, 148.998, 1.5319400000000002E-10, -0.000223336, 25
DataValue, 3.473E-08, 150.0015, 1.5273000000000003E-10, -0.000222618, 25
DataValue, 9.17E-09, 150.999, 1.52194E-10, -0.00022204900000000002, 25
DataValue, -1.9150000000000003E-08, 151.995, 1.51757E-10, -0.000221401, 25
DataValue, -2.218E-08, 152.9985, 1.5140600000000002E-10, -0.00022160000000000002, 25
DataValue, -2.8230000000000002E-08, 154.0035, 1.50841E-10, -0.00022070000000000003, 25
DataValue, -1.8240000000000003E-08, 154.998, 1.50456E-10, -0.00021968900000000002, 25
DataValue, 6.7200000000000008E-09, 156.00300000000001, 1.50019E-10, -0.00021959100000000002, 25
DataValue, 8.0290000000000013E-08, 157.00050000000002, 1.4956800000000002E-10, -0.00021914700000000002, 25
DataValue, 2.27E-08, 158.001, 1.49136E-10, -0.00021851700000000002, 25
DataValue, -3.301E-08, 158.9985, 1.48638E-10, -0.000217848, 25
DataValue, 1.818E-08, 160.00050000000002, 1.48166E-10, -0.000217693, 25
DataValue, 2.7460000000000002E-08, 161.001, 1.4781E-10, -0.000217321, 25
DataValue, -6.806E-08, 161.9985, 1.4738100000000002E-10, -0.000216793, 25
DataValue, -3.385E-08, 162.999, 1.46955E-10, -0.00021625100000000001, 25
DataValue, 8.76E-09, 164.001, 1.4654900000000002E-10, -0.00021561300000000002, 25
DataValue, 5.2720000000000005E-08, 165.0045, 1.46147E-10, -0.00021534800000000003, 25
DataValue, 1.703E-08, 166.0035, 1.45686E-10, -0.000215092, 25
DataValue, -3.5230000000000005E-08, 166.9995, 1.4520200000000002E-10, -0.000214393, 25
DataValue, -2.8620000000000004E-08, 168, 1.4489E-10, -0.000214276, 25
DataValue, 1.71E-09, 169.00050000000002, 1.44525E-10, -0.00021334000000000001, 25
DataValue, 5.989E-08, 169.9995, 1.44055E-10, -0.00021314800000000003, 25
DataValue, 8.48E-09, 171.0015, 1.4373800000000002E-10, -0.00021267100000000002, 25
DataValue, -2.228E-08, 172.0035, 1.43366E-10, -0.00021207000000000002, 25
DataValue, -5.0030000000000005E-08, 172.9965, 1.4298400000000002E-10, -0.000211768, 25
DataValue, -7.8E-09, 174, 1.4258400000000002E-10, -0.00021118300000000001, 25
DataValue, 1.1100000000000002E-08, 174.996, 1.42179E-10, -0.000210821, 25
DataValue, -2.9050000000000002E-08, 176.001, 1.41808E-10, -0.000210644, 25
DataValue, -2.3060000000000003E-08, 176.9985, 1.4151100000000002E-10, -0.00021041600000000003, 25
DataValue, -6.3840000000000008E-08, 177.999, 1.41114E-10, -0.00020993200000000002, 25
DataValue, -2.8230000000000002E-08, 179.0025, 1.4074900000000002E-10, -0.000209065, 25
DataValue, -2.4680000000000003E-08, 180, 1.40322E-10, -0.00020862000000000002, 25
DataValue, -4.7800000000000005E-09, 181.00050000000002, 1.3995600000000002E-10, -0.000208466, 25
DataValue, 2.2400000000000002E-08, 182.0025, 1.39647E-10, -0.00020800000000000001, 25
DataValue, -6.4930000000000013E-08, 183, 1.39343E-10, -0.000207497, 25
DataValue, 5.9170000000000006E-08, 184.00650000000002, 1.38997E-10, -0.00020726000000000002, 25
DataValue, 3.162E-08, 185.004, 1.38622E-10, -0.000206782, 25
DataValue, 6.3630000000000008E-08, 186.0015, 1.3820500000000002E-10, -0.00020660600000000002, 25
DataValue, -2.58E-09, 186.9975, 1.37911E-10, -0.00020613600000000002, 25
DataValue, -4.0740000000000006E-08, 187.9995, 1.37525E-10, -0.00020458300000000002, 25
DataValue, -1.0358E-07, 188.997, 1.3723800000000002E-10, -0.00020479700000000003, 25
DataValue, -1.682E-08, 189.9975, 1.36974E-10, -0.00020469000000000002, 25
DataValue, 4.931E-08, 190.995, 1.36658E-10, -0.000204186, 25
DataValue, 1.1070000000000001E-08, 192.0015, 1.3625900000000002E-10, -0.0002041, 25
DataValue, -2.2060000000000004E-08, 193.002, 1.3592E-10, -0.000202926, 25
DataValue, -4.1E-09, 194.0025, 1.3566E-10, -0.00020330800000000003, 25
DataValue, -1.2740000000000002E-08, 195.00300000000001, 1.35369E-10, -0.000202677, 25
DataValue, 2.256E-08, 196.00050000000002, 1.35015E-10, -0.000202055, 25
DataValue, 3.224E-08, 196.998, 1.3465900000000002E-10, -0.00020208700000000002, 25
DataValue, -3.214E-08, 197.9985, 1.3436000000000002E-10, -0.00020149500000000002, 25
DataValue, -7.3000000000000008E-09, 199.00050000000002, 1.34106E-10, -0.00020129900000000003, 25
DataValue, -1.8280000000000002E-08, 199.9995, 1.33828E-10, -0.000200883, 25
DataValue, -3.6340000000000006E-08, 200.997, 1.33501E-10, -0.000200492, 25
DataValue, -1.3380000000000001E-08, 202.0035, 1.3323300000000001E-10, -0.00020031400000000002, 25
DataValue, -1.0430000000000001E-08, 202.9995, 1.32909E-10, -0.00020022300000000002, 25
DataValue, -5.0050000000000008E-08, 204.00300000000001, 1.32627E-10, -0.00019950300000000002, 25
DataValue, 1.3240000000000001E-08, 204.999, 1.32331E-10, -0.00019901100000000002, 25
DataValue, 1.9360000000000003E-08, 206.0085, 1.32015E-10, -0.00019868400000000002, 25
DataValue, 5.4180000000000006E-08, 206.9985, 1.31689E-10, -0.00019804700000000002, 25
DataValue, -8.3510000000000011E-08, 208.002, 1.3144700000000002E-10, -0.00019796900000000002, 25
DataValue, -4.5550000000000008E-08, 208.9965, 1.3108800000000002E-10, -0.000197937, 25
DataValue, -5.5510000000000005E-08, 210, 1.30854E-10, -0.000197299, 25
DataValue, 2.31E-09, 211.00050000000002, 1.3059100000000002E-10, -0.00019703, 25
DataValue, -1.1850000000000002E-08, 212.004, 1.3028900000000001E-10, -0.000196769, 25
DataValue, 2.078E-08, 212.9985, 1.3005500000000002E-10, -0.00019651800000000002, 25
DataValue, -2.1930000000000002E-08, 214.00050000000002, 1.2978000000000002E-10, -0.000195815, 25
DataValue, 2.633E-08, 214.998, 1.2948E-10, -0.00019594300000000002, 25
DataValue, -3.2440000000000005E-08, 216, 1.2917200000000002E-10, -0.00019504800000000002, 25
DataValue, 1.745E-08, 217.0035, 1.2898E-10, -0.000194832, 25
DataValue, -2E-08, 217.9995, 1.2869600000000002E-10, -0.00019438200000000002, 25
DataValue, -2.2920000000000003E-08, 219.0015, 1.2844800000000002E-10, -0.000194128, 25
DataValue, -6.4890000000000007E-08, 219.999, 1.28161E-10, -0.00019370700000000002, 25
DataValue, 3.302E-08, 221.0025, 1.27964E-10, -0.00019342600000000002, 25
DataValue, 6.060000000000001E-09, 221.9985, 1.27733E-10, -0.00019340600000000003, 25
DataValue, -5.9790000000000008E-08, 222.999, 1.27398E-10, -0.000192616, 25
DataValue, -3.2690000000000004E-08, 223.9995, 1.27142E-10, -0.000192537, 25
DataValue, -5.8700000000000006E-09, 224.997, 1.2689700000000002E-10, -0.000191995, 25
DataValue, 1.101E-08, 226.00050000000002, 1.26587E-10, -0.000192143, 25
DataValue, -2.818E-08, 226.9995, 1.26337E-10, -0.00019188900000000002, 25
DataValue, -1.5700000000000002E-09, 227.9955, 1.2610400000000002E-10, -0.00019118700000000003, 25
DataValue, -7.511E-08, 229.00050000000002, 1.25937E-10, -0.000190458, 25
DataValue, -1.797E-08, 229.9995, 1.25654E-10, -0.00019070100000000002, 25
DataValue, 7.81E-09, 230.9955, 1.2542900000000002E-10, -0.00019060500000000002, 25
