
SetupTitle, Cds
ApplicationTest, Cds, Public
TestParameter, Name, Memo, IntegTime, Frequency, OscLevel, Scale, Drain, VdBias, VdStart, VdStop, VdLinearStep, IdLimit, HoldTime, DelayTime, IdMinRange
TestParameter, Value, , SHORT, 100000, 0.025, LINEAR, CMU1:MF	MFCMU, SMU6:HV	HVSMU, 0, 1000, 1, 0.004, 0, 0.08, 10uA
DutParameter, Name, Polarity, Temp, YAxisCdsMin, YAxisCdsMax
DutParameter, Value, 1, 25, 1E-12, 1E-09
MetaData, TestRecord.EntryPoint, true
MetaData, TestRecord.RecordTime, 04/22/2021 11:27:55
MetaData, TestRecord.TestTarget, 
MetaData, TestRecord.IterationIndex, 49
MetaData, TestRecord.Preservation, true
MetaData, TestRecord.Flag, 
MetaData, TestRecord.Remarks, 
MetaData, TestRecord.LinkKey, 07311635-f612-4199-847a-83ed832a6e6a
Dimension1, 1001, 1001, 1001, 1001, 1001
Dimension2, 1, 1, 1, 1, 1
DataName, Ids, Vdrain, Cds, G, Ta
DataValue, 4.3230000000000004E-08, -0.0015, 3.05307E-09, -9.96519E-06, 25
DataValue, -4.191E-08, 0.9975, 2.63749E-09, -1.18686E-05, 25
DataValue, -3.3930000000000007E-08, 1.998, 2.36491E-09, -1.1819600000000001E-05, 25
DataValue, -6.471E-08, 2.997, 2.16834E-09, -1.2657000000000001E-05, 25
DataValue, -6.93E-08, 4.0035, 2.01389E-09, -1.2176500000000001E-05, 25
DataValue, 8.8750000000000011E-08, 4.9965, 1.89047E-09, -1.18522E-05, 25
DataValue, -2.071E-08, 6, 1.78496E-09, -1.14699E-05, 25
DataValue, 1.755E-08, 7.0005, 1.69463E-09, -1.12792E-05, 25
DataValue, 1.497E-08, 8.0055, 1.61584E-09, -1.11645E-05, 25
DataValue, -1.0620000000000002E-08, 9.003, 1.5388E-09, -1.05631E-05, 25
DataValue, -1.3080000000000002E-08, 10.005, 1.43698E-09, -9.5446099999999991E-06, 25
DataValue, -2.4260000000000003E-08, 11.001, 1.31139E-09, -8.0672899999999991E-06, 25
DataValue, 1.1000000000000001E-08, 12.003, 1.26251E-09, -7.85443E-06, 25
DataValue, 3.786E-08, 13.0005, 1.21997E-09, -7.5986699999999994E-06, 25
DataValue, 3.682E-08, 13.998000000000001, 1.18301E-09, -7.4971199999999995E-06, 25
DataValue, -3.4700000000000006E-08, 15.003, 1.14931E-09, -7.0583899999999993E-06, 25
DataValue, 1.2560000000000001E-08, 16.0035, 1.11854E-09, -7.1282399999999992E-06, 25
DataValue, -4.6810000000000007E-08, 16.992, 1.0906E-09, -6.9995099999999995E-06, 25
DataValue, 2.082E-08, 18.0015, 1.06474E-09, -6.6894899999999994E-06, 25
DataValue, 2.45E-08, 19.0005, 1.0406E-09, -6.4603899999999993E-06, 25
DataValue, 4.3570000000000006E-08, 19.995, 1.01843E-09, -6.3989999999999992E-06, 25
DataValue, 8.7140000000000011E-08, 21, 9.97717E-10, -6.2359799999999995E-06, 25
DataValue, 1.0175000000000001E-07, 22.002, 9.77925E-10, -6.0836E-06, 25
DataValue, -4.4380000000000004E-08, 23.0025, 9.5964300000000014E-10, -5.7882E-06, 25
DataValue, 1.2400000000000002E-08, 24.0045, 9.42441E-10, -6.02709E-06, 25
DataValue, -1.9290000000000003E-08, 25.0005, 9.261430000000001E-10, -5.77344E-06, 25
DataValue, 3.364E-08, 25.9965, 9.10539E-10, -5.5149099999999993E-06, 25
DataValue, -2.02E-09, 26.9955, 8.9569900000000011E-10, -5.4699999999999993E-06, 25
DataValue, -4.0900000000000006E-09, 28.002, 8.8183800000000011E-10, -5.19389E-06, 25
DataValue, 5.5300000000000005E-09, 29.001, 8.68307E-10, -5.07664E-06, 25
DataValue, 5.5480000000000004E-08, 30.0045, 8.5550700000000005E-10, -5.10027E-06, 25
DataValue, 1.1880000000000001E-08, 31.0035, 8.4338E-10, -4.79782E-06, 25
DataValue, 6.776E-08, 31.9995, 8.3159400000000005E-10, -4.7174299999999995E-06, 25
DataValue, -8.6500000000000014E-09, 33.0015, 8.20683E-10, -4.7424199999999994E-06, 25
DataValue, -3.8200000000000005E-09, 34.002, 8.0996000000000007E-10, -4.42465E-06, 25
DataValue, 6.5380000000000007E-08, 34.9965, 7.9950900000000006E-10, -4.2589399999999994E-06, 25
DataValue, -3.1640000000000004E-08, 35.9985, 7.8974700000000006E-10, -4.28261E-06, 25
DataValue, 4.621E-08, 37.0035, 7.80198E-10, -4.0564E-06, 25
DataValue, -1.4170000000000002E-08, 37.9995, 7.71205E-10, -4.0358099999999994E-06, 25
DataValue, 3.277E-08, 39.0045, 7.62103E-10, -3.8107999999999996E-06, 25
DataValue, 7.9550000000000008E-08, 40.005, 7.5349000000000005E-10, -3.7269699999999997E-06, 25
DataValue, 6.4240000000000011E-08, 40.995, 7.448780000000001E-10, -3.5686799999999997E-06, 25
DataValue, 3.0660000000000005E-08, 41.997, 7.369470000000001E-10, -3.4378999999999997E-06, 25
DataValue, -2.6000000000000003E-10, 43.002, 7.29516E-10, -3.4179499999999996E-06, 25
DataValue, 1.626E-08, 44.001, 7.2197500000000008E-10, -3.02488E-06, 25
DataValue, 7.2690000000000011E-08, 45.0015, 7.14558E-10, -3.0237499999999996E-06, 25
DataValue, 4.9790000000000004E-08, 45.999, 7.0778500000000005E-10, -2.89416E-06, 25
DataValue, 2.0460000000000003E-08, 46.995, 7.00537E-10, -2.82631E-06, 25
DataValue, 9.1000000000000006E-10, 48, 6.9392500000000006E-10, -2.70218E-06, 25
DataValue, -3.068E-08, 48.9975, 6.87146E-10, -2.56974E-06, 25
DataValue, 5.242E-08, 49.998, 6.809960000000001E-10, -2.4573299999999997E-06, 25
DataValue, 5.4800000000000008E-08, 50.997, 6.7511400000000009E-10, -2.44296E-06, 25
DataValue, 1.888E-08, 52.002, 6.68911E-10, -2.30416E-06, 25
DataValue, 5.7700000000000007E-08, 53.004, 6.6312000000000008E-10, -1.97175E-06, 25
DataValue, 3.13E-09, 54.0015, 6.57545E-10, -1.87396E-06, 25
DataValue, 3.937E-08, 55.0005, 6.518040000000001E-10, -1.74582E-06, 25
DataValue, -2.026E-08, 55.996500000000005, 6.46578E-10, -1.6443999999999999E-06, 25
DataValue, 4.8500000000000004E-08, 57.0015, 6.4155600000000007E-10, -1.39194E-06, 25
DataValue, -6.4800000000000008E-09, 57.999, 6.35851E-10, -1.23544E-06, 25
DataValue, 2.5170000000000003E-08, 59.0025, 6.30798E-10, -1.20952E-06, 25
DataValue, 3.821E-08, 60.003, 6.26001E-10, -9.85473E-07, 25
DataValue, 5.6320000000000004E-08, 60.9975, 6.21073E-10, -9.72062E-07, 25
DataValue, 4.579E-08, 62.004, 6.16335E-10, -7.90012E-07, 25
DataValue, 5.9400000000000009E-08, 62.9985, 6.116070000000001E-10, -6.82882E-07, 25
DataValue, 2.8000000000000003E-08, 64.0035, 6.0696E-10, -4.83639E-07, 25
DataValue, -1.7070000000000003E-08, 64.9965, 6.02496E-10, -3.89825E-07, 25
DataValue, 5.214E-08, 65.9955, 5.9818900000000007E-10, -3.177E-07, 25
DataValue, 4.2310000000000006E-08, 67.005, 5.9380400000000009E-10, -2.81539E-07, 25
DataValue, 2.476E-08, 67.995, 5.89674E-10, 1.1771399999999999E-07, 25
DataValue, -1.6080000000000002E-08, 69, 5.85408E-10, 9.09844E-08, 25
DataValue, 2.249E-08, 69.999, 5.81683E-10, 4.4341800000000003E-08, 25
DataValue, 7.155E-08, 71.0025, 5.77344E-10, 6.0067399999999994E-07, 25
DataValue, -1.761E-08, 72.001500000000007, 5.7350600000000009E-10, 7.92923E-07, 25
DataValue, 4.303E-08, 73.0035, 5.6940500000000006E-10, 6.9332499999999994E-07, 25
DataValue, 3.5400000000000006E-08, 73.995, 5.65589E-10, 7.26484E-07, 25
DataValue, 8.8330000000000011E-08, 75.001500000000007, 5.6201E-10, 9.22198E-07, 25
DataValue, 6.26E-08, 76.002, 5.58506E-10, 1.06451E-06, 25
DataValue, 2.696E-08, 76.9965, 5.5478800000000009E-10, 1.16415E-06, 25
DataValue, -4.2500000000000003E-08, 78.001500000000007, 5.51215E-10, 1.24207E-06, 25
DataValue, 6.5570000000000011E-08, 79.002, 5.47789E-10, 1.53312E-06, 25
DataValue, 5.7110000000000006E-08, 79.9995, 5.4433500000000006E-10, 1.4767499999999999E-06, 25
DataValue, 5.3600000000000005E-09, 81.001500000000007, 5.40439E-10, 1.71132E-06, 25
DataValue, 1.1100000000000002E-08, 82.0005, 5.37475E-10, 1.8563499999999998E-06, 25
DataValue, -2.054E-08, 82.9995, 5.3448E-10, 2.02073E-06, 25
DataValue, 8.3110000000000008E-08, 84, 5.29916E-10, 1.50754E-06, 25
DataValue, 6.755E-08, 85.002, 5.2757200000000009E-10, 2.06835E-06, 25
DataValue, 1.0990000000000001E-08, 86.001, 5.2457100000000009E-10, 2.11776E-06, 25
DataValue, 8.424E-08, 87.001500000000007, 5.2148100000000005E-10, 2.40734E-06, 25
DataValue, 3.0340000000000006E-08, 88.002, 5.18581E-10, 2.46717E-06, 25
DataValue, 5.8370000000000006E-08, 88.9995, 5.15187E-10, 2.47785E-06, 25
DataValue, 4.2670000000000004E-08, 89.997, 5.12269E-10, 2.67936E-06, 25
DataValue, 4.38E-08, 90.999, 5.0918700000000005E-10, 2.74837E-06, 25
DataValue, 1.553E-08, 91.998, 5.06473E-10, 2.7129E-06, 25
DataValue, 5.3170000000000006E-08, 93, 5.0312700000000008E-10, 2.5819899999999997E-06, 25
DataValue, 7.588E-08, 94.0005, 5.00324E-10, 2.96799E-06, 25
DataValue, 6.785E-08, 95.0025, 4.97753E-10, 2.87498E-06, 25
DataValue, 4.24E-09, 96, 4.94961E-10, 3.0390499999999997E-06, 25
DataValue, 8.886E-08, 97.0005, 4.92018E-10, 2.8986199999999998E-06, 25
DataValue, 3.591E-08, 97.998, 4.8939600000000005E-10, 3.06675E-06, 25
DataValue, 6.613000000000001E-08, 98.9985, 4.86496E-10, 3.05211E-06, 25
DataValue, 8.2520000000000014E-08, 100.002, 4.8384100000000007E-10, 3.1416299999999997E-06, 25
DataValue, -4.0370000000000003E-08, 100.998, 4.81344E-10, 3.2678699999999997E-06, 25
DataValue, 2.53E-09, 101.9985, 4.7850300000000008E-10, 3.13369E-06, 25
DataValue, 1.1463000000000002E-07, 103.0005, 4.7608100000000009E-10, 3.1505899999999997E-06, 25
DataValue, 6.9700000000000009E-08, 103.9995, 4.7333000000000006E-10, 3.2364299999999996E-06, 25
DataValue, 9.0480000000000013E-08, 105.00150000000001, 4.7104000000000006E-10, 3.01753E-06, 25
DataValue, 1.322E-07, 106.0035, 4.6834200000000008E-10, 3.16146E-06, 25
DataValue, 2.5430000000000003E-08, 107.001, 4.65861E-10, 3.13096E-06, 25
DataValue, -2.6590000000000002E-08, 107.9955, 4.63435E-10, 2.9836599999999997E-06, 25
DataValue, 7.574E-08, 109.0005, 4.6084700000000004E-10, 2.9606199999999998E-06, 25
DataValue, 1.0778000000000002E-07, 110.001, 4.58663E-10, 2.9075599999999997E-06, 25
DataValue, 7.358E-08, 111.00150000000001, 4.5632300000000006E-10, 2.8879E-06, 25
DataValue, 6.137E-08, 112.0005, 4.5387500000000005E-10, 2.87866E-06, 25
DataValue, 7.9170000000000013E-08, 113.004, 4.5166800000000004E-10, 2.73025E-06, 25
DataValue, 5.8440000000000006E-08, 113.9985, 4.4926600000000006E-10, 2.65553E-06, 25
DataValue, 9.2950000000000008E-08, 114.99600000000001, 4.4753300000000003E-10, 2.58424E-06, 25
DataValue, 6.737E-08, 115.9995, 4.4473900000000005E-10, 2.6542199999999996E-06, 25
DataValue, 6.9760000000000011E-08, 116.997, 4.4272100000000006E-10, 2.44245E-06, 25
DataValue, -8.95E-09, 118.0035, 4.4048500000000006E-10, 2.31858E-06, 25
DataValue, 9.3960000000000016E-08, 118.9965, 4.3837300000000003E-10, 2.08053E-06, 25
DataValue, -2.22E-09, 120, 4.3637800000000003E-10, 2.1425899999999998E-06, 25
DataValue, 5.4600000000000006E-08, 121.00200000000001, 4.3433200000000006E-10, 1.95861E-06, 25
DataValue, 2.9010000000000003E-08, 122.001, 4.3229E-10, 1.8296699999999998E-06, 25
DataValue, 6.2370000000000009E-08, 122.9985, 4.3024400000000004E-10, 1.50813E-06, 25
DataValue, 4.505E-08, 124.0035, 4.2829700000000004E-10, 1.5822299999999998E-06, 25
DataValue, 7.775E-08, 125.004, 4.2645800000000003E-10, 1.4190999999999999E-06, 25
DataValue, -4.24E-09, 125.997, 4.2448300000000004E-10, 1.3227999999999999E-06, 25
DataValue, 8.125E-08, 127.0005, 4.2282000000000005E-10, 1.1096499999999998E-06, 25
DataValue, 8.8730000000000014E-08, 127.9965, 4.21051E-10, 1.09172E-06, 25
DataValue, 7.008E-08, 129, 4.19309E-10, 8.1320899999999993E-07, 25
DataValue, 9.0050000000000016E-08, 130.0035, 4.17116E-10, 7.36923E-07, 25
DataValue, -1.1580000000000002E-08, 131.001, 4.15729E-10, 5.80921E-07, 25
DataValue, 8.0460000000000007E-08, 132.0015, 4.1397800000000004E-10, 3.97028E-07, 25
DataValue, 8.662E-08, 133.00050000000002, 4.12324E-10, 3.52816E-07, 25
DataValue, 2.9150000000000003E-08, 134.001, 4.10432E-10, 1.6409299999999999E-07, 25
DataValue, 5.8100000000000004E-08, 135.00300000000001, 4.0869900000000004E-10, 4.65703E-08, 25
DataValue, 2.832E-08, 135.999, 4.07028E-10, -1.41337E-07, 25
DataValue, 8.603000000000001E-08, 136.998, 4.05785E-10, -3.34936E-07, 25
DataValue, 2.7180000000000003E-08, 137.997, 4.0404800000000005E-10, -5.09248E-07, 25
DataValue, 7.0930000000000014E-08, 138.9975, 4.02362E-10, -6.83937E-07, 25
DataValue, 1.1500000000000001E-07, 140.0025, 4.01006E-10, -8.72224E-07, 25
DataValue, 1.993E-08, 140.9955, 3.9964900000000005E-10, -9.31024E-07, 25
DataValue, 1.0872000000000001E-07, 142.00650000000002, 3.9792500000000005E-10, -9.46071E-07, 25
DataValue, 5.7730000000000008E-08, 142.9965, 3.9639800000000003E-10, -1.28582E-06, 25
DataValue, 1.8300000000000002E-08, 143.9955, 3.95046E-10, -1.17407E-06, 25
DataValue, 4.0260000000000004E-08, 144.999, 3.9362800000000005E-10, -1.51813E-06, 25
DataValue, 1.4651E-07, 146.004, 3.9259500000000003E-10, -1.59582E-06, 25
DataValue, 3.4460000000000005E-08, 146.997, 3.9092600000000003E-10, -1.7035899999999998E-06, 25
DataValue, 5.6530000000000004E-08, 148.00050000000002, 3.89513E-10, -1.83558E-06, 25
DataValue, 4.014E-08, 149.004, 3.88133E-10, -2.03029E-06, 25
DataValue, 4.5670000000000005E-08, 149.9985, 3.8701500000000003E-10, -2.22589E-06, 25
DataValue, 9.4400000000000012E-08, 151.00050000000002, 3.8566500000000003E-10, -2.12531E-06, 25
DataValue, 5.5330000000000006E-08, 151.998, 3.8367000000000003E-10, -2.5364999999999998E-06, 25
DataValue, 1.3364000000000002E-07, 153, 3.8239200000000003E-10, -2.0013599999999998E-06, 25
DataValue, 5.6070000000000005E-08, 154.0035, 3.8175600000000005E-10, -2.29021E-06, 25
DataValue, 7.3600000000000011E-08, 154.9995, 3.80655E-10, -2.71442E-06, 25
DataValue, 1.5728000000000002E-07, 156, 3.79456E-10, -2.7637999999999997E-06, 25
DataValue, 3.693E-08, 156.996, 3.78167E-10, -2.9398899999999997E-06, 25
DataValue, 2.293E-08, 158.004, 3.7710300000000005E-10, -2.9100299999999996E-06, 25
DataValue, 5.828E-08, 159.00300000000001, 3.75871E-10, -2.95105E-06, 25
DataValue, 1.423E-08, 160.002, 3.7472300000000005E-10, -2.9944599999999996E-06, 25
DataValue, 9.741000000000001E-08, 160.998, 3.73748E-10, -3.10075E-06, 25
DataValue, 5.0000000000000004E-08, 162.0075, 3.72783E-10, -3.06104E-06, 25
DataValue, 9.0960000000000015E-08, 163.00050000000002, 3.7127000000000005E-10, -3.19408E-06, 25
DataValue, 1.2933E-07, 163.9965, 3.70218E-10, -3.3757899999999997E-06, 25
DataValue, 6.3400000000000012E-08, 164.9985, 3.6940800000000005E-10, -3.33884E-06, 25
DataValue, 3.18E-08, 166.00050000000002, 3.67735E-10, -3.55328E-06, 25
DataValue, 5.7960000000000004E-08, 167.001, 3.6694200000000004E-10, -3.5579E-06, 25
DataValue, 8.535E-08, 167.997, 3.66034E-10, -3.57981E-06, 25
DataValue, 4.8420000000000006E-08, 168.996, 3.6492700000000003E-10, -3.57782E-06, 25
DataValue, -4.3E-08, 169.995, 3.63806E-10, -3.80231E-06, 25
DataValue, 3.9660000000000006E-08, 171.0015, 3.6244700000000005E-10, -3.68428E-06, 25
DataValue, 1.1503000000000002E-07, 172.0035, 3.6158500000000005E-10, -3.7679999999999998E-06, 25
DataValue, 9.9000000000000013E-08, 172.9995, 3.6071700000000005E-10, -3.799E-06, 25
DataValue, 8.082E-08, 173.997, 3.59641E-10, -3.8371E-06, 25
DataValue, 1.1511000000000002E-07, 175.00050000000002, 3.5893100000000003E-10, -3.9313899999999995E-06, 25
DataValue, 1.1999E-07, 176.0025, 3.5791400000000004E-10, -4.1823699999999996E-06, 25
DataValue, 1.4278E-07, 176.9985, 3.5684200000000005E-10, -4.0362599999999995E-06, 25
DataValue, 4.642E-08, 178.0035, 3.5576700000000003E-10, -4.25912E-06, 25
DataValue, 4.3110000000000007E-08, 178.998, 3.54655E-10, -4.08139E-06, 25
DataValue, 8.089E-08, 180.00300000000001, 3.5358000000000003E-10, -3.97405E-06, 25
DataValue, 1.315E-07, 181.0035, 3.5288700000000003E-10, -4.21872E-06, 25
DataValue, 1.0828000000000001E-07, 182.001, 3.5213300000000003E-10, -4.20718E-06, 25
DataValue, -5.92E-09, 182.9985, 3.5106300000000005E-10, -4.17809E-06, 25
DataValue, 1.2597E-07, 184.002, 3.50209E-10, -4.30757E-06, 25
DataValue, 9.9510000000000009E-08, 184.9965, 3.49165E-10, -4.36114E-06, 25
DataValue, 2.4460000000000002E-08, 185.994, 3.48443E-10, -4.42287E-06, 25
DataValue, 5.9210000000000005E-08, 186.9975, 3.4740900000000004E-10, -4.4800599999999994E-06, 25
DataValue, 7.3750000000000009E-08, 188.001, 3.4632400000000003E-10, -4.5392E-06, 25
DataValue, 7.3410000000000007E-08, 189, 3.4573E-10, -4.4689099999999995E-06, 25
DataValue, 8.4840000000000011E-08, 190.00050000000002, 3.44833E-10, -4.42127E-06, 25
DataValue, 5.1640000000000004E-08, 190.9995, 3.44182E-10, -4.3500899999999994E-06, 25
DataValue, 1.3272E-07, 192.0015, 3.43339E-10, -4.3816799999999994E-06, 25
DataValue, 9.8460000000000009E-08, 192.9975, 3.42568E-10, -4.4605399999999993E-06, 25
DataValue, 6.0210000000000008E-08, 193.998, 3.4133600000000005E-10, -4.56279E-06, 25
DataValue, 7.58E-08, 195, 3.4055000000000003E-10, -4.52487E-06, 25
DataValue, 1.1009000000000002E-07, 195.996, 3.39963E-10, -4.68534E-06, 25
DataValue, 1.1286E-07, 196.9995, 3.3904600000000005E-10, -4.69723E-06, 25
DataValue, 4.7520000000000005E-08, 197.997, 3.3817200000000005E-10, -4.67485E-06, 25
DataValue, 6.6960000000000012E-08, 199.0035, 3.3742E-10, -4.71356E-06, 25
DataValue, 1.2223E-07, 199.9995, 3.36377E-10, -4.62947E-06, 25
DataValue, 6.257000000000001E-08, 201.0015, 3.36051E-10, -4.6296699999999995E-06, 25
DataValue, 3.2650000000000005E-08, 202.00050000000002, 3.34997E-10, -4.64063E-06, 25
DataValue, 1.3108E-07, 202.9965, 3.3415800000000005E-10, -4.76014E-06, 25
DataValue, 1.1790000000000002E-07, 203.9985, 3.3374600000000003E-10, -4.81883E-06, 25
DataValue, 7.245E-08, 205.0035, 3.3267000000000005E-10, -4.89872E-06, 25
DataValue, 7.037E-08, 205.998, 3.3167300000000003E-10, -4.86748E-06, 25
DataValue, 6.051E-08, 207.0015, 3.31196E-10, -4.7443699999999994E-06, 25
DataValue, 1.5504000000000002E-07, 207.999, 3.30425E-10, -4.8011199999999994E-06, 25
DataValue, 4.003E-08, 208.995, 3.2976E-10, -4.55619E-06, 25
DataValue, 1.0508000000000001E-07, 210.00300000000001, 3.2916600000000003E-10, -4.75461E-06, 25
DataValue, 6.7470000000000008E-08, 210.9975, 3.28165E-10, -4.82872E-06, 25
DataValue, 8.7650000000000007E-08, 212.001, 3.27707E-10, -4.8232799999999995E-06, 25
DataValue, 9.912E-08, 213.00300000000001, 3.2683500000000004E-10, -4.71527E-06, 25
DataValue, 5.856E-08, 214.005, 3.2597900000000004E-10, -5.04994E-06, 25
DataValue, 1.2544000000000002E-07, 214.9995, 3.2541E-10, -4.75462E-06, 25
DataValue, 1.5017000000000003E-07, 216.0015, 3.2462900000000004E-10, -4.83692E-06, 25
DataValue, 7.919000000000001E-08, 216.9975, 3.24168E-10, -4.8474699999999993E-06, 25
DataValue, 1.1207000000000001E-07, 218.0025, 3.2318300000000004E-10, -4.82986E-06, 25
DataValue, 1.3011000000000002E-07, 219.0015, 3.22595E-10, -4.79579E-06, 25
DataValue, 9.464E-08, 220.00050000000002, 3.21973E-10, -4.85657E-06, 25
DataValue, 1.3607000000000003E-07, 220.998, 3.21421E-10, -4.9049499999999995E-06, 25
DataValue, 1.532E-08, 222.0015, 3.2019E-10, -4.6977399999999993E-06, 25
DataValue, 1.4876000000000002E-07, 223.002, 3.1998E-10, -5.0098E-06, 25
DataValue, 1.0088000000000001E-07, 224.001, 3.1933700000000003E-10, -4.76457E-06, 25
DataValue, 5.0210000000000004E-08, 225.0045, 3.1853700000000004E-10, -4.88661E-06, 25
DataValue, 9.9560000000000013E-08, 226.002, 3.18052E-10, -5.0157499999999994E-06, 25
DataValue, 5.3410000000000006E-08, 227.001, 3.1743200000000003E-10, -4.8988699999999994E-06, 25
DataValue, 1.2987E-07, 228.0015, 3.1725300000000004E-10, -5.0324599999999994E-06, 25
DataValue, 1.3897E-07, 228.999, 3.16159E-10, -4.83692E-06, 25
DataValue, 7.392E-08, 230.0025, 3.14585E-10, -4.52581E-06, 25
DataValue, 1.2771000000000002E-07, 230.994, 3.14635E-10, -4.86548E-06, 25
DataValue, 1.4438000000000003E-07, 232.008, 3.14278E-10, -4.92055E-06, 25
DataValue, 1.1297000000000001E-07, 233.0025, 3.13472E-10, -4.77255E-06, 25
DataValue, 4.3260000000000005E-08, 234, 3.1288800000000003E-10, -4.8777399999999993E-06, 25
DataValue, 9.9730000000000007E-08, 234.999, 3.12513E-10, -4.84705E-06, 25
DataValue, 8.997E-08, 235.9995, 3.11764E-10, -4.79214E-06, 25
DataValue, 6.525E-08, 237.0015, 3.1109E-10, -4.8584E-06, 25
DataValue, 2.5090000000000002E-08, 238.002, 3.10391E-10, -4.93215E-06, 25
DataValue, 1.0008000000000001E-07, 238.9965, 3.09837E-10, -4.75101E-06, 25
DataValue, 7.432E-08, 240.0045, 3.0933300000000003E-10, -4.74295E-06, 25
