
SetupTitle, Cds
ApplicationTest, Cds, Public
TestParameter, Name, Memo, IntegTime, Frequency, OscLevel, Scale, Drain, VdBias, VdStart, VdStop, VdLinearStep, IdLimit, HoldTime, DelayTime, IdMinRange
TestParameter, Value, , SHORT, 1000000, 0.025, LINEAR, CMU1:MF	MFCMU, SMU6:HV	HVSMU, 0, 1000, 1, 0.004, 0, 0.08, 10uA
DutParameter, Name, Polarity, Temp, YAxisCdsMin, YAxisCdsMax
DutParameter, Value, 1, 25, 1E-12, 1E-09
MetaData, TestRecord.EntryPoint, true
MetaData, TestRecord.RecordTime, 12/27/2020 10:59:02
MetaData, TestRecord.TestTarget, 
MetaData, TestRecord.IterationIndex, 16
MetaData, TestRecord.Preservation, true
MetaData, TestRecord.Flag, 
MetaData, TestRecord.Remarks, 
MetaData, TestRecord.LinkKey, 93041c91-c1de-4750-8283-6f853eaac8c7
Dimension1, 1001, 1001, 1001, 1001, 1001
Dimension2, 1, 1, 1, 1, 1
DataName, Ids, Vdrain, Cds, G, Ta
DataValue, -2.8940000000000003E-08, 0.003, 2.7334400000000004E-10, -0.00040974900000000005, 25
DataValue, 1.661E-08, 0.999, 2.3667200000000004E-10, -0.000352517, 25
DataValue, 8.36E-09, 1.998, 2.12367E-10, -0.00031592400000000003, 25
DataValue, 4.868E-08, 3.003, 1.9472500000000002E-10, -0.00028974100000000004, 25
DataValue, -4.865E-08, 4.0035, 1.80854E-10, -0.00026872800000000003, 25
DataValue, -2.6880000000000003E-08, 4.998, 1.6975200000000003E-10, -0.000252072, 25
DataValue, 2.2300000000000004E-09, 6, 1.6023300000000003E-10, -0.00023766100000000001, 25
DataValue, -2.9360000000000003E-08, 6.9990000000000006, 1.5208800000000002E-10, -0.000225001, 25
DataValue, -3.222E-08, 7.9995, 1.4503900000000002E-10, -0.00021492, 25
DataValue, 2.9390000000000004E-08, 9.0015, 1.38804E-10, -0.000205233, 25
DataValue, -6.300000000000001E-10, 10.005, 1.32964E-10, -0.00019663000000000002, 25
DataValue, 2.4530000000000002E-08, 10.995000000000001, 1.2668200000000001E-10, -0.00018662500000000002, 25
DataValue, -5.9300000000000008E-09, 12, 1.15416E-10, -0.00016855, 25
DataValue, -3.2430000000000007E-08, 12.999, 1.11089E-10, -0.000161597, 25
DataValue, -2.256E-08, 13.996500000000001, 1.0738900000000001E-10, -0.00015622500000000002, 25
DataValue, 1.597E-08, 15.0015, 1.04053E-10, -0.000152275, 25
DataValue, 2.324E-08, 16.0005, 1.0117600000000001E-10, -0.00014752800000000002, 25
DataValue, -5.8260000000000007E-08, 16.998, 9.8454E-11, -0.00014320900000000002, 25
DataValue, -2.2820000000000002E-08, 18.003, 9.60325E-11, -0.00013983000000000002, 25
DataValue, -1.0590000000000001E-08, 18.9975, 9.3666E-11, -0.00013678600000000002, 25
DataValue, -1.5000000000000002E-08, 19.9995, 9.15334E-11, -0.00013357200000000002, 25
DataValue, -2.1000000000000002E-10, 21.003, 8.95217E-11, -0.000131068, 25
DataValue, -4.708E-08, 22.002, 8.78437E-11, -0.000128082, 25
DataValue, 1.3220000000000002E-08, 22.992, 8.59891E-11, -0.000125737, 25
DataValue, 3.7780000000000005E-08, 23.997, 8.43914E-11, -0.000123108, 25
DataValue, -4.785E-08, 25.0005, 8.2795E-11, -0.000121108, 25
DataValue, 1.4610000000000002E-08, 25.9965, 8.1393699999999993E-11, -0.00011932, 25
DataValue, -3.169E-08, 26.997, 7.99225E-11, -0.00011711100000000001, 25
DataValue, 8.005E-08, 28.0035, 7.85884E-11, -0.00011509600000000001, 25
DataValue, -3.6810000000000003E-08, 28.998, 7.73185E-11, -0.00011321600000000001, 25
DataValue, 1.1410000000000001E-08, 30.0015, 7.6183699999999993E-11, -0.000111385, 25
DataValue, 2.9180000000000004E-08, 31.000500000000002, 7.5043E-11, -0.000110278, 25
DataValue, 1.9970000000000003E-08, 32.004, 7.39532E-11, -0.00010831700000000001, 25
DataValue, 1.2510000000000001E-08, 33.0015, 7.28137E-11, -0.00010729600000000001, 25
DataValue, 6.300000000000001E-10, 34.0035, 7.18441E-11, -0.000105748, 25
DataValue, -6.664E-08, 34.9995, 7.08473E-11, -0.000104345, 25
DataValue, 4.886E-08, 35.9985, 6.98521E-11, -0.00010315400000000001, 25
DataValue, -2.8800000000000003E-08, 36.996, 6.89911E-11, -0.00010196700000000001, 25
DataValue, -3.2200000000000004E-08, 38.0025, 6.81933E-11, -0.000100556, 25
DataValue, 3.9530000000000004E-08, 39.0015, 6.73711E-11, -9.8916500000000007E-05, 25
DataValue, -4.3040000000000007E-08, 39.9975, 6.6558E-11, -9.8156700000000008E-05, 25
DataValue, -1.4930000000000002E-08, 40.9965, 6.57392E-11, -9.73304E-05, 25
DataValue, 5.5990000000000007E-08, 42.003, 6.50069E-11, -9.58721E-05, 25
DataValue, -3.479E-08, 43.0005, 6.43444E-11, -9.53344E-05, 25
DataValue, -2.7870000000000004E-08, 43.998, 6.34477E-11, -9.42766E-05, 25
DataValue, -1.1825000000000002E-07, 44.9985, 6.28664E-11, -9.32002E-05, 25
DataValue, 4.244E-08, 45.9975, 6.2222999999999993E-11, -9.29794E-05, 25
DataValue, -2.0760000000000002E-08, 46.998, 6.15031E-11, -9.1088400000000007E-05, 25
DataValue, 2.2120000000000002E-08, 47.997, 6.09445E-11, -9.0182900000000007E-05, 25
DataValue, -4.8530000000000005E-08, 49.005, 6.03555E-11, -8.95858E-05, 25
DataValue, -7.1200000000000011E-09, 50.001, 5.97374E-11, -8.9207E-05, 25
DataValue, -1.508E-08, 50.9985, 5.92058E-11, -8.82575E-05, 25
DataValue, -9.7300000000000018E-09, 51.999, 5.85393E-11, -8.7464500000000009E-05, 25
DataValue, -4.53E-08, 52.998, 5.8033599999999996E-11, -8.6468300000000007E-05, 25
DataValue, 2.0010000000000002E-08, 53.997, 5.74377E-11, -8.55861E-05, 25
DataValue, -1.977E-08, 55.002, 5.70212E-11, -8.5860000000000008E-05, 25
DataValue, -8.9640000000000014E-08, 55.998000000000005, 5.6525999999999996E-11, -8.42804E-05, 25
DataValue, -1.0930000000000001E-08, 57.0015, 5.6015899999999996E-11, -8.4024600000000009E-05, 25
DataValue, -2.249E-08, 57.999, 5.5443E-11, -8.26356E-05, 25
DataValue, 6.708E-08, 59.001000000000005, 5.4974999999999996E-11, -8.20023E-05, 25
DataValue, -7.2560000000000009E-08, 59.997, 5.46065E-11, -8.16588E-05, 25
DataValue, 2.5000000000000002E-08, 61.0005, 5.41131E-11, -8.1165300000000007E-05, 25
DataValue, 2.67E-09, 61.999500000000005, 5.37153E-11, -8.05106E-05, 25
DataValue, -4.111E-08, 63, 5.33467E-11, -8.0559900000000008E-05, 25
DataValue, -1.509E-08, 64.0035, 5.29219E-11, -7.9181500000000008E-05, 25
DataValue, 6.29E-09, 64.998, 5.2432499999999996E-11, -7.89147E-05, 25
DataValue, 5.7300000000000007E-09, 66.004500000000007, 5.2011E-11, -7.8044700000000009E-05, 25
DataValue, 5.0240000000000005E-08, 66.996, 5.16885E-11, -7.79352E-05, 25
DataValue, -6.5380000000000007E-08, 67.9965, 5.12179E-11, -7.70532E-05, 25
DataValue, 8.8590000000000014E-08, 69.004500000000007, 5.08649E-11, -7.63904E-05, 25
DataValue, -6.8170000000000008E-08, 69.999, 5.05615E-11, -7.60314E-05, 25
DataValue, -6.0610000000000011E-08, 70.9965, 5.01702E-11, -7.54734E-05, 25
DataValue, -3.427E-08, 71.9925, 4.97328E-11, -7.4756500000000008E-05, 25
DataValue, 3.046E-08, 73.002, 4.95097E-11, -7.53349E-05, 25
DataValue, 2.6410000000000003E-08, 74.001, 4.91533E-11, -7.44558E-05, 25
DataValue, -4.8940000000000007E-08, 75.003, 4.87534E-11, -7.3770600000000008E-05, 25
DataValue, 1.1610000000000001E-08, 76.0005, 4.8521799999999996E-11, -7.31971E-05, 25
DataValue, 1.0570000000000001E-08, 76.9995, 4.82388E-11, -7.30194E-05, 25
DataValue, 7.0680000000000008E-08, 77.9985, 4.78397E-11, -7.23809E-05, 25
DataValue, -1.2E-10, 79.0005, 4.75343E-11, -7.22551E-05, 25
DataValue, -8.08E-09, 80.001, 4.72552E-11, -7.20146E-05, 25
DataValue, 1.013E-08, 81, 4.69113E-11, -7.14122E-05, 25
DataValue, -6.2300000000000009E-08, 81.999, 4.6627E-11, -7.01013E-05, 25
DataValue, -1.9660000000000002E-08, 82.9995, 4.6326E-11, -7.0367E-05, 25
DataValue, -1.1850000000000002E-08, 84, 4.60436E-11, -7.0178E-05, 25
DataValue, -9.3330000000000016E-08, 84.999, 4.58606E-11, -6.9623800000000009E-05, 25
DataValue, -1.12E-09, 85.9995, 4.5445E-11, -6.95284E-05, 25
DataValue, 2.04E-08, 87, 4.52879E-11, -6.91636E-05, 25
DataValue, 1.6010000000000002E-08, 88.0035, 4.50207E-11, -6.83394E-05, 25
DataValue, 2.2260000000000002E-08, 89.001, 4.4692899999999997E-11, -6.85299E-05, 25
DataValue, -2.6840000000000004E-08, 89.9985, 4.44493E-11, -6.80083E-05, 25
DataValue, 2.8450000000000003E-08, 90.9975, 4.4239E-11, -6.81153E-05, 25
DataValue, 5.5300000000000005E-09, 92.001, 4.40469E-11, -6.75177E-05, 25
DataValue, -4.603E-08, 92.9985, 4.3778599999999996E-11, -6.68857E-05, 25
DataValue, 7.146E-08, 93.996, 4.34333E-11, -6.63205E-05, 25
DataValue, -2.5490000000000002E-08, 94.9995, 4.32755E-11, -6.58604E-05, 25
DataValue, -5.591E-08, 95.997, 4.2975499999999997E-11, -6.5813100000000009E-05, 25
DataValue, 6.8720000000000009E-08, 97.0035, 4.28064E-11, -6.55708E-05, 25
DataValue, -2.9590000000000002E-08, 98.001, 4.25908E-11, -6.53792E-05, 25
DataValue, -1.95E-09, 99, 4.24203E-11, -6.5015500000000008E-05, 25
DataValue, -1.731E-08, 100.002, 4.21982E-11, -6.44542E-05, 25
DataValue, 3.385E-08, 100.995, 4.19148E-11, -6.4369E-05, 25
DataValue, 3.078E-08, 102, 4.16916E-11, -6.38178E-05, 25
DataValue, -3.353E-08, 103.0035, 4.15654E-11, -6.41187E-05, 25
DataValue, 1.1050000000000001E-08, 104.001, 4.12244E-11, -6.35579E-05, 25
DataValue, 3.5470000000000006E-08, 105.00150000000001, 4.11431E-11, -6.31818E-05, 25
DataValue, -1.3870000000000001E-08, 106.002, 4.08472E-11, -6.28621E-05, 25
DataValue, 3.6270000000000006E-08, 106.998, 4.06778E-11, -6.30442E-05, 25
DataValue, -6.9820000000000012E-08, 108, 4.0513199999999997E-11, -6.25263E-05, 25
DataValue, -2.7000000000000005E-10, 108.99600000000001, 4.02484E-11, -6.24715E-05, 25
DataValue, -6.109E-08, 110.001, 4.01646E-11, -6.1899E-05, 25
DataValue, -1.2490000000000001E-08, 110.997, 3.99246E-11, -6.15243E-05, 25
DataValue, 1.5430000000000003E-08, 112.0005, 3.97218E-11, -6.11361E-05, 25
DataValue, 6.666E-08, 112.998, 3.9505199999999996E-11, -6.14042E-05, 25
DataValue, -4.596E-08, 114.00450000000001, 3.9412E-11, -6.11389E-05, 25
DataValue, 3.6800000000000005E-08, 114.99900000000001, 3.91847E-11, -6.0984100000000005E-05, 25
DataValue, -2.7270000000000002E-08, 116.0025, 3.90103E-11, -6.05589E-05, 25
DataValue, -2.8370000000000002E-08, 116.9985, 3.88973E-11, -6.01089E-05, 25
DataValue, -3.8440000000000005E-08, 118.0005, 3.86971E-11, -6.01876E-05, 25
DataValue, -3.9620000000000007E-08, 118.998, 3.85517E-11, -5.98571E-05, 25
DataValue, 5.1750000000000003E-08, 120, 3.83099E-11, -5.9176700000000006E-05, 25
DataValue, -3.7960000000000004E-08, 120.99900000000001, 3.81526E-11, -5.90533E-05, 25
DataValue, -2.7670000000000002E-08, 121.9995, 3.79545E-11, -5.86621E-05, 25
DataValue, 4.2500000000000008E-09, 122.9985, 3.7888799999999997E-11, -5.9123400000000004E-05, 25
DataValue, -7.6340000000000007E-08, 123.9945, 3.77092E-11, -5.8623000000000004E-05, 25
DataValue, 3.3910000000000004E-08, 125.001, 3.75892E-11, -5.83002E-05, 25
DataValue, -1.9E-09, 126, 3.73701E-11, -5.81789E-05, 25
DataValue, -2.1450000000000003E-08, 127.0005, 3.7301499999999997E-11, -5.75066E-05, 25
DataValue, 4.7690000000000006E-08, 127.9995, 3.70289E-11, -5.73919E-05, 25
DataValue, -1.9530000000000003E-08, 128.997, 3.69103E-11, -5.74742E-05, 25
DataValue, 5.33E-09, 130.00050000000002, 3.68074E-11, -5.73108E-05, 25
DataValue, -3.616E-08, 130.9995, 3.66611E-11, -5.70239E-05, 25
DataValue, 7.7600000000000013E-09, 132.0045, 3.65071E-11, -5.6876700000000004E-05, 25
DataValue, 2.1800000000000003E-08, 132.9975, 3.6271E-11, -5.67403E-05, 25
DataValue, 1.45E-08, 134.001, 3.62731E-11, -5.64769E-05, 25
DataValue, 2.6990000000000002E-08, 135.0015, 3.61206E-11, -5.61122E-05, 25
DataValue, -4.917E-08, 135.9975, 3.59385E-11, -5.5468100000000005E-05, 25
DataValue, -1.923E-08, 136.9965, 3.5835499999999996E-11, -5.55723E-05, 25
DataValue, -3.521E-08, 137.997, 3.5645E-11, -5.58211E-05, 25
DataValue, 4.8800000000000005E-09, 138.9975, 3.55296E-11, -5.5339E-05, 25
DataValue, -9.506E-08, 139.9965, 3.54002E-11, -5.5186600000000005E-05, 25
DataValue, 4.58E-09, 141.00300000000001, 3.52804E-11, -5.51023E-05, 25
DataValue, -3.3210000000000004E-08, 142.002, 3.5090399999999997E-11, -5.4552700000000004E-05, 25
DataValue, -4.481E-08, 142.9935, 3.5005799999999996E-11, -5.40732E-05, 25
DataValue, -4.9920000000000006E-08, 143.9985, 3.4956699999999996E-11, -5.47735E-05, 25
DataValue, 6.7000000000000004E-09, 145.00050000000002, 3.47169E-11, -5.40576E-05, 25
DataValue, -7.52E-09, 146.001, 3.46917E-11, -5.43942E-05, 25
DataValue, -3.441E-08, 147, 3.45184E-11, -5.38416E-05, 25
DataValue, -6.743E-08, 147.9975, 3.4407999999999996E-11, -5.41551E-05, 25
DataValue, -1.527E-08, 148.9965, 3.43048E-11, -5.4000200000000005E-05, 25
DataValue, -4.334E-08, 149.997, 3.4155199999999996E-11, -5.2958500000000005E-05, 25
DataValue, 2.0320000000000003E-08, 151.002, 3.3985E-11, -5.36945E-05, 25
DataValue, 6.950000000000001E-09, 151.9995, 3.38571E-11, -5.3483800000000005E-05, 25
DataValue, -4.795E-08, 153.0015, 3.37779E-11, -5.2479400000000004E-05, 25
DataValue, 6.0000000000000008E-09, 153.996, 3.36683E-11, -5.2575400000000005E-05, 25
DataValue, 3.97E-09, 155.0025, 3.35786E-11, -5.25249E-05, 25
DataValue, -2.5190000000000003E-08, 156.0015, 3.34976E-11, -5.25201E-05, 25
DataValue, -2.0200000000000002E-08, 156.999, 3.33542E-11, -5.2296700000000004E-05, 25
DataValue, -4.603E-08, 157.998, 3.32643E-11, -5.1864700000000005E-05, 25
DataValue, -4.5240000000000007E-08, 159.0015, 3.31896E-11, -5.18298E-05, 25
DataValue, 5.1290000000000005E-08, 160.005, 3.30003E-11, -5.1656E-05, 25
DataValue, -1.1530000000000001E-08, 161.001, 3.28633E-11, -5.18515E-05, 25
DataValue, -1.541E-08, 161.997, 3.28536E-11, -5.0625000000000004E-05, 25
DataValue, -3.351E-08, 162.999, 3.27022E-11, -5.1341800000000004E-05, 25
DataValue, 2.792E-08, 163.998, 3.26419E-11, -5.13155E-05, 25
DataValue, -4.952E-08, 164.9985, 3.2504799999999996E-11, -5.07462E-05, 25
DataValue, -3.075E-08, 165.999, 3.24227E-11, -5.0866400000000005E-05, 25
DataValue, -5.3600000000000005E-09, 167.0055, 3.2223E-11, -5.0170900000000004E-05, 25
DataValue, 2.3200000000000003E-09, 168, 3.22212E-11, -5.0458600000000005E-05, 25
DataValue, -2.998E-08, 169.00050000000002, 3.2058E-11, -4.9611400000000004E-05, 25
DataValue, 2.9380000000000002E-08, 170.001, 3.20407E-11, -5.0331500000000004E-05, 25
DataValue, -3.5270000000000004E-08, 171.00300000000001, 3.1918899999999996E-11, -4.97717E-05, 25
DataValue, -1.273E-08, 171.999, 3.18719E-11, -4.95197E-05, 25
DataValue, 1.0580000000000001E-08, 173.001, 3.17221E-11, -4.92967E-05, 25
DataValue, -1.944E-08, 174, 3.1646799999999996E-11, -4.9695000000000004E-05, 25
DataValue, 1.5490000000000002E-08, 175.00050000000002, 3.15093E-11, -4.93679E-05, 25
DataValue, -8.1800000000000011E-09, 176.0025, 3.14394E-11, -4.94719E-05, 25
DataValue, -8.8940000000000014E-08, 177.00300000000001, 3.13837E-11, -4.91369E-05, 25
DataValue, 4.7300000000000008E-09, 178.00050000000002, 3.12355E-11, -4.89979E-05, 25
DataValue, 2.853E-08, 178.9995, 3.11794E-11, -4.95708E-05, 25
DataValue, -2.3100000000000002E-08, 179.9985, 3.10245E-11, -4.8752200000000004E-05, 25
DataValue, -8.0180000000000007E-08, 180.9975, 3.10007E-11, -4.83062E-05, 25
DataValue, -6.269E-08, 181.9965, 3.08685E-11, -4.81135E-05, 25
DataValue, 6.171E-08, 183.00300000000001, 3.08149E-11, -4.77746E-05, 25
DataValue, -4.6600000000000007E-08, 184.002, 3.079E-11, -4.83798E-05, 25
DataValue, -3.193E-08, 184.9995, 3.0605999999999996E-11, -4.79223E-05, 25
DataValue, 5.78E-09, 186, 3.05797E-11, -4.7549E-05, 25
DataValue, 3.8500000000000006E-09, 186.999, 3.04199E-11, -4.78616E-05, 25
DataValue, -4.7400000000000006E-09, 188.0025, 3.03912E-11, -4.7874400000000004E-05, 25
DataValue, 3.0700000000000004E-09, 188.9985, 3.02336E-11, -4.7781700000000004E-05, 25
DataValue, -1.6480000000000003E-08, 189.9975, 3.0252099999999996E-11, -4.71634E-05, 25
DataValue, -3.3130000000000006E-08, 190.9965, 3.01745E-11, -4.7355400000000004E-05, 25
DataValue, -5.1050000000000004E-08, 192.0015, 3.00098E-11, -4.6686E-05, 25
DataValue, -1.3780000000000002E-08, 192.999, 3.00264E-11, -4.69066E-05, 25
DataValue, -1.2740000000000002E-08, 193.9965, 2.98616E-11, -4.70698E-05, 25
DataValue, -8.0290000000000013E-08, 194.9985, 2.97936E-11, -4.63224E-05, 25
DataValue, 4.5570000000000004E-08, 196.00050000000002, 2.97423E-11, -4.61185E-05, 25
DataValue, -5.6210000000000005E-08, 196.995, 2.96374E-11, -4.6604400000000004E-05, 25
DataValue, 4.893E-08, 198.00300000000001, 2.95111E-11, -4.6543000000000005E-05, 25
DataValue, -7.211E-08, 198.999, 2.94323E-11, -4.61028E-05, 25
DataValue, 1.754E-08, 200.0025, 2.93059E-11, -4.59977E-05, 25
DataValue, 6.1040000000000009E-08, 201.00300000000001, 2.93067E-11, -4.59255E-05, 25
DataValue, -4.052E-08, 201.9975, 2.93061E-11, -4.5889E-05, 25
DataValue, -2.1050000000000003E-08, 202.9995, 2.92033E-11, -4.58424E-05, 25
DataValue, 2.2120000000000002E-08, 204, 2.90485E-11, -4.56327E-05, 25
DataValue, -3.7220000000000005E-08, 205.002, 2.8993699999999998E-11, -4.5482E-05, 25
DataValue, 2.6830000000000003E-08, 205.9995, 2.89495E-11, -4.5634500000000005E-05, 25
DataValue, -5.9380000000000006E-08, 207.0015, 2.88323E-11, -4.53441E-05, 25
DataValue, -3.6410000000000006E-08, 208.002, 2.88182E-11, -4.5689E-05, 25
DataValue, 3.009E-08, 209.001, 2.86563E-11, -4.5210600000000004E-05, 25
DataValue, 4.0920000000000005E-08, 210.0015, 2.86492E-11, -4.53202E-05, 25
DataValue, 3.563E-08, 210.999, 2.85927E-11, -4.4926500000000004E-05, 25
DataValue, -8.159E-08, 211.9995, 2.84774E-11, -4.48941E-05, 25
DataValue, -1.5000000000000002E-08, 212.9985, 2.83865E-11, -4.43811E-05, 25
DataValue, -7.1800000000000004E-09, 213.9975, 2.83375E-11, -4.44264E-05, 25
DataValue, -8.75E-09, 215.0025, 2.83569E-11, -4.4691300000000004E-05, 25
DataValue, 1.89E-08, 215.9925, 2.82536E-11, -4.45144E-05, 25
DataValue, -7.260000000000001E-09, 217.0035, 2.81156E-11, -4.44327E-05, 25
DataValue, -1.218E-08, 217.998, 2.8074799999999998E-11, -4.3883E-05, 25
DataValue, 4.7960000000000007E-08, 219.0045, 2.80277E-11, -4.42696E-05, 25
DataValue, -1.93E-08, 220.002, 2.79994E-11, -4.3415000000000004E-05, 25
DataValue, -6.5800000000000009E-09, 220.998, 2.78403E-11, -4.34514E-05, 25
DataValue, -9.300000000000001E-10, 222.00300000000001, 2.7784199999999998E-11, -4.38426E-05, 25
DataValue, 2.2680000000000002E-08, 223.002, 2.77103E-11, -4.3479900000000004E-05, 25
DataValue, -6.9000000000000006E-09, 224.001, 2.76672E-11, -4.33157E-05, 25
DataValue, 3.144E-08, 225.00300000000001, 2.7564799999999998E-11, -4.31483E-05, 25
DataValue, -4.7940000000000004E-08, 226.002, 2.7461499999999998E-11, -4.34045E-05, 25
DataValue, 1.054E-08, 226.99800000000002, 2.7455499999999998E-11, -4.29652E-05, 25
DataValue, -2.064E-08, 228, 2.73481E-11, -4.3152600000000004E-05, 25
DataValue, -1.5000000000000002E-09, 228.999, 2.7325E-11, -4.2756900000000004E-05, 25
DataValue, -2.3760000000000002E-08, 229.99800000000002, 2.73325E-11, -4.23257E-05, 25
DataValue, -3.4950000000000005E-08, 230.997, 2.71353E-11, -4.2916E-05, 25
DataValue, -4.62E-09, 232.00050000000002, 2.71502E-11, -4.22555E-05, 25
DataValue, 1.2200000000000001E-09, 233.0025, 2.71086E-11, -4.29459E-05, 25
DataValue, 1.11E-09, 234.00300000000001, 2.70267E-11, -4.2401900000000005E-05, 25
DataValue, -3.2000000000000005E-09, 235.0035, 2.69506E-11, -4.25451E-05, 25
DataValue, 2.9080000000000003E-08, 236.00400000000002, 2.69089E-11, -4.24762E-05, 25
DataValue, -1.806E-08, 237.0015, 2.68832E-11, -4.22807E-05, 25
DataValue, -4.1730000000000004E-08, 238.00050000000002, 2.67181E-11, -4.22416E-05, 25
DataValue, 2.4000000000000003E-08, 238.99800000000002, 2.66887E-11, -4.21288E-05, 25
DataValue, -3.221E-08, 239.9985, 2.65645E-11, -4.2009000000000004E-05, 25
DataValue, 6.91E-08, 241.002, 2.66525E-11, -4.19423E-05, 25
DataValue, -4.3530000000000007E-08, 241.99800000000002, 2.66442E-11, -4.17398E-05, 25
DataValue, 2.6060000000000003E-08, 243, 2.64916E-11, -4.18031E-05, 25
DataValue, -2.9610000000000002E-08, 243.999, 2.6436999999999998E-11, -4.11517E-05, 25
DataValue, -6.297E-08, 244.9995, 2.64356E-11, -4.1150000000000004E-05, 25
DataValue, -3.3E-09, 245.9985, 2.62567E-11, -4.11245E-05, 25
DataValue, -5.6060000000000007E-08, 247.00050000000002, 2.62767E-11, -4.11462E-05, 25
