
SetupTitle, Cds
ApplicationTest, Cds, Public
TestParameter, Name, Memo, IntegTime, Frequency, OscLevel, Scale, Drain, VdBias, VdStart, VdStop, VdLinearStep, IdLimit, HoldTime, DelayTime, IdMinRange
TestParameter, Value, , SHORT, 100000, 0.025, LINEAR, CMU1:MF	MFCMU, SMU6:HV	HVSMU, 0, 1000, 1, 0.004, 0, 0.08, 10uA
DutParameter, Name, Polarity, Temp, YAxisCdsMin, YAxisCdsMax
DutParameter, Value, 1, 25, 1E-12, 1E-09
MetaData, TestRecord.EntryPoint, true
MetaData, TestRecord.RecordTime, 04/22/2021 10:00:41
MetaData, TestRecord.TestTarget, 
MetaData, TestRecord.IterationIndex, 28
MetaData, TestRecord.Preservation, true
MetaData, TestRecord.Flag, 
MetaData, TestRecord.Remarks, 
MetaData, TestRecord.LinkKey, c2e79e71-005c-4af0-9eeb-7cdb8e9512e2
Dimension1, 1001, 1001, 1001, 1001, 1001
Dimension2, 1, 1, 1, 1, 1
DataName, Ids, Vdrain, Cds, G, Ta
DataValue, 4.467E-08, -0.0015, 1.75842E-09, -2.5304E-05, 25
DataValue, -1.1210000000000002E-07, 1.0005, 1.39783E-09, -2.24086E-05, 25
DataValue, -3.0100000000000005E-08, 1.9995, 1.23955E-09, -1.90738E-05, 25
DataValue, -3.9E-09, 3.003, 1.13344E-09, -1.77019E-05, 25
DataValue, 1.6900000000000002E-08, 4.0035, 1.05228E-09, -1.66973E-05, 25
DataValue, -5.8170000000000004E-08, 4.9995, 9.86082E-10, -1.52524E-05, 25
DataValue, 7.804E-08, 5.9985, 9.2980300000000006E-10, -1.45558E-05, 25
DataValue, -1.2840000000000001E-08, 7.005, 8.8220800000000008E-10, -1.33224E-05, 25
DataValue, 1.9380000000000002E-08, 8.001, 8.3813300000000011E-10, -1.30228E-05, 25
DataValue, 3.9070000000000005E-08, 8.997, 7.9846400000000009E-10, -1.2492400000000001E-05, 25
DataValue, -4.108E-08, 10.0035, 7.6275300000000011E-10, -1.21876E-05, 25
DataValue, 1.2804E-07, 11.001, 7.2781800000000006E-10, -1.14292E-05, 25
DataValue, 2.1800000000000003E-08, 12.0045, 6.9656500000000007E-10, -1.06818E-05, 25
DataValue, -1.056E-07, 13.002, 6.653400000000001E-10, -1.06039E-05, 25
DataValue, 1.1648000000000001E-07, 14.004, 6.27703E-10, -9.5454099999999991E-06, 25
DataValue, -2.6090000000000004E-08, 15, 5.5412E-10, -9.14371E-06, 25
DataValue, 1.2990000000000001E-08, 16.0005, 5.28586E-10, -8.2950399999999988E-06, 25
DataValue, 6.5090000000000009E-08, 17.001, 5.1016400000000006E-10, -7.96426E-06, 25
DataValue, -9.025E-08, 17.997, 4.93623E-10, -7.882759999999999E-06, 25
DataValue, 5.7570000000000005E-08, 19.0005, 4.7917700000000007E-10, -7.39264E-06, 25
DataValue, 5.2200000000000006E-09, 19.998, 4.65921E-10, -7.71514E-06, 25
DataValue, 2.4940000000000004E-08, 21, 4.55691E-10, -7.4582499999999993E-06, 25
DataValue, -3.11E-08, 22.0005, 4.4438800000000004E-10, -6.7179899999999992E-06, 25
DataValue, 9.9620000000000015E-08, 23.001, 4.35225E-10, -6.94023E-06, 25
DataValue, -1.4690000000000001E-08, 24.003, 4.25083E-10, -7.07968E-06, 25
DataValue, -6.325E-08, 25.0005, 4.1693000000000003E-10, -6.37385E-06, 25
DataValue, 9.7520000000000016E-08, 25.9995, 4.09594E-10, -6.51141E-06, 25
DataValue, -8.068E-08, 26.9985, 4.0169800000000005E-10, -6.37962E-06, 25
DataValue, 2.6200000000000003E-08, 28.002, 3.9492300000000004E-10, -6.5246599999999993E-06, 25
DataValue, 3.504E-08, 28.998, 3.88846E-10, -6.2281299999999993E-06, 25
DataValue, -1.8900000000000003E-09, 30.003, 3.8147300000000005E-10, -5.99313E-06, 25
DataValue, 6.93E-08, 31.005, 3.7606400000000003E-10, -6.1114E-06, 25
DataValue, -2.2890000000000002E-08, 31.9935, 3.7084800000000005E-10, -5.8939599999999996E-06, 25
DataValue, 7.7E-10, 33, 3.6436900000000005E-10, -5.78211E-06, 25
DataValue, 5.015E-08, 34.002, 3.59255E-10, -5.0305099999999994E-06, 25
DataValue, -4.6440000000000004E-08, 34.998, 3.55264E-10, -5.18601E-06, 25
DataValue, 4.7130000000000006E-08, 35.9985, 3.50192E-10, -5.5293899999999992E-06, 25
DataValue, 4.2600000000000006E-09, 37.002, 3.4542800000000005E-10, -5.35624E-06, 25
DataValue, -1.2280000000000001E-08, 37.9995, 3.41091E-10, -5.76173E-06, 25
DataValue, 1.3346E-07, 39, 3.3733900000000004E-10, -5.60843E-06, 25
DataValue, -6.7200000000000008E-09, 39.999, 3.3367500000000004E-10, -5.1543E-06, 25
DataValue, 4.299E-08, 40.998, 3.28953E-10, -4.5885499999999995E-06, 25
DataValue, 1.1907000000000001E-07, 42.0015, 3.2508100000000004E-10, -5.21977E-06, 25
DataValue, -4.865E-08, 43.0005, 3.21216E-10, -6.27773E-06, 25
DataValue, 5.6880000000000004E-08, 43.9995, 3.18401E-10, -5.14408E-06, 25
DataValue, 9.9090000000000009E-08, 45.0015, 3.1519100000000003E-10, -5.04307E-06, 25
DataValue, -5.699E-08, 45.9975, 3.1138800000000003E-10, -4.6634399999999995E-06, 25
DataValue, 4.366E-08, 46.9965, 3.0812800000000003E-10, -4.70966E-06, 25
DataValue, -1.0510000000000001E-08, 47.9985, 3.0480300000000005E-10, -5.1672499999999995E-06, 25
DataValue, 1.4070000000000001E-08, 48.999, 3.01781E-10, -3.98427E-06, 25
DataValue, 9.605E-08, 49.9995, 2.9940700000000003E-10, -4.69824E-06, 25
DataValue, -1.7560000000000003E-08, 51.0015, 2.9573100000000003E-10, -4.5046999999999994E-06, 25
DataValue, -1.4420000000000001E-08, 52.002, 2.9313E-10, -4.4637E-06, 25
DataValue, -1.975E-08, 53.001, 2.9078400000000004E-10, -4.61901E-06, 25
DataValue, 3.8900000000000004E-09, 53.9985, 2.8761900000000003E-10, -4.8727399999999994E-06, 25
DataValue, 7.699E-08, 55.0035, 2.8560600000000003E-10, -4.3329699999999994E-06, 25
DataValue, -4.5590000000000007E-08, 56.0025, 2.8307600000000004E-10, -3.91492E-06, 25
DataValue, 4.9250000000000008E-08, 57.0015, 2.81188E-10, -4.38171E-06, 25
DataValue, 5.7430000000000005E-08, 57.996, 2.78499E-10, -4.56021E-06, 25
DataValue, 2.6730000000000002E-08, 59.0025, 2.76449E-10, -4.6099199999999994E-06, 25
DataValue, 3.8610000000000006E-08, 59.9985, 2.7435600000000004E-10, -4.31495E-06, 25
DataValue, 6.067E-08, 61.002, 2.72593E-10, -4.12777E-06, 25
DataValue, -8.048E-08, 62.002500000000005, 2.69946E-10, -3.9512699999999994E-06, 25
DataValue, 1.1006000000000001E-07, 63, 2.6844900000000003E-10, -4.03215E-06, 25
DataValue, 5.0280000000000004E-08, 64.002, 2.65643E-10, -4.99095E-06, 25
DataValue, -3.538E-08, 65.004, 2.64507E-10, -4.10578E-06, 25
DataValue, 1.928E-08, 66, 2.6226600000000003E-10, -4.36561E-06, 25
DataValue, -3.6770000000000004E-08, 67.002, 2.60577E-10, -3.4675E-06, 25
DataValue, -4.0390000000000006E-08, 67.9995, 2.58425E-10, -3.89758E-06, 25
DataValue, 9.6370000000000009E-08, 69.003, 2.57104E-10, -4.4746599999999994E-06, 25
DataValue, -1.1163000000000001E-07, 70.0035, 2.5502E-10, -4.2476E-06, 25
DataValue, 3.9180000000000004E-08, 71.001, 2.5300300000000003E-10, -3.94243E-06, 25
DataValue, 2.9200000000000003E-09, 72.001500000000007, 2.51363E-10, -3.59029E-06, 25
DataValue, 1.9030000000000002E-08, 73.0005, 2.50107E-10, -3.6924199999999997E-06, 25
DataValue, 3.612E-08, 74.001, 2.4856E-10, -4.17352E-06, 25
DataValue, -8.0560000000000015E-08, 74.9985, 2.45984E-10, -3.5956699999999997E-06, 25
DataValue, 4.306E-08, 75.999, 2.4516E-10, -3.92512E-06, 25
DataValue, 2.054E-08, 77.001, 2.43755E-10, -4.0454599999999994E-06, 25
DataValue, -2.4280000000000003E-08, 77.9985, 2.42574E-10, -3.75777E-06, 25
DataValue, 1.3445000000000002E-07, 78.996, 2.4060800000000004E-10, -3.9462099999999994E-06, 25
DataValue, -3.067E-08, 79.998, 2.3914200000000003E-10, -4.0328799999999994E-06, 25
DataValue, -5.2190000000000006E-08, 81.001500000000007, 2.3781700000000004E-10, -3.523E-06, 25
DataValue, 7.0590000000000012E-08, 82.0005, 2.37085E-10, -3.71909E-06, 25
DataValue, -1.701E-08, 82.9995, 2.35338E-10, -3.51396E-06, 25
DataValue, 2.6130000000000003E-08, 84.001500000000007, 2.34516E-10, -3.7500499999999998E-06, 25
DataValue, 6.344E-08, 85.0035, 2.32622E-10, -3.3707099999999996E-06, 25
DataValue, -1.0974000000000002E-07, 86.0025, 2.30772E-10, -3.67078E-06, 25
DataValue, 8.321E-08, 87, 2.2925500000000003E-10, -3.5342199999999997E-06, 25
DataValue, 2.3220000000000002E-08, 87.999, 2.28894E-10, -4.0441E-06, 25
DataValue, -5.1280000000000007E-08, 88.9995, 2.27382E-10, -3.4387899999999997E-06, 25
DataValue, 1.1819000000000002E-07, 90, 2.26213E-10, -3.87692E-06, 25
DataValue, -6.5220000000000011E-08, 91.0005, 2.2492200000000003E-10, -3.6054699999999996E-06, 25
DataValue, 1.855E-08, 91.998, 2.2515100000000003E-10, -3.65298E-06, 25
DataValue, 4.5710000000000004E-08, 93, 2.2307100000000002E-10, -3.7835E-06, 25
DataValue, -8.7570000000000009E-08, 94.0035, 2.2194400000000002E-10, -3.44111E-06, 25
DataValue, 1.9360000000000003E-08, 94.9995, 2.2031700000000002E-10, -3.34458E-06, 25
DataValue, 7.395000000000001E-08, 96.001500000000007, 2.19668E-10, -3.4294899999999997E-06, 25
DataValue, -2.9260000000000002E-08, 96.9975, 2.1949200000000003E-10, -4.23668E-06, 25
DataValue, 8.71E-08, 97.9995, 2.1701700000000002E-10, -3.24954E-06, 25
DataValue, -5.7690000000000009E-08, 98.9985, 2.1589700000000003E-10, -3.5944099999999997E-06, 25
DataValue, 2.361E-08, 100.005, 2.1476100000000003E-10, -3.4918399999999996E-06, 25
DataValue, -1.523E-08, 100.998, 2.1453800000000003E-10, -3.25292E-06, 25
DataValue, -5.7500000000000005E-08, 102.00450000000001, 2.12523E-10, -3.28465E-06, 25
DataValue, 6.485E-08, 102.996, 2.11743E-10, -3.0835399999999996E-06, 25
DataValue, 4.7580000000000007E-08, 103.995, 2.11442E-10, -3.1696299999999997E-06, 25
DataValue, -1.56E-08, 105, 2.09775E-10, -2.9101E-06, 25
DataValue, 9.004E-08, 105.9975, 2.09715E-10, -3.6829199999999996E-06, 25
DataValue, -5.734E-08, 106.9965, 2.08281E-10, -3.1849299999999998E-06, 25
DataValue, -9.0800000000000009E-09, 108.00150000000001, 2.0805900000000002E-10, -3.15787E-06, 25
DataValue, 5.9110000000000005E-08, 109.0005, 2.06265E-10, -3.84494E-06, 25
DataValue, -7.02E-08, 110.004, 2.0549700000000001E-10, -3.2099999999999998E-06, 25
DataValue, 3.147E-08, 111.003, 2.0450600000000002E-10, -3.2621799999999997E-06, 25
DataValue, 0, 112.005, 2.0418400000000002E-10, -3.2622099999999997E-06, 25
DataValue, 4.1620000000000005E-08, 113.001, 2.0292500000000003E-10, -3.49622E-06, 25
DataValue, 1.0659000000000002E-07, 113.9985, 2.02462E-10, -3.1291699999999996E-06, 25
DataValue, -7.027E-08, 114.99900000000001, 2.0203600000000003E-10, -3.3147899999999997E-06, 25
DataValue, 5.2750000000000006E-08, 115.9995, 2.00202E-10, -3.50758E-06, 25
DataValue, 2.0110000000000003E-08, 116.9955, 1.99994E-10, -3.2001599999999996E-06, 25
DataValue, -8.317000000000001E-08, 118.00200000000001, 2.0003E-10, -2.97344E-06, 25
DataValue, 1.0375000000000001E-07, 119.0025, 1.9921900000000003E-10, -2.9895399999999998E-06, 25
DataValue, -5.259E-08, 119.9955, 1.9763300000000002E-10, -3.0864899999999997E-06, 25
DataValue, 7.7800000000000008E-09, 121.00200000000001, 1.9642E-10, -2.93226E-06, 25
DataValue, 3.3590000000000005E-08, 121.998, 1.95812E-10, -3.1896399999999998E-06, 25
DataValue, -6.1810000000000009E-08, 123.00150000000001, 1.9477300000000002E-10, -3.0038E-06, 25
DataValue, -6.9200000000000009E-09, 123.99900000000001, 1.9472900000000003E-10, -3.23328E-06, 25
DataValue, -7.0600000000000008E-09, 125.0025, 1.9364400000000002E-10, -3.0447899999999998E-06, 25
DataValue, -2.7E-09, 126, 1.9307700000000002E-10, -2.7654899999999998E-06, 25
DataValue, 1.1151000000000001E-07, 126.99900000000001, 1.92012E-10, -3.44291E-06, 25
DataValue, -8.3880000000000007E-08, 128.001, 1.9132900000000002E-10, -3.38442E-06, 25
DataValue, -5.6200000000000009E-09, 128.997, 1.91243E-10, -3.6842E-06, 25
DataValue, 8.111E-08, 130.00050000000002, 1.9054900000000002E-10, -2.9089099999999996E-06, 25
DataValue, -7.4910000000000014E-08, 130.9995, 1.89071E-10, -3.45173E-06, 25
DataValue, 5.2930000000000005E-08, 132.0015, 1.88568E-10, -2.57557E-06, 25
DataValue, -1.8500000000000002E-09, 132.999, 1.88052E-10, -2.62548E-06, 25
DataValue, -1.2211E-07, 134.001, 1.86934E-10, -2.9176E-06, 25
DataValue, 7.7030000000000009E-08, 135, 1.8621600000000002E-10, -2.88996E-06, 25
DataValue, 5.8940000000000004E-08, 136.002, 1.86931E-10, -3.6645999999999996E-06, 25
DataValue, -1.156E-08, 136.9995, 1.8546500000000002E-10, -2.8059299999999997E-06, 25
DataValue, 2.139E-08, 137.9985, 1.84298E-10, -2.83917E-06, 25
DataValue, -4.275E-08, 139.0035, 1.84849E-10, -3.12128E-06, 25
DataValue, -1.9450000000000002E-08, 140.0025, 1.8429900000000002E-10, -2.76941E-06, 25
DataValue, 2.2520000000000002E-08, 140.997, 1.83753E-10, -2.5151399999999997E-06, 25
DataValue, 1.0000000000000001E-11, 142.002, 1.81709E-10, -3.27369E-06, 25
DataValue, 1.1315000000000002E-07, 142.9935, 1.8181400000000003E-10, -3.1059099999999996E-06, 25
DataValue, -3.029E-08, 144.00300000000001, 1.81755E-10, -2.68303E-06, 25
DataValue, 8.06E-09, 145.002, 1.80356E-10, -2.85772E-06, 25
DataValue, 9.6240000000000007E-08, 145.998, 1.79241E-10, -2.9767599999999998E-06, 25
DataValue, -3.186E-08, 147.00300000000001, 1.79652E-10, -2.8691899999999997E-06, 25
DataValue, 4.2690000000000007E-08, 148.005, 1.7814900000000002E-10, -2.95295E-06, 25
DataValue, 6.3330000000000012E-08, 148.9995, 1.78516E-10, -2.68352E-06, 25
DataValue, -7.266E-08, 149.9985, 1.78111E-10, -2.6278799999999997E-06, 25
DataValue, 2.5400000000000002E-08, 150.999, 1.7625E-10, -3.1073E-06, 25
DataValue, 1.9270000000000003E-08, 151.998, 1.7714300000000002E-10, -2.7979099999999998E-06, 25
DataValue, 2.4140000000000003E-08, 153.0015, 1.76102E-10, -2.6704699999999997E-06, 25
DataValue, 7.3200000000000007E-08, 154.00050000000002, 1.7543100000000002E-10, -2.41215E-06, 25
DataValue, -3.6100000000000006E-08, 155.001, 1.74095E-10, -2.56751E-06, 25
DataValue, 6.1870000000000011E-08, 156.00300000000001, 1.74104E-10, -2.9262499999999997E-06, 25
DataValue, 2.7320000000000002E-08, 156.996, 1.74619E-10, -2.6246699999999996E-06, 25
DataValue, -2.3980000000000004E-08, 158.0025, 1.73299E-10, -2.8632499999999996E-06, 25
DataValue, 1.4350000000000001E-08, 158.9955, 1.73088E-10, -2.64458E-06, 25
DataValue, -5.0790000000000007E-08, 160.0035, 1.73098E-10, -2.40852E-06, 25
DataValue, -5.7980000000000007E-08, 161.004, 1.7156300000000003E-10, -2.6795E-06, 25
DataValue, 1.0058E-07, 162, 1.7215600000000002E-10, -2.6356399999999996E-06, 25
DataValue, -6.243000000000001E-08, 162.999, 1.7117400000000002E-10, -2.4673799999999997E-06, 25
DataValue, -8.68E-09, 163.998, 1.7072800000000002E-10, -2.6133799999999997E-06, 25
DataValue, 5.6140000000000005E-08, 165.0015, 1.7004100000000002E-10, -2.46759E-06, 25
DataValue, -2.0480000000000002E-08, 165.999, 1.6975E-10, -1.98053E-06, 25
DataValue, 5.3940000000000005E-08, 166.9995, 1.68993E-10, -2.72019E-06, 25
DataValue, -8.27E-09, 168, 1.68638E-10, -3.52849E-06, 25
DataValue, 3.13E-08, 169.0035, 1.6816100000000003E-10, -2.56615E-06, 25
DataValue, 8.0840000000000014E-08, 170.0025, 1.6769700000000003E-10, -2.80006E-06, 25
DataValue, -4.966E-08, 171.0015, 1.6708200000000002E-10, -2.69561E-06, 25
DataValue, 4.2830000000000007E-08, 172.00050000000002, 1.66333E-10, -2.4968E-06, 25
DataValue, 2.1240000000000004E-08, 172.998, 1.6639400000000002E-10, -2.7505899999999997E-06, 25
DataValue, -9.842E-08, 174.00300000000001, 1.6507700000000001E-10, -2.81857E-06, 25
DataValue, 4.8770000000000006E-08, 174.999, 1.65091E-10, -2.31354E-06, 25
DataValue, -2.7550000000000002E-08, 175.9995, 1.64582E-10, -3.12981E-06, 25
DataValue, -4.8490000000000006E-08, 177.00300000000001, 1.64441E-10, -2.39508E-06, 25
DataValue, 1.5310000000000001E-07, 178.005, 1.63543E-10, -2.52712E-06, 25
DataValue, -2.3850000000000002E-08, 178.9965, 1.6363700000000002E-10, -2.90699E-06, 25
DataValue, -1.0200000000000002E-09, 180, 1.6346200000000001E-10, -2.35491E-06, 25
DataValue, 4.3770000000000007E-08, 181.00050000000002, 1.62638E-10, -2.83753E-06, 25
DataValue, 1.225E-08, 181.9995, 1.6234800000000002E-10, -2.4407299999999998E-06, 25
DataValue, 6.416E-08, 182.9985, 1.6221E-10, -2.7560699999999998E-06, 25
DataValue, -1.3120000000000001E-08, 184.0035, 1.60767E-10, -2.2667899999999998E-06, 25
DataValue, -3.794E-08, 185.0025, 1.61042E-10, -2.7015699999999997E-06, 25
DataValue, 6.931E-08, 185.9985, 1.6039E-10, -2.67915E-06, 25
DataValue, -7.3110000000000011E-08, 186.999, 1.5950600000000002E-10, -2.6821899999999996E-06, 25
DataValue, 2.019E-08, 187.9965, 1.59189E-10, -2.6703499999999998E-06, 25
DataValue, 8.263E-08, 188.997, 1.59691E-10, -2.50392E-06, 25
DataValue, -9.213E-08, 190.002, 1.58354E-10, -2.6712399999999998E-06, 25
DataValue, -1.41E-09, 190.995, 1.58881E-10, -2.40783E-06, 25
DataValue, 4.0640000000000005E-08, 191.9955, 1.5776E-10, -2.16224E-06, 25
DataValue, 2.202E-08, 193.002, 1.5780400000000002E-10, -2.33334E-06, 25
DataValue, 4.7140000000000004E-08, 193.9995, 1.57221E-10, -2.72445E-06, 25
DataValue, 3.908E-08, 195.0015, 1.57353E-10, -2.6173699999999997E-06, 25
DataValue, 1.5190000000000002E-08, 195.9975, 1.57184E-10, -2.5020999999999997E-06, 25
DataValue, 6.9690000000000011E-08, 197.0025, 1.5663E-10, -2.42823E-06, 25
DataValue, -5.4210000000000007E-08, 197.997, 1.5556800000000002E-10, -2.34015E-06, 25
DataValue, 6.1930000000000013E-08, 199.0035, 1.56057E-10, -2.1321999999999997E-06, 25
DataValue, 9.000000000000001E-10, 199.9995, 1.54946E-10, -2.40772E-06, 25
DataValue, -5.0020000000000007E-08, 201.0015, 1.5437100000000001E-10, -2.14513E-06, 25
DataValue, 8.4850000000000009E-08, 202.002, 1.5431800000000003E-10, -2.08658E-06, 25
DataValue, -1.3260000000000001E-08, 203.001, 1.5443E-10, -2.67737E-06, 25
DataValue, 9.1900000000000016E-09, 204.0045, 1.54081E-10, -2.37194E-06, 25
DataValue, 6.84E-08, 205.002, 1.5319400000000002E-10, -2.47745E-06, 25
DataValue, -2.77E-09, 205.9995, 1.53174E-10, -2.1657399999999997E-06, 25
DataValue, -7.2700000000000007E-09, 207.0015, 1.52701E-10, -2.6375299999999997E-06, 25
DataValue, 3.1640000000000004E-08, 208.00050000000002, 1.51691E-10, -2.7930599999999997E-06, 25
DataValue, 2.0010000000000002E-08, 208.998, 1.51978E-10, -2.5072699999999997E-06, 25
DataValue, 3.1780000000000004E-08, 209.9985, 1.52251E-10, -2.6087599999999997E-06, 25
DataValue, -1.2160000000000001E-08, 211.002, 1.51155E-10, -2.4686999999999998E-06, 25
DataValue, 3.4840000000000006E-08, 212.004, 1.5113200000000002E-10, -1.7992999999999999E-06, 25
DataValue, 9.9210000000000013E-08, 213.0045, 1.5006000000000002E-10, -2.356E-06, 25
DataValue, -6.254E-08, 213.9975, 1.50528E-10, -2.13362E-06, 25
DataValue, -1.2910000000000001E-08, 214.998, 1.5052000000000001E-10, -2.38246E-06, 25
DataValue, 2.3650000000000003E-08, 216.00300000000001, 1.4882E-10, -2.22508E-06, 25
DataValue, -2.3780000000000002E-08, 217.0035, 1.49063E-10, -2.29705E-06, 25
DataValue, 8.5070000000000007E-08, 217.9995, 1.48627E-10, -2.4719E-06, 25
DataValue, -2.242E-08, 218.997, 1.48554E-10, -2.54671E-06, 25
DataValue, -3.0000000000000005E-10, 220.002, 1.4921900000000002E-10, -2.62695E-06, 25
DataValue, 2.024E-08, 221.001, 1.47849E-10, -2.16368E-06, 25
DataValue, -6.233E-08, 222.0045, 1.4770600000000002E-10, -2.60762E-06, 25
DataValue, 5.3170000000000006E-08, 223.005, 1.4789000000000002E-10, -2.5041399999999997E-06, 25
DataValue, -9.1560000000000007E-08, 224.004, 1.4710400000000002E-10, -2.2339999999999997E-06, 25
DataValue, 2.7400000000000004E-08, 224.9985, 1.4596E-10, -2.5514899999999998E-06, 25
DataValue, -3.553E-08, 226.00050000000002, 1.4668800000000002E-10, -2.2538099999999998E-06, 25
DataValue, -7.7770000000000014E-08, 226.99800000000002, 1.46011E-10, -2.4514999999999997E-06, 25
DataValue, 9.814E-08, 228, 1.46285E-10, -2.36726E-06, 25
DataValue, -4.537E-08, 229.002, 1.4604000000000002E-10, -2.61876E-06, 25
DataValue, 1.9870000000000002E-08, 229.99800000000002, 1.44662E-10, -2.6748899999999997E-06, 25
DataValue, 3.6550000000000006E-08, 231.0015, 1.45077E-10, -2.11501E-06, 25
DataValue, -2.8240000000000003E-08, 232.00050000000002, 1.44417E-10, -2.5018E-06, 25
DataValue, 8.6790000000000012E-08, 233.004, 1.4439500000000002E-10, -2.00588E-06, 25
DataValue, -7.168E-08, 233.9925, 1.4489200000000002E-10, -2.3295099999999997E-06, 25
DataValue, 2.6770000000000004E-08, 235.002, 1.4334000000000002E-10, -1.6448899999999999E-06, 25
DataValue, -3.8030000000000004E-08, 235.9995, 1.4326700000000001E-10, -2.2882999999999998E-06, 25
