
SetupTitle, Cds
ApplicationTest, Cds, Public
TestParameter, Name, Memo, IntegTime, Frequency, OscLevel, Scale, Drain, VdBias, VdStart, VdStop, VdLinearStep, IdLimit, HoldTime, DelayTime, IdMinRange
TestParameter, Value, , SHORT, 1000000, 0.025, LINEAR, CMU1:MF	MFCMU, SMU6:HV	HVSMU, 0, 1000, 1, 0.004, 0, 0.08, 10uA
DutParameter, Name, Polarity, Temp, YAxisCdsMin, YAxisCdsMax
DutParameter, Value, 1, 25, 1E-12, 1E-09
MetaData, TestRecord.EntryPoint, true
MetaData, TestRecord.RecordTime, 12/27/2020 08:11:36
MetaData, TestRecord.TestTarget, 
MetaData, TestRecord.IterationIndex, 3
MetaData, TestRecord.Preservation, true
MetaData, TestRecord.Flag, 
MetaData, TestRecord.Remarks, 
MetaData, TestRecord.LinkKey, a67788bd-1bb7-4c34-94a3-af63fb332aff
Dimension1, 1001, 1001, 1001, 1001, 1001
Dimension2, 1, 1, 1, 1, 1
DataName, Ids, Vdrain, Cds, G, Ta
DataValue, -5.1800000000000007E-09, 0, 2.6134400000000003E-10, -0.000337187, 25
DataValue, -3.109E-08, 1.0035, 2.2785600000000002E-10, -0.00030056900000000004, 25
DataValue, 5.9E-10, 2.004, 2.0585700000000003E-10, -0.00027587200000000003, 25
DataValue, 1.876E-08, 3, 1.8939700000000001E-10, -0.000256823, 25
DataValue, 4.359E-08, 4.002, 1.7648900000000002E-10, -0.000241792, 25
DataValue, 5.427E-08, 4.9965, 1.65856E-10, -0.00022901100000000002, 25
DataValue, 4.2980000000000005E-08, 5.9985, 1.56889E-10, -0.00021771300000000002, 25
DataValue, 3.804E-08, 7.0005, 1.49271E-10, -0.00020790900000000002, 25
DataValue, 1.9950000000000003E-08, 7.9995, 1.42383E-10, -0.000199265, 25
DataValue, 1.0020000000000001E-08, 9.003, 1.36528E-10, -0.00019128000000000003, 25
DataValue, -7.146E-08, 10.002, 1.30893E-10, -0.000184625, 25
DataValue, -4.5530000000000005E-08, 10.998000000000001, 1.25094E-10, -0.00017588300000000002, 25
DataValue, -1.8350000000000002E-08, 11.997, 1.1388000000000001E-10, -0.000158782, 25
DataValue, 3.3280000000000004E-08, 12.999, 1.0953800000000001E-10, -0.00015326400000000002, 25
DataValue, -5.2100000000000008E-09, 13.998000000000001, 1.05977E-10, -0.000149004, 25
DataValue, 1.565E-08, 15, 1.0283800000000001E-10, -0.00014408700000000002, 25
DataValue, -3.511E-08, 15.999, 1.00024E-10, -0.00014048, 25
DataValue, 2.9700000000000005E-08, 17.001, 9.74873E-11, -0.00013687200000000001, 25
DataValue, -4.59E-09, 17.9985, 9.5089599999999993E-11, -0.00013375800000000002, 25
DataValue, 1.102E-08, 18.994500000000002, 9.2834299999999992E-11, -0.00013091, 25
DataValue, -1.7370000000000003E-08, 20.0025, 9.07237E-11, -0.000128874, 25
DataValue, 7.500000000000001E-09, 21, 8.89151E-11, -0.000125768, 25
DataValue, -3.41E-08, 22.0005, 8.70841E-11, -0.000123733, 25
DataValue, 1.313E-08, 23.001, 8.54466E-11, -0.000120885, 25
DataValue, -3.8440000000000005E-08, 24, 8.37949E-11, -0.00011862600000000001, 25
DataValue, -1.3650000000000002E-08, 24.999, 8.23514E-11, -0.00011724600000000001, 25
DataValue, 1.794E-08, 25.998, 8.08769E-11, -0.000115038, 25
DataValue, 4.226E-08, 27, 7.95866E-11, -0.00011316900000000001, 25
DataValue, 9.9600000000000012E-09, 27.999000000000002, 7.8331E-11, -0.00011141200000000001, 25
DataValue, -1.5170000000000003E-08, 28.9995, 7.70755E-11, -0.000110186, 25
DataValue, 1.355E-08, 30.0015, 7.5865499999999993E-11, -0.000108851, 25
DataValue, 4.1200000000000005E-08, 31.005, 7.47802E-11, -0.000106608, 25
DataValue, -2.7340000000000002E-08, 31.9995, 7.37431E-11, -0.000105759, 25
DataValue, 1.6880000000000003E-08, 33.003, 7.2748699999999994E-11, -0.00010432200000000001, 25
DataValue, -1.6200000000000003E-08, 33.996, 7.17358E-11, -0.000102399, 25
DataValue, -5.8430000000000008E-08, 34.998, 7.08615E-11, -0.000101773, 25
DataValue, 1.29E-09, 36, 6.99407E-11, -0.00010025500000000001, 25
DataValue, 6.233E-08, 37.0005, 6.91159E-11, -9.8852400000000009E-05, 25
DataValue, -5.3040000000000004E-08, 37.998, 6.8292E-11, -9.7587E-05, 25
DataValue, 8.0590000000000009E-08, 39.0045, 6.73898E-11, -9.6506900000000009E-05, 25
DataValue, -1.4280000000000001E-08, 40.005, 6.66084E-11, -9.5551400000000008E-05, 25
DataValue, -5.890000000000001E-09, 40.9995, 6.5880799999999993E-11, -9.4528100000000007E-05, 25
DataValue, 3.2190000000000006E-08, 42, 6.51379E-11, -9.36369E-05, 25
DataValue, 3.465E-08, 43.002, 6.44329E-11, -9.28126E-05, 25
DataValue, -1.689E-08, 43.9995, 6.37356E-11, -9.18559E-05, 25
DataValue, 2.942E-08, 45.0045, 6.30171E-11, -9.08737E-05, 25
DataValue, -6.449E-08, 45.996, 6.24363E-11, -9.02254E-05, 25
DataValue, 3.1E-10, 47.001, 6.18037E-11, -8.89974E-05, 25
DataValue, -7.048E-08, 47.997, 6.12936E-11, -8.8674900000000007E-05, 25
DataValue, -6.1450000000000011E-08, 48.9975, 6.07054E-11, -8.7494500000000007E-05, 25
DataValue, -8.6370000000000012E-08, 49.9995, 6.00667E-11, -8.62636E-05, 25
DataValue, -1.4660000000000002E-08, 50.9985, 5.95402E-11, -8.5518E-05, 25
DataValue, 5.521E-08, 52.0005, 5.90257E-11, -8.51417E-05, 25
DataValue, 4.9720000000000004E-08, 52.996500000000005, 5.84288E-11, -8.43528E-05, 25
DataValue, 1.738E-08, 53.9985, 5.7910099999999997E-11, -8.3449000000000007E-05, 25
DataValue, 3.2120000000000006E-08, 54.9945, 5.7416399999999997E-11, -8.33159E-05, 25
DataValue, 3.2970000000000003E-08, 55.999500000000005, 5.69491E-11, -8.2968000000000009E-05, 25
DataValue, 1.0630000000000002E-08, 56.9925, 5.64316E-11, -8.14971E-05, 25
DataValue, 5.7200000000000009E-09, 58.002, 5.60239E-11, -8.08975E-05, 25
DataValue, -4.833E-08, 59.0025, 5.5614E-11, -8.05619E-05, 25
DataValue, 5.3600000000000005E-09, 60, 5.51259E-11, -7.93078E-05, 25
DataValue, -2.949E-08, 60.999, 5.47243E-11, -7.93118E-05, 25
DataValue, 4.8810000000000005E-08, 61.999500000000005, 5.4351899999999997E-11, -7.88057E-05, 25
DataValue, 5.5900000000000008E-09, 62.9985, 5.38537E-11, -7.7896700000000009E-05, 25
DataValue, 4.303E-08, 63.996, 5.3489499999999997E-11, -7.74651E-05, 25
DataValue, 3.2270000000000004E-08, 64.9935, 5.3076E-11, -7.73034E-05, 25
DataValue, 4.3610000000000005E-08, 66.001500000000007, 5.26857E-11, -7.6490000000000008E-05, 25
DataValue, 1.5560000000000002E-08, 67.002, 5.2299E-11, -7.5914E-05, 25
DataValue, -3.0450000000000005E-08, 67.9995, 5.1839199999999996E-11, -7.5204400000000008E-05, 25
DataValue, 2.2030000000000003E-08, 68.994, 5.1555199999999996E-11, -7.4508700000000007E-05, 25
DataValue, -3.434E-08, 70.0035, 5.121E-11, -7.48166E-05, 25
DataValue, -4.708E-08, 70.9995, 5.0813199999999996E-11, -7.38755E-05, 25
DataValue, -4.662E-08, 71.9985, 5.04941E-11, -7.34316E-05, 25
DataValue, -5.3260000000000008E-08, 72.999, 5.0132099999999996E-11, -7.29722E-05, 25
DataValue, 2.7800000000000003E-09, 73.9995, 4.98305E-11, -7.32164E-05, 25
DataValue, 2.36E-09, 74.997, 4.94985E-11, -7.1996E-05, 25
DataValue, 6.7000000000000004E-09, 76.0005, 4.9250499999999996E-11, -7.1415200000000007E-05, 25
DataValue, 3.9500000000000006E-09, 76.9995, 4.89032E-11, -7.09415E-05, 25
DataValue, -5.973E-08, 77.997, 4.85666E-11, -7.0260400000000009E-05, 25
DataValue, -3.0900000000000003E-09, 79.0035, 4.83632E-11, -7.0006200000000007E-05, 25
DataValue, 5.1870000000000007E-08, 80.0055, 4.80694E-11, -6.97887E-05, 25
DataValue, 2.2240000000000003E-08, 81.001500000000007, 4.78404E-11, -6.88684E-05, 25
DataValue, -7.629E-08, 81.996, 4.74181E-11, -6.87713E-05, 25
DataValue, -2.1850000000000004E-08, 82.998, 4.7254899999999996E-11, -6.87265E-05, 25
DataValue, -4.4970000000000005E-08, 84.003, 4.68904E-11, -6.87725E-05, 25
DataValue, -6.219E-08, 84.9975, 4.66193E-11, -6.81007E-05, 25
DataValue, -4.8660000000000007E-08, 85.9995, 4.6402E-11, -6.7672900000000007E-05, 25
DataValue, 1.2880000000000002E-08, 86.9985, 4.60942E-11, -6.6875900000000008E-05, 25
DataValue, 3.308E-08, 88.005, 4.58501E-11, -6.67458E-05, 25
DataValue, 5.6540000000000009E-08, 88.998, 4.56082E-11, -6.6276E-05, 25
DataValue, 1.6830000000000002E-08, 89.9985, 4.53172E-11, -6.5890200000000008E-05, 25
DataValue, 4.4330000000000007E-08, 91.005, 4.51103E-11, -6.55563E-05, 25
DataValue, -3.943E-08, 91.998, 4.49058E-11, -6.4737700000000009E-05, 25
DataValue, 3.287E-08, 93.003, 4.46719E-11, -6.45297E-05, 25
DataValue, -2.3790000000000003E-08, 94.0035, 4.4406099999999996E-11, -6.45883E-05, 25
DataValue, -1.245E-08, 94.9995, 4.42145E-11, -6.41056E-05, 25
DataValue, -1.9340000000000003E-08, 96.003, 4.40115E-11, -6.4478100000000009E-05, 25
DataValue, -1.979E-08, 97.002, 4.36281E-11, -6.40833E-05, 25
DataValue, 8.0300000000000014E-09, 98.004, 4.35337E-11, -6.38088E-05, 25
DataValue, 5.3980000000000004E-08, 98.9985, 4.3302699999999996E-11, -6.29853E-05, 25
DataValue, 1.2090000000000001E-08, 99.999, 4.31225E-11, -6.29905E-05, 25
DataValue, -2.89E-09, 101.0025, 4.29383E-11, -6.27155E-05, 25
DataValue, -3.5330000000000006E-08, 101.9985, 4.2682E-11, -6.2021200000000009E-05, 25
DataValue, -1.2150000000000001E-08, 103.002, 4.24114E-11, -6.25766E-05, 25
DataValue, -2.6160000000000004E-08, 103.9965, 4.22749E-11, -6.17173E-05, 25
DataValue, -2.4180000000000002E-08, 105.003, 4.21201E-11, -6.1272E-05, 25
DataValue, -1.8120000000000003E-08, 106.0005, 4.18779E-11, -6.0857400000000005E-05, 25
DataValue, 3.287E-08, 106.9995, 4.17153E-11, -6.10972E-05, 25
DataValue, 3.2100000000000003E-09, 108, 4.1574999999999996E-11, -6.06578E-05, 25
DataValue, -1.71E-08, 109.0005, 4.13383E-11, -6.02202E-05, 25
DataValue, 4.093E-08, 110.0025, 4.11782E-11, -6.00339E-05, 25
DataValue, -1.1950000000000001E-08, 111, 4.09747E-11, -5.99838E-05, 25
DataValue, 3.3100000000000004E-09, 112.002, 4.07168E-11, -5.98293E-05, 25
DataValue, -7.5610000000000013E-08, 113.0025, 4.05834E-11, -5.97335E-05, 25
DataValue, -9.5E-10, 114, 4.03342E-11, -5.9182600000000005E-05, 25
DataValue, -1.012E-08, 115.0035, 4.02964E-11, -5.86762E-05, 25
DataValue, -1.2500000000000001E-08, 115.9965, 4.00247E-11, -5.8515200000000005E-05, 25
DataValue, -3.154E-08, 117.00450000000001, 3.99443E-11, -5.80446E-05, 25
DataValue, -3.5200000000000003E-09, 117.99900000000001, 3.9763899999999996E-11, -5.80549E-05, 25
DataValue, -1.8090000000000002E-08, 118.9965, 3.95726E-11, -5.76271E-05, 25
DataValue, -1.8120000000000003E-08, 120, 3.93979E-11, -5.7284600000000004E-05, 25
DataValue, 9.000000000000001E-10, 120.9975, 3.92208E-11, -5.72163E-05, 25
DataValue, 1.57E-08, 121.998, 3.90239E-11, -5.7275E-05, 25
DataValue, 2.8560000000000002E-08, 122.9985, 3.8950499999999996E-11, -5.69622E-05, 25
DataValue, 3.4330000000000004E-08, 123.99900000000001, 3.87324E-11, -5.6812100000000004E-05, 25
DataValue, 3.1700000000000004E-09, 125.001, 3.85715E-11, -5.65756E-05, 25
DataValue, 4.631E-08, 126.00450000000001, 3.84119E-11, -5.57114E-05, 25
DataValue, -2.8000000000000003E-08, 127.0005, 3.83719E-11, -5.5690200000000004E-05, 25
DataValue, -1.834E-08, 127.998, 3.8238E-11, -5.53681E-05, 25
DataValue, -9.6220000000000011E-08, 129.0015, 3.79943E-11, -5.5316200000000004E-05, 25
DataValue, -2.6E-08, 130.002, 3.78224E-11, -5.5637E-05, 25
DataValue, 3.5190000000000006E-08, 130.998, 3.77175E-11, -5.52999E-05, 25
DataValue, 1.8070000000000002E-08, 132.00300000000001, 3.76174E-11, -5.46194E-05, 25
DataValue, 9.58E-09, 132.99450000000002, 3.75332E-11, -5.48489E-05, 25
DataValue, 2.6300000000000002E-09, 133.9995, 3.73024E-11, -5.4582E-05, 25
DataValue, -3.2090000000000005E-08, 134.994, 3.70931E-11, -5.42074E-05, 25
DataValue, -1.2760000000000001E-08, 136.00050000000002, 3.71003E-11, -5.41187E-05, 25
DataValue, -1.046E-08, 136.9965, 3.69227E-11, -5.41188E-05, 25
DataValue, -2.7090000000000003E-08, 137.997, 3.67893E-11, -5.39989E-05, 25
DataValue, -5.0830000000000006E-08, 139.00050000000002, 3.66712E-11, -5.35094E-05, 25
DataValue, -1.0090000000000001E-08, 140.001, 3.64556E-11, -5.3595200000000005E-05, 25
DataValue, -1.0200000000000002E-09, 141, 3.63101E-11, -5.3434300000000004E-05, 25
DataValue, 1.2280000000000001E-08, 141.999, 3.61812E-11, -5.33498E-05, 25
DataValue, -6.0000000000000008E-09, 143.001, 3.614E-11, -5.2343000000000004E-05, 25
DataValue, -4.4890000000000007E-08, 144.0015, 3.59902E-11, -5.28077E-05, 25
DataValue, -6.26E-09, 144.9975, 3.59181E-11, -5.2306700000000005E-05, 25
DataValue, 7.6E-09, 146.0025, 3.56848E-11, -5.24963E-05, 25
DataValue, 6.4000000000000011E-09, 147.0015, 3.56259E-11, -5.1817E-05, 25
DataValue, -1.6430000000000002E-08, 148.0035, 3.54936E-11, -5.20413E-05, 25
DataValue, 1.0220000000000002E-08, 148.9995, 3.54167E-11, -5.1849200000000005E-05, 25
DataValue, 9.09E-09, 150.00300000000001, 3.53009E-11, -5.2003200000000004E-05, 25
DataValue, 1.2620000000000002E-08, 150.9975, 3.51937E-11, -5.14047E-05, 25
DataValue, 1.088E-08, 152.001, 3.50434E-11, -5.16673E-05, 25
DataValue, -3.8440000000000005E-08, 153, 3.49152E-11, -5.1224E-05, 25
DataValue, 2.9990000000000006E-08, 154.002, 3.489E-11, -5.13428E-05, 25
DataValue, -4.5150000000000004E-08, 155.001, 3.47477E-11, -5.14083E-05, 25
DataValue, -1.3040000000000001E-08, 156.0015, 3.4624E-11, -5.09693E-05, 25
DataValue, -2.5340000000000004E-08, 156.999, 3.44892E-11, -5.04081E-05, 25
DataValue, -7.3800000000000006E-09, 157.998, 3.44613E-11, -5.0293E-05, 25
DataValue, 1.1860000000000002E-08, 159.0015, 3.43528E-11, -5.01252E-05, 25
DataValue, 1.08E-08, 159.9975, 3.41097E-11, -5.01178E-05, 25
DataValue, 6.060000000000001E-09, 160.9995, 3.40826E-11, -5.0226400000000004E-05, 25
DataValue, 2.422E-08, 161.997, 3.39187E-11, -5.0212E-05, 25
DataValue, -3.7670000000000006E-08, 162.996, 3.38674E-11, -4.9921E-05, 25
DataValue, 2.6970000000000003E-08, 163.9995, 3.36933E-11, -4.9769200000000005E-05, 25
DataValue, -2.6520000000000002E-08, 164.9985, 3.35787E-11, -4.90578E-05, 25
DataValue, -4.8360000000000004E-08, 166.0035, 3.35907E-11, -4.93287E-05, 25
DataValue, -7.0260000000000008E-08, 166.998, 3.34854E-11, -4.9206700000000004E-05, 25
DataValue, 9.6100000000000013E-09, 168.0015, 3.32896E-11, -4.96078E-05, 25
DataValue, -1.1450000000000002E-08, 169.00050000000002, 3.33098E-11, -4.93017E-05, 25
DataValue, -4.9000000000000007E-10, 169.998, 3.3084599999999997E-11, -4.85737E-05, 25
DataValue, 5.05E-08, 171, 3.30334E-11, -4.78773E-05, 25
DataValue, 1.1380000000000002E-08, 172.0035, 3.30062E-11, -4.8593E-05, 25
DataValue, -1.686E-08, 173.001, 3.27701E-11, -4.7580800000000004E-05, 25
DataValue, -1.3620000000000002E-08, 174.0015, 3.28211E-11, -4.8060200000000004E-05, 25
DataValue, 7.1400000000000006E-09, 175.005, 3.26689E-11, -4.8031900000000003E-05, 25
DataValue, -1.0080000000000002E-07, 175.998, 3.25764E-11, -4.76785E-05, 25
DataValue, -5.5430000000000007E-08, 177, 3.23955E-11, -4.74894E-05, 25
DataValue, 9.65E-09, 177.9975, 3.23276E-11, -4.72138E-05, 25
DataValue, 2.19E-09, 179.0025, 3.22919E-11, -4.71308E-05, 25
DataValue, 2.4700000000000004E-09, 180, 3.2181E-11, -4.70568E-05, 25
DataValue, -5.6700000000000005E-09, 181.00050000000002, 3.22229E-11, -4.7046200000000004E-05, 25
DataValue, -4.2200000000000007E-09, 182.0025, 3.20233E-11, -4.6672600000000004E-05, 25
DataValue, -2.7130000000000002E-08, 183.0045, 3.18853E-11, -4.73005E-05, 25
DataValue, -2.9660000000000002E-08, 184.002, 3.18898E-11, -4.6592100000000004E-05, 25
DataValue, -3.0760000000000005E-08, 184.9995, 3.18259E-11, -4.70345E-05, 25
DataValue, 8.6600000000000011E-09, 186, 3.17002E-11, -4.64736E-05, 25
DataValue, -3.6530000000000004E-08, 187.00050000000002, 3.16609E-11, -4.59139E-05, 25
DataValue, 3.73E-09, 188.001, 3.14144E-11, -4.5819300000000004E-05, 25
DataValue, -4.6370000000000004E-08, 189, 3.14292E-11, -4.60433E-05, 25
DataValue, 2.0860000000000003E-08, 190.00050000000002, 3.13406E-11, -4.56235E-05, 25
DataValue, -1.991E-08, 190.998, 3.12331E-11, -4.5682E-05, 25
DataValue, -6.2400000000000008E-09, 191.9955, 3.12493E-11, -4.61861E-05, 25
DataValue, -1.5520000000000003E-08, 193.00650000000002, 3.10334E-11, -4.56691E-05, 25
DataValue, -4.2770000000000005E-08, 193.9995, 3.10138E-11, -4.58711E-05, 25
DataValue, -1.687E-08, 195.0015, 3.08539E-11, -4.49766E-05, 25
DataValue, -1.2610000000000002E-08, 195.9975, 3.09769E-11, -4.52131E-05, 25
DataValue, -3.6000000000000005E-08, 196.9995, 3.08043E-11, -4.5603100000000004E-05, 25
DataValue, -6.05E-09, 198.0045, 3.0696699999999996E-11, -4.5077600000000004E-05, 25
DataValue, -4.8490000000000006E-08, 199.0035, 3.06435E-11, -4.50739E-05, 25
DataValue, -5.025E-08, 199.998, 3.05164E-11, -4.48631E-05, 25
DataValue, -9.6700000000000016E-09, 200.9985, 3.04658E-11, -4.4583500000000004E-05, 25
DataValue, -7.3500000000000005E-09, 201.999, 3.0388E-11, -4.46581E-05, 25
DataValue, 2.5700000000000002E-08, 203.001, 3.03434E-11, -4.4501E-05, 25
DataValue, -3.8500000000000006E-09, 204.00300000000001, 3.02347E-11, -4.4370000000000004E-05, 25
DataValue, 2.4180000000000002E-08, 205.0035, 3.01909E-11, -4.39478E-05, 25
DataValue, -1.9760000000000003E-08, 205.998, 3.00475E-11, -4.3886E-05, 25
DataValue, -1.511E-08, 207, 2.99737E-11, -4.39349E-05, 25
DataValue, 3.6670000000000003E-08, 208.005, 2.9956E-11, -4.4364300000000005E-05, 25
DataValue, -2.4960000000000003E-08, 208.9995, 2.98114E-11, -4.4002500000000004E-05, 25
DataValue, 4.854E-08, 210.006, 2.9794E-11, -4.3810800000000004E-05, 25
DataValue, -3.6800000000000005E-08, 210.999, 2.9707899999999996E-11, -4.35372E-05, 25
DataValue, -5.4710000000000005E-08, 211.995, 2.96628E-11, -4.3591700000000005E-05, 25
DataValue, 3.186E-08, 212.9985, 2.96019E-11, -4.32644E-05, 25
DataValue, 2.6500000000000002E-08, 214.002, 2.94748E-11, -4.37004E-05, 25
DataValue, 1.4270000000000001E-08, 214.9995, 2.94215E-11, -4.30654E-05, 25
DataValue, 2.9000000000000003E-10, 215.9985, 2.93806E-11, -4.34348E-05, 25
DataValue, -6.618E-08, 217.002, 2.93496E-11, -4.2757100000000004E-05, 25
DataValue, -4.6E-08, 217.998, 2.93202E-11, -4.24765E-05, 25
DataValue, -1.2700000000000002E-09, 219.0015, 2.91761E-11, -4.3069200000000004E-05, 25
DataValue, 1.4500000000000002E-09, 219.996, 2.91024E-11, -4.28842E-05, 25
DataValue, -2.942E-08, 221.001, 2.89286E-11, -4.25712E-05, 25
DataValue, 2.1750000000000003E-08, 221.9985, 2.89337E-11, -4.22764E-05, 25
DataValue, 1.2710000000000001E-08, 223.002, 2.8862099999999998E-11, -4.2667600000000005E-05, 25
DataValue, 5.9770000000000012E-08, 224.001, 2.8827999999999998E-11, -4.23298E-05, 25
DataValue, 3.113E-08, 225.00300000000001, 2.87585E-11, -4.2339500000000003E-05, 25
DataValue, -1.1590000000000002E-08, 226.00050000000002, 2.87589E-11, -4.22082E-05, 25
DataValue, -3.5060000000000004E-08, 227.004, 2.85676E-11, -4.23607E-05, 25
DataValue, 2.612E-08, 228.006, 2.85788E-11, -4.154E-05, 25
DataValue, -6.760000000000001E-08, 229.005, 2.84567E-11, -4.1718800000000004E-05, 25
DataValue, -7.4140000000000014E-08, 229.9995, 2.84338E-11, -4.19848E-05, 25
DataValue, -6.895E-08, 231.0015, 2.84498E-11, -4.1659800000000004E-05, 25
DataValue, -7.158000000000001E-08, 232.0035, 2.84043E-11, -4.11589E-05, 25
DataValue, -1.56E-08, 233.001, 2.83033E-11, -4.13399E-05, 25
DataValue, -7.61E-09, 234.0045, 2.82017E-11, -4.13523E-05, 25
DataValue, -3.427E-08, 235.00050000000002, 2.81592E-11, -4.0893400000000004E-05, 25
DataValue, -1.0070000000000002E-08, 235.99800000000002, 2.80858E-11, -4.1702900000000004E-05, 25
DataValue, 4.094E-08, 237.00300000000001, 2.79801E-11, -4.11019E-05, 25
DataValue, 1.9880000000000003E-08, 237.999, 2.79316E-11, -4.11083E-05, 25
DataValue, -9.58E-09, 238.99800000000002, 2.78822E-11, -4.10994E-05, 25
DataValue, -5.4810000000000006E-08, 240.0015, 2.79007E-11, -4.07486E-05, 25
DataValue, 2.2000000000000002E-10, 241.00050000000002, 2.78472E-11, -4.0942E-05, 25
DataValue, -3.4320000000000006E-08, 241.99800000000002, 2.7707E-11, -4.04494E-05, 25
DataValue, 2.7300000000000003E-09, 243.0015, 2.76268E-11, -4.0763E-05, 25
DataValue, -3.096E-08, 244.00050000000002, 2.75491E-11, -4.04473E-05, 25
DataValue, 2.5910000000000002E-08, 245.001, 2.75588E-11, -4.06017E-05, 25
DataValue, -5.8300000000000006E-08, 245.997, 2.7539E-11, -4.05062E-05, 25
DataValue, 2.1300000000000003E-09, 247.00050000000002, 2.7444399999999998E-11, -4.02978E-05, 25
