
SetupTitle, Cds
ApplicationTest, Cds, Public
TestParameter, Name, Memo, IntegTime, Frequency, OscLevel, Scale, Drain, VdBias, VdStart, VdStop, VdLinearStep, IdLimit, HoldTime, DelayTime, IdMinRange
TestParameter, Value, , SHORT, 100000, 0.025, LINEAR, CMU1:MF	MFCMU, SMU6:HV	HVSMU, 0, 1000, 1, 0.004, 0, 0.08, 10uA
DutParameter, Name, Polarity, Temp, YAxisCdsMin, YAxisCdsMax
DutParameter, Value, 1, 25, 1E-12, 1E-09
MetaData, TestRecord.EntryPoint, true
MetaData, TestRecord.RecordTime, 04/22/2021 11:17:39
MetaData, TestRecord.TestTarget, 
MetaData, TestRecord.IterationIndex, 46
MetaData, TestRecord.Preservation, true
MetaData, TestRecord.Flag, 
MetaData, TestRecord.Remarks, 
MetaData, TestRecord.LinkKey, 751adcb2-0edc-412a-8876-b82b78797188
Dimension1, 1001, 1001, 1001, 1001, 1001
Dimension2, 1, 1, 1, 1, 1
DataName, Ids, Vdrain, Cds, G, Ta
DataValue, 8.5000000000000006E-10, 0.006, 4.52115E-09, -7.52909E-05, 25
DataValue, 1.7600000000000002E-08, 1.002, 3.72196E-09, -6.27155E-05, 25
DataValue, 6.3470000000000012E-08, 1.9995, 3.32847E-09, -5.3759200000000005E-05, 25
DataValue, -1.8980000000000002E-08, 3.003, 3.04673E-09, -4.8799100000000005E-05, 25
DataValue, 1.1260000000000002E-07, 4.0065, 2.82954E-09, -4.55821E-05, 25
DataValue, -6.98E-09, 4.998, 2.65485E-09, -4.2726200000000004E-05, 25
DataValue, 1.8380000000000003E-08, 6.0015, 2.50849E-09, -4.0529000000000004E-05, 25
DataValue, 8.77E-09, 7.0005, 2.38194E-09, -3.8284E-05, 25
DataValue, 2.8720000000000002E-08, 8.001, 2.27077E-09, -3.69431E-05, 25
DataValue, 1.3030000000000002E-08, 8.9985, 2.16786E-09, -3.50286E-05, 25
DataValue, 8.0300000000000014E-09, 10.002, 2.07273E-09, -3.21066E-05, 25
DataValue, -1.2690000000000002E-08, 10.996500000000001, 1.93214E-09, 2.8328099999999996E-06, 25
DataValue, 1.2295000000000003E-07, 12.0015, 1.66609E-09, 1.7781799999999999E-06, 25
DataValue, -3.8620000000000004E-08, 12.9975, 1.53738E-09, -1.76173E-05, 25
DataValue, 4.355E-08, 13.996500000000001, 1.4752E-09, -2.2543600000000002E-05, 25
DataValue, 5.4170000000000008E-08, 14.9985, 1.42777E-09, -2.23091E-05, 25
DataValue, 1.2146E-07, 16.002, 1.38632E-09, -2.171E-05, 25
DataValue, 2.3850000000000002E-08, 17.001, 1.34855E-09, -2.1211E-05, 25
DataValue, 1.0053000000000001E-07, 18.003, 1.3139E-09, -2.0570400000000002E-05, 25
DataValue, 5.57E-08, 19.002, 1.28188E-09, -2.0203E-05, 25
DataValue, 3.2790000000000004E-08, 19.9995, 1.25229E-09, -1.95014E-05, 25
DataValue, 1.3197E-07, 21, 1.22478E-09, -1.92367E-05, 25
DataValue, 4.68E-09, 21.999, 1.19902E-09, -1.8819700000000002E-05, 25
DataValue, 2.9660000000000002E-08, 22.9995, 1.17496E-09, -1.85241E-05, 25
DataValue, 6.56E-08, 24.0015, 1.15234E-09, -1.80797E-05, 25
DataValue, 5.4530000000000006E-08, 24.999, 1.13093E-09, -1.77515E-05, 25
DataValue, 5.6620000000000007E-08, 25.998, 1.11083E-09, -1.74063E-05, 25
DataValue, -3.8E-08, 26.9985, 1.09165E-09, -1.71367E-05, 25
DataValue, 4.8660000000000007E-08, 28.0005, 1.07328E-09, -1.688E-05, 25
DataValue, 1.2109E-07, 28.9995, 1.05652E-09, -1.67158E-05, 25
DataValue, 3.487E-08, 29.9985, 1.03983E-09, -1.65027E-05, 25
DataValue, 6.5770000000000013E-08, 31.000500000000002, 1.02437E-09, -1.61104E-05, 25
DataValue, 7.663E-08, 31.9995, 1.00933E-09, -1.59654E-05, 25
DataValue, 8.194E-08, 32.9985, 9.94999E-10, -1.57482E-05, 25
DataValue, 1.2608E-07, 33.999, 9.81242E-10, -1.5387900000000002E-05, 25
DataValue, -3.73E-09, 34.998, 9.6848200000000017E-10, -1.53427E-05, 25
DataValue, 8.473E-08, 36.003, 9.5568900000000013E-10, -1.5095300000000001E-05, 25
DataValue, 1.0709000000000002E-07, 37.0005, 9.43848E-10, -1.49204E-05, 25
DataValue, 4.3570000000000006E-08, 38.0025, 9.3218700000000014E-10, -1.4614800000000001E-05, 25
DataValue, 6.641000000000001E-08, 39, 9.20819E-10, -1.4476600000000001E-05, 25
DataValue, 3.3280000000000004E-08, 40.005, 9.09997E-10, -1.4391600000000001E-05, 25
DataValue, 1.0769000000000001E-07, 41.001, 8.99581E-10, -1.42365E-05, 25
DataValue, 6.6470000000000012E-08, 41.9985, 8.895500000000001E-10, -1.4092600000000001E-05, 25
DataValue, 4.575E-08, 43.002, 8.8005100000000009E-10, -1.39731E-05, 25
DataValue, 1.1966E-07, 43.9965, 8.7082200000000012E-10, -1.37576E-05, 25
DataValue, 1.2862000000000002E-07, 44.9985, 8.616350000000001E-10, -1.35959E-05, 25
DataValue, 9.0820000000000015E-08, 46.0005, 8.5264000000000007E-10, -1.34743E-05, 25
DataValue, 1.0520000000000002E-07, 46.9995, 8.4412300000000011E-10, -1.3475200000000001E-05, 25
DataValue, 1.1332000000000001E-07, 48.0015, 8.3612700000000006E-10, -1.3215600000000001E-05, 25
DataValue, 5.6100000000000006E-08, 48.996, 8.27735E-10, -1.3066E-05, 25
DataValue, 3.3730000000000005E-08, 49.9995, 8.20287E-10, -1.29727E-05, 25
DataValue, 4.2390000000000004E-08, 50.994, 8.1240600000000006E-10, -1.29238E-05, 25
DataValue, 4.6110000000000007E-08, 52.0005, 8.0530600000000005E-10, -1.2785200000000001E-05, 25
DataValue, 9.9680000000000016E-08, 52.996500000000005, 7.9825600000000006E-10, -1.269E-05, 25
DataValue, 6.303E-08, 54, 7.91143E-10, -1.24859E-05, 25
DataValue, 1.6054E-07, 54.999, 7.8442200000000009E-10, -1.2476E-05, 25
DataValue, 4.2980000000000005E-08, 55.998000000000005, 7.77776E-10, -1.23227E-05, 25
DataValue, 1.0827000000000002E-07, 56.9985, 7.7127100000000008E-10, -1.21318E-05, 25
DataValue, 1.3223000000000001E-07, 57.993, 7.6508600000000006E-10, -1.21632E-05, 25
DataValue, 5.3300000000000007E-08, 59.001000000000005, 7.58889E-10, -1.2053E-05, 25
DataValue, 1.9174000000000002E-07, 59.9985, 7.5281700000000007E-10, -1.19098E-05, 25
DataValue, 7.6050000000000009E-08, 61.002, 7.47148E-10, -1.18302E-05, 25
DataValue, 1.0983000000000001E-07, 61.998000000000005, 7.4125700000000006E-10, -1.17789E-05, 25
DataValue, 7.940000000000001E-08, 62.9985, 7.3572700000000008E-10, -1.17093E-05, 25
DataValue, 1.5004E-07, 64.0065, 7.3046300000000011E-10, -1.16607E-05, 25
DataValue, 1.2111E-07, 65.0025, 7.25115E-10, -1.14801E-05, 25
DataValue, 9.834E-08, 66.003, 7.19798E-10, -1.14921E-05, 25
DataValue, 9.5040000000000009E-08, 67.0035, 7.148780000000001E-10, -1.13411E-05, 25
DataValue, 8.8250000000000013E-08, 67.995, 7.0991100000000009E-10, -1.13132E-05, 25
DataValue, 1.2165E-07, 69, 7.0500400000000008E-10, -1.13373E-05, 25
DataValue, 1.2950000000000002E-07, 70.005, 7.0033700000000006E-10, -1.11202E-05, 25
DataValue, 6.2630000000000012E-08, 70.998, 6.95609E-10, -1.10623E-05, 25
DataValue, 1.2378000000000001E-07, 72.001500000000007, 6.90834E-10, -1.09114E-05, 25
DataValue, 1.0465000000000001E-07, 72.9945, 6.865170000000001E-10, -1.0824E-05, 25
DataValue, 1.3137000000000002E-07, 74.001, 6.8237800000000006E-10, -1.07652E-05, 25
DataValue, 6.204E-08, 74.994, 6.77843E-10, -1.07231E-05, 25
DataValue, 1.6961000000000002E-07, 76.0035, 6.7349400000000005E-10, -1.0670000000000001E-05, 25
DataValue, 7.4420000000000014E-08, 77.004, 6.69403E-10, -1.07316E-05, 25
DataValue, 1.1986000000000002E-07, 77.9985, 6.65354E-10, -1.06466E-05, 25
DataValue, 9.4610000000000011E-08, 78.9975, 6.61426E-10, -1.05459E-05, 25
DataValue, 7.6680000000000009E-08, 79.9965, 6.5733400000000008E-10, -1.04648E-05, 25
DataValue, 1.2051E-07, 80.997, 6.5346500000000008E-10, -1.0465200000000001E-05, 25
DataValue, 1.2442000000000003E-07, 82.002, 6.4982E-10, -1.03129E-05, 25
DataValue, 1.5547000000000003E-07, 82.995, 6.4610100000000008E-10, -1.02506E-05, 25
DataValue, 1.3439E-07, 84.003, 6.42467E-10, -1.0341E-05, 25
DataValue, 9.324E-08, 84.999, 6.39022E-10, -9.99599E-06, 25
DataValue, 1.0021000000000001E-07, 85.9995, 6.351950000000001E-10, -1.0151600000000001E-05, 25
DataValue, 9.6170000000000007E-08, 86.997, 6.31765E-10, -1.0116000000000001E-05, 25
DataValue, 1.6639000000000002E-07, 87.999, 6.28424E-10, -1.01357E-05, 25
DataValue, 1.4637E-07, 88.9995, 6.25035E-10, -9.9996599999999991E-06, 25
DataValue, 4.704E-08, 90, 6.21833E-10, -9.876E-06, 25
DataValue, 1.8942E-07, 91.005, 6.1865700000000009E-10, -9.87382E-06, 25
DataValue, 1.3276E-07, 91.9995, 6.15322E-10, -9.77211E-06, 25
DataValue, 1.4104000000000002E-07, 93.003, 6.1219700000000009E-10, -9.6713E-06, 25
DataValue, 1.6301000000000003E-07, 94.0005, 6.09113E-10, -9.73774E-06, 25
DataValue, 1.2948000000000002E-07, 94.998, 6.0599900000000007E-10, -9.58589E-06, 25
DataValue, 1.6082E-07, 96.001500000000007, 6.02991E-10, -9.59857E-06, 25
DataValue, 1.4782E-07, 96.999, 6.0005E-10, -9.57418E-06, 25
DataValue, 9.2190000000000007E-08, 97.995, 5.97294E-10, -9.53817E-06, 25
DataValue, 1.7919E-07, 98.997, 5.9429400000000006E-10, -9.505039999999999E-06, 25
DataValue, 1.5978000000000002E-07, 100.0035, 5.91398E-10, -9.4495799999999987E-06, 25
DataValue, 1.0800000000000001E-07, 101.004, 5.8867700000000005E-10, -9.3900799999999987E-06, 25
DataValue, 2.6522000000000004E-07, 102.003, 5.85851E-10, -9.42857E-06, 25
DataValue, 1.1614E-07, 103.002, 5.83443E-10, -9.2509E-06, 25
DataValue, 1.8266000000000002E-07, 103.9995, 5.8054E-10, -9.27723E-06, 25
DataValue, 1.7787000000000002E-07, 105.00150000000001, 5.77933E-10, -9.22807E-06, 25
DataValue, 1.9149000000000003E-07, 106.002, 5.7535100000000009E-10, -9.12355E-06, 25
DataValue, 1.5783E-07, 106.998, 5.7287800000000008E-10, -9.1643099999999987E-06, 25
DataValue, 1.478E-07, 108, 5.7020300000000008E-10, -8.86615E-06, 25
DataValue, 1.5543E-07, 108.9975, 5.6791100000000007E-10, -9.029719999999999E-06, 25
DataValue, 1.3483000000000002E-07, 109.9995, 5.65337E-10, -9.03908E-06, 25
DataValue, 1.4614E-07, 111.003, 5.63098E-10, -8.93781E-06, 25
DataValue, 1.6493E-07, 111.9975, 5.60514E-10, -8.9415199999999987E-06, 25
DataValue, 2.2339000000000002E-07, 113.0055, 5.58167E-10, -8.7648E-06, 25
DataValue, 1.1092000000000002E-07, 113.9985, 5.55913E-10, -8.86555E-06, 25
DataValue, 2.0769000000000003E-07, 115.005, 5.53624E-10, -8.8851499999999991E-06, 25
DataValue, 1.6888000000000001E-07, 115.998, 5.51164E-10, -8.650079999999999E-06, 25
DataValue, 2.1140000000000003E-07, 117.00150000000001, 5.48814E-10, -8.79124E-06, 25
DataValue, 1.7019000000000002E-07, 117.99600000000001, 5.46707E-10, -8.66751E-06, 25
DataValue, 1.1681000000000001E-07, 118.998, 5.44618E-10, -8.6578499999999988E-06, 25
DataValue, 1.7396000000000003E-07, 119.9985, 5.4220100000000006E-10, -8.6228099999999988E-06, 25
DataValue, 1.0291000000000001E-07, 120.99600000000001, 5.40258E-10, -8.5384399999999988E-06, 25
DataValue, 1.4759000000000001E-07, 121.9995, 5.38095E-10, -8.5920299999999988E-06, 25
DataValue, 2.6657000000000004E-07, 122.9985, 5.3596900000000005E-10, -8.558929999999999E-06, 25
DataValue, 1.1444000000000001E-07, 123.99900000000001, 5.3420100000000009E-10, -8.5024299999999988E-06, 25
DataValue, 2.4027E-07, 125.0025, 5.3200400000000006E-10, -8.55061E-06, 25
DataValue, 2.0938E-07, 125.9985, 5.29972E-10, -8.49399E-06, 25
DataValue, 1.6314000000000002E-07, 127.00200000000001, 5.28037E-10, -8.4385999999999991E-06, 25
DataValue, 1.3594E-07, 127.995, 5.25964E-10, -8.34882E-06, 25
DataValue, 2.5171E-07, 129.0045, 5.23993E-10, -8.3926799999999987E-06, 25
DataValue, 1.6313E-07, 129.9975, 5.2226500000000006E-10, -8.23733E-06, 25
DataValue, 1.6799E-07, 131.001, 5.2036000000000005E-10, -8.33394E-06, 25
DataValue, 2.39E-07, 131.997, 5.1843300000000006E-10, -8.42207E-06, 25
DataValue, 2.2669000000000003E-07, 133.0035, 5.16764E-10, -8.234259999999999E-06, 25
DataValue, 1.8368000000000001E-07, 133.9995, 5.1468400000000006E-10, -8.21892E-06, 25
DataValue, 1.9650000000000002E-07, 135, 5.12884E-10, -8.16852E-06, 25
DataValue, 1.7155000000000002E-07, 135.999, 5.10955E-10, -8.18385E-06, 25
DataValue, 1.7874000000000002E-07, 136.9995, 5.09289E-10, -8.0303E-06, 25
DataValue, 1.7884E-07, 137.9985, 5.07511E-10, -7.9554099999999991E-06, 25
DataValue, 1.9182E-07, 138.993, 5.05841E-10, -8.0915299999999991E-06, 25
DataValue, 2.0545000000000003E-07, 139.998, 5.0418900000000009E-10, -7.95373E-06, 25
DataValue, 2.4305000000000005E-07, 141, 5.02171E-10, -8.009289999999999E-06, 25
DataValue, 2.3704000000000004E-07, 142.00050000000002, 5.0087200000000007E-10, -7.95638E-06, 25
DataValue, 2.4161E-07, 142.998, 4.9906300000000006E-10, -8.00111E-06, 25
DataValue, 2.8673000000000003E-07, 144.0015, 4.9747400000000008E-10, -7.91391E-06, 25
DataValue, 1.8523000000000003E-07, 145.005, 4.95668E-10, -7.87308E-06, 25
DataValue, 2.7028E-07, 145.9995, 4.94107E-10, -7.98729E-06, 25
DataValue, 1.5632E-07, 146.9985, 4.92429E-10, -7.8064E-06, 25
DataValue, 2.0162000000000003E-07, 148.0035, 4.9098700000000005E-10, -7.8490699999999987E-06, 25
DataValue, 2.0804000000000003E-07, 148.9995, 4.89429E-10, -7.85693E-06, 25
DataValue, 2.6331000000000005E-07, 150, 4.878E-10, -7.75149E-06, 25
DataValue, 2.3539000000000002E-07, 150.9975, 4.8633700000000008E-10, -7.78286E-06, 25
DataValue, 2.2223000000000003E-07, 151.9995, 4.8476800000000006E-10, -7.64339E-06, 25
DataValue, 2.1249000000000002E-07, 153.0015, 4.8327E-10, -7.66887E-06, 25
DataValue, 3.0329E-07, 153.996, 4.8170600000000005E-10, -7.65543E-06, 25
DataValue, 2.8356000000000003E-07, 155.004, 4.80289E-10, -7.79211E-06, 25
DataValue, 1.9111000000000002E-07, 156, 4.7874400000000008E-10, -7.6601099999999987E-06, 25
DataValue, 2.8068000000000005E-07, 156.9975, 4.7714100000000008E-10, -7.6676199999999989E-06, 25
DataValue, 2.4661E-07, 158.0025, 4.76208E-10, -7.61776E-06, 25
DataValue, 2.6508000000000004E-07, 159.0015, 4.7449000000000009E-10, -7.4538E-06, 25
DataValue, 1.9302000000000002E-07, 160.002, 4.72919E-10, -7.5880999999999994E-06, 25
DataValue, 1.8649000000000002E-07, 160.9935, 4.7170300000000006E-10, -7.5500099999999996E-06, 25
DataValue, 2.5662000000000003E-07, 162.00300000000001, 4.70166E-10, -7.42164E-06, 25
DataValue, 3.4125E-07, 163.00050000000002, 4.68887E-10, -7.3091999999999994E-06, 25
DataValue, 2.8077000000000005E-07, 164.0025, 4.6757100000000008E-10, -7.4884999999999995E-06, 25
DataValue, 2.0977000000000003E-07, 164.9955, 4.6606E-10, -7.42042E-06, 25
DataValue, 2.4747000000000003E-07, 166.00050000000002, 4.6492300000000006E-10, -7.41544E-06, 25
DataValue, 2.3702000000000001E-07, 167.001, 4.6344000000000006E-10, -7.3847399999999992E-06, 25
DataValue, 3.1611000000000004E-07, 168, 4.61922E-10, -7.1931399999999992E-06, 25
DataValue, 2.4827000000000004E-07, 169.00050000000002, 4.61236E-10, -7.36918E-06, 25
DataValue, 1.8433E-07, 170.001, 4.5937800000000006E-10, -7.2471299999999992E-06, 25
DataValue, 2.8632000000000004E-07, 171.0045, 4.58174E-10, -7.4063699999999995E-06, 25
DataValue, 2.0869000000000002E-07, 172.002, 4.56969E-10, -7.36955E-06, 25
DataValue, 2.3478000000000002E-07, 172.998, 4.5572500000000005E-10, -7.3278099999999994E-06, 25
DataValue, 3.0305000000000006E-07, 173.997, 4.5457400000000005E-10, -7.2393499999999996E-06, 25
DataValue, 2.3892E-07, 174.99450000000002, 4.5328300000000004E-10, -7.28728E-06, 25
DataValue, 3.0564000000000003E-07, 176.001, 4.5187800000000003E-10, -7.2526E-06, 25
DataValue, 2.5658000000000004E-07, 176.9985, 4.5073500000000005E-10, -7.1428E-06, 25
DataValue, 2.6994000000000005E-07, 178.002, 4.4952900000000004E-10, -7.1779099999999993E-06, 25
DataValue, 2.9237E-07, 178.998, 4.4854100000000004E-10, -7.2529699999999994E-06, 25
DataValue, 2.3391000000000004E-07, 180.0015, 4.47237E-10, -7.1031399999999992E-06, 25
DataValue, 3.497E-07, 181.00650000000002, 4.46092E-10, -7.16357E-06, 25
DataValue, 4.1941E-07, 182.004, 4.4498100000000006E-10, -7.0675099999999995E-06, 25
DataValue, 2.4979E-07, 182.997, 4.43662E-10, -7.1309799999999994E-06, 25
DataValue, 3.3413000000000004E-07, 184.005, 4.4251900000000003E-10, -6.97136E-06, 25
DataValue, 2.9692000000000004E-07, 184.9965, 4.4157600000000006E-10, -7.00295E-06, 25
DataValue, 2.7291E-07, 185.997, 4.4040600000000005E-10, -7.05043E-06, 25
DataValue, 3.2599E-07, 187.00050000000002, 4.39203E-10, -7.0768199999999994E-06, 25
DataValue, 2.2790000000000002E-07, 187.998, 4.3816400000000005E-10, -7.0161299999999992E-06, 25
DataValue, 3.327E-07, 189.0015, 4.37081E-10, -7.05314E-06, 25
DataValue, 2.8606E-07, 190.00050000000002, 4.3594500000000004E-10, -6.94974E-06, 25
DataValue, 2.3649000000000002E-07, 190.998, 4.34851E-10, -6.9354899999999992E-06, 25
DataValue, 3.4844E-07, 192.0015, 4.33622E-10, -6.9888999999999993E-06, 25
DataValue, 2.6607000000000005E-07, 192.999, 4.3234100000000004E-10, -6.9184699999999995E-06, 25
DataValue, 3.0427E-07, 194.0055, 4.3162900000000003E-10, -6.91954E-06, 25
DataValue, 3.2175000000000003E-07, 194.9985, 4.3052900000000005E-10, -6.8256199999999992E-06, 25
DataValue, 3.3450000000000004E-07, 196.002, 4.29397E-10, -6.88772E-06, 25
DataValue, 3.5700000000000003E-07, 197.001, 4.2832600000000003E-10, -6.87164E-06, 25
DataValue, 3.2428000000000004E-07, 198.0045, 4.2732700000000004E-10, -6.8311899999999992E-06, 25
DataValue, 2.9473000000000005E-07, 199.002, 4.26433E-10, -6.8745999999999994E-06, 25
DataValue, 3.4011000000000005E-07, 199.998, 4.2547900000000006E-10, -6.7330699999999996E-06, 25
DataValue, 3.1687000000000006E-07, 201, 4.2448200000000003E-10, -6.76722E-06, 25
DataValue, 3.0370000000000005E-07, 201.999, 4.2325E-10, -6.7430799999999993E-06, 25
DataValue, 3.7279000000000004E-07, 203.001, 4.2223500000000004E-10, -6.8159599999999994E-06, 25
DataValue, 3.2101000000000004E-07, 204, 4.2146200000000003E-10, -6.6847099999999996E-06, 25
DataValue, 3.2152000000000004E-07, 204.999, 4.2037200000000003E-10, -6.68947E-06, 25
DataValue, 3.1134000000000003E-07, 205.9995, 4.1946300000000004E-10, -6.7229E-06, 25
DataValue, 3.567E-07, 207, 4.18519E-10, -6.65884E-06, 25
DataValue, 3.6775000000000005E-07, 208.002, 4.1752900000000005E-10, -6.7028699999999994E-06, 25
DataValue, 2.2779000000000003E-07, 208.9995, 4.1602300000000005E-10, -6.69969E-06, 25
DataValue, 3.8395000000000005E-07, 209.997, 4.15626E-10, -6.6053499999999994E-06, 25
DataValue, 3.5876E-07, 211.002, 4.14572E-10, -6.5576899999999992E-06, 25
DataValue, 2.8883E-07, 212.001, 4.13668E-10, -6.63978E-06, 25
DataValue, 3.6557000000000006E-07, 213.0015, 4.1289400000000004E-10, -6.4833699999999992E-06, 25
DataValue, 3.9183000000000004E-07, 213.999, 4.1197200000000004E-10, -6.5265399999999995E-06, 25
DataValue, 3.4338000000000005E-07, 214.9995, 4.10999E-10, -6.6729499999999994E-06, 25
DataValue, 3.2525000000000003E-07, 216.0015, 4.1016500000000005E-10, -6.5093799999999993E-06, 25
DataValue, 4.2687000000000006E-07, 217.005, 4.09167E-10, -6.46287E-06, 25
DataValue, 4.3050000000000005E-07, 218.001, 4.08087E-10, -6.3872199999999993E-06, 25
DataValue, 3.7861000000000003E-07, 218.9985, 4.0741600000000004E-10, -6.53732E-06, 25
DataValue, 3.7157000000000004E-07, 219.999, 4.06345E-10, -6.49464E-06, 25
DataValue, 4.6856000000000006E-07, 221.0025, 4.0541000000000005E-10, -6.5104099999999994E-06, 25
DataValue, 3.5879000000000005E-07, 222, 4.0470500000000005E-10, -6.41911E-06, 25
DataValue, 3.1914000000000004E-07, 223.00050000000002, 4.0370400000000005E-10, -6.38528E-06, 25
DataValue, 3.5571000000000005E-07, 223.995, 4.0304500000000003E-10, -6.42509E-06, 25
DataValue, 3.6883000000000005E-07, 225.00300000000001, 4.0192000000000005E-10, -6.44577E-06, 25
DataValue, 4.1070000000000004E-07, 225.999, 4.01315E-10, -6.5044E-06, 25
DataValue, 3.7119000000000003E-07, 227.001, 4.0029200000000004E-10, -6.29277E-06, 25
DataValue, 3.9740000000000005E-07, 228, 3.9955600000000003E-10, -6.4142599999999995E-06, 25
DataValue, 4.3914000000000005E-07, 229.00050000000002, 3.9874900000000004E-10, -6.3011199999999994E-06, 25
DataValue, 3.7848000000000004E-07, 229.9995, 3.9801900000000003E-10, -6.4055E-06, 25
DataValue, 4.0327000000000004E-07, 231, 3.9711600000000004E-10, -6.33108E-06, 25
DataValue, 4.5694000000000007E-07, 231.999, 3.96444E-10, -6.3224199999999995E-06, 25
DataValue, 3.8978000000000004E-07, 233.001, 3.9549700000000006E-10, -6.2922199999999994E-06, 25
DataValue, 4.6978000000000007E-07, 234.00300000000001, 3.94516E-10, -6.3112299999999994E-06, 25
DataValue, 3.6814E-07, 234.999, 3.93896E-10, -6.2569499999999994E-06, 25
