
SetupTitle, Cds
ApplicationTest, Cds, Public
TestParameter, Name, Memo, IntegTime, Frequency, OscLevel, Scale, Drain, VdBias, VdStart, VdStop, VdLinearStep, IdLimit, HoldTime, DelayTime, IdMinRange
TestParameter, Value, , SHORT, 1000000, 0.025, LINEAR, CMU1:MF	MFCMU, SMU6:HV	HVSMU, 0, 1000, 1, 0.004, 0, 0.08, 10uA
DutParameter, Name, Polarity, Temp, YAxisCdsMin, YAxisCdsMax
DutParameter, Value, 1, 25, 1E-12, 1E-09
MetaData, TestRecord.EntryPoint, true
MetaData, TestRecord.RecordTime, 12/27/2020 09:55:50
MetaData, TestRecord.TestTarget, 
MetaData, TestRecord.IterationIndex, 11
MetaData, TestRecord.Preservation, true
MetaData, TestRecord.Flag, 
MetaData, TestRecord.Remarks, 
MetaData, TestRecord.LinkKey, 0f256344-70a1-4178-b5cf-35b297520e06
Dimension1, 1001, 1001, 1001, 1001, 1001
Dimension2, 1, 1, 1, 1, 1
DataName, Ids, Vdrain, Cds, G, Ta
DataValue, 1.2560000000000001E-08, -0.003, 1.15314E-09, -0.00183063, 25
DataValue, 2.8410000000000004E-08, 1.0005, 9.90347E-10, -0.00151357, 25
DataValue, -1.1680000000000001E-08, 2.0025, 8.9079300000000011E-10, -0.00134927, 25
DataValue, -1.0123000000000001E-07, 3.0045, 8.17419E-10, -0.00123268, 25
DataValue, -1.6760000000000003E-08, 4.002, 7.603300000000001E-10, -0.0011430400000000001, 25
DataValue, -3.8100000000000007E-09, 5.001, 7.14566E-10, -0.00107187, 25
DataValue, -8.77E-09, 5.9985, 6.7601700000000009E-10, -0.00101255, 25
DataValue, 5.8400000000000005E-09, 6.9945, 6.4301200000000005E-10, -0.000960743, 25
DataValue, -2.324E-08, 7.9995, 6.1419400000000006E-10, -0.000916488, 25
DataValue, 5.57E-09, 8.9985, 5.88323E-10, -0.0008753630000000001, 25
DataValue, 8.36E-09, 10.0035, 5.63641E-10, -0.000835221, 25
DataValue, 2.223E-08, 10.998000000000001, 5.3401700000000006E-10, -0.000784994, 25
DataValue, 1.1650000000000002E-08, 12.006, 4.7647800000000008E-10, -0.000682847, 25
DataValue, 5.3500000000000008E-09, 12.9975, 4.57336E-10, -0.00065400000000000007, 25
DataValue, -1.3190000000000001E-08, 13.998000000000001, 4.4000800000000005E-10, -0.000630061, 25
DataValue, 3.664E-08, 15.003, 4.2385600000000004E-10, -0.00060663300000000009, 25
DataValue, 2.066E-08, 16.002, 4.0941200000000005E-10, -0.00058669000000000006, 25
DataValue, 2.558E-08, 16.9995, 3.9598800000000003E-10, -0.000566751, 25
DataValue, 4.4820000000000007E-08, 17.997, 3.8400200000000004E-10, -0.000550006, 25
DataValue, 5.4600000000000006E-09, 19.005, 3.7282500000000005E-10, -0.000533922, 25
DataValue, 7.5010000000000008E-08, 20.001, 3.6244600000000004E-10, -0.000520134, 25
DataValue, 6.093E-08, 20.997, 3.52813E-10, -0.000505621, 25
DataValue, 3.3620000000000006E-08, 22.0005, 3.4327000000000005E-10, -0.00049287700000000007, 25
DataValue, -3.9320000000000004E-08, 22.9995, 3.3434400000000004E-10, -0.00048126, 25
DataValue, 1.2760000000000001E-08, 24, 3.25965E-10, -0.00046931800000000004, 25
DataValue, 4.4760000000000005E-08, 24.997500000000002, 3.18076E-10, -0.00045782600000000004, 25
DataValue, 1.548E-08, 25.998, 3.1059E-10, -0.00044788, 25
DataValue, 1.935E-08, 26.9985, 3.03449E-10, -0.000437962, 25
DataValue, -4.4370000000000006E-08, 28.0005, 2.9662E-10, -0.000428356, 25
DataValue, -5.3190000000000008E-08, 29.001, 2.9015600000000003E-10, -0.00041966400000000004, 25
DataValue, -3.843E-08, 30.003, 2.83626E-10, -0.000410694, 25
DataValue, -1.4930000000000002E-08, 30.996000000000002, 2.76985E-10, -0.000400355, 25
DataValue, -2.7860000000000003E-08, 32.001, 2.7100500000000004E-10, -0.00039225100000000004, 25
DataValue, 2.5380000000000003E-08, 33, 2.6525000000000004E-10, -0.000384414, 25
DataValue, 2.5050000000000003E-08, 33.9975, 2.60047E-10, -0.00037712000000000005, 25
DataValue, -1.1950000000000001E-08, 34.995, 2.55242E-10, -0.000369186, 25
DataValue, 1.909E-08, 35.9985, 2.5066500000000003E-10, -0.00036317900000000004, 25
DataValue, -3.619E-08, 37.0005, 2.4640400000000003E-10, -0.00035688, 25
DataValue, 4.2310000000000006E-08, 37.9935, 2.42339E-10, -0.00035122100000000003, 25
DataValue, -2.005E-08, 39, 2.3835800000000003E-10, -0.000345215, 25
DataValue, 7.034E-08, 39.9975, 2.3468300000000004E-10, -0.000339914, 25
DataValue, -1.689E-08, 41.001, 2.3119700000000001E-10, -0.00033497, 25
DataValue, 4.9780000000000006E-08, 41.9985, 2.2787500000000003E-10, -0.000330276, 25
DataValue, -1.7140000000000003E-08, 42.996, 2.24715E-10, -0.00032631, 25
DataValue, -7.2700000000000007E-09, 43.9965, 2.21741E-10, -0.00032183200000000003, 25
DataValue, 6.850000000000001E-09, 45, 2.18893E-10, -0.000317461, 25
DataValue, -1.5140000000000002E-08, 45.999, 2.16127E-10, -0.000313899, 25
DataValue, 2.0020000000000003E-08, 46.9995, 2.1344900000000001E-10, -0.00030981700000000005, 25
DataValue, -5.5650000000000005E-08, 47.997, 2.1077E-10, -0.000306042, 25
DataValue, -5.3740000000000003E-08, 48.9975, 2.0837300000000003E-10, -0.000303097, 25
DataValue, 8.8000000000000006E-10, 50.0025, 2.0590400000000002E-10, -0.00030001800000000004, 25
DataValue, -1.0980000000000001E-08, 51.006, 2.0364800000000002E-10, -0.00029631300000000003, 25
DataValue, 1.3470000000000001E-08, 52.0035, 2.0144100000000001E-10, -0.00029292500000000003, 25
DataValue, -1.776E-08, 52.9995, 1.9926100000000003E-10, -0.000289832, 25
DataValue, 2.9380000000000002E-08, 54, 1.9717200000000002E-10, -0.00028674, 25
DataValue, 4.2600000000000006E-09, 54.999, 1.9514500000000003E-10, -0.000283979, 25
DataValue, 2.4240000000000004E-08, 55.998000000000005, 1.9310700000000002E-10, -0.00028164, 25
DataValue, 2.8850000000000004E-08, 57, 1.9130000000000003E-10, -0.000278979, 25
DataValue, 4.5080000000000004E-08, 58.0035, 1.8947000000000002E-10, -0.00027628500000000003, 25
DataValue, 4.92E-09, 58.998000000000005, 1.8772800000000002E-10, -0.000273326, 25
DataValue, 1.067E-08, 59.9985, 1.86039E-10, -0.000271198, 25
DataValue, 9.1300000000000014E-09, 61.002, 1.8426000000000002E-10, -0.000268052, 25
DataValue, -1.4320000000000002E-08, 61.995000000000005, 1.8269400000000003E-10, -0.000266164, 25
DataValue, 5.992000000000001E-08, 62.9985, 1.81035E-10, -0.000264002, 25
DataValue, 3.201E-08, 64.0005, 1.79383E-10, -0.00026154300000000004, 25
DataValue, 5.308E-08, 64.998, 1.7792700000000003E-10, -0.000259568, 25
DataValue, -5.3400000000000008E-08, 65.997, 1.76361E-10, -0.000257374, 25
DataValue, 2.0040000000000003E-08, 67.0035, 1.74875E-10, -0.000255095, 25
DataValue, -7.176E-08, 67.9965, 1.73525E-10, -0.000252895, 25
DataValue, 4.6540000000000005E-08, 68.9985, 1.72131E-10, -0.000251157, 25
DataValue, 1.4600000000000001E-09, 69.996, 1.70804E-10, -0.000249081, 25
DataValue, 6.7860000000000013E-08, 71.004, 1.6958900000000002E-10, -0.00024733700000000003, 25
DataValue, 1.4540000000000002E-08, 72, 1.68354E-10, -0.000245673, 25
DataValue, -8.82E-09, 73.0035, 1.6707800000000002E-10, -0.00024382100000000002, 25
DataValue, -2.249E-08, 73.9995, 1.6589800000000003E-10, -0.00024180000000000002, 25
DataValue, -6.889E-08, 75, 1.64763E-10, -0.000239955, 25
DataValue, -3.5470000000000006E-08, 76.0005, 1.63485E-10, -0.000238688, 25
DataValue, -1.5710000000000003E-08, 76.9995, 1.6239000000000002E-10, -0.000237098, 25
DataValue, -8.1400000000000014E-08, 78.003, 1.61324E-10, -0.000235225, 25
DataValue, 4.886E-08, 78.999, 1.60173E-10, -0.00023407700000000002, 25
DataValue, -1.2090000000000001E-08, 79.9995, 1.59067E-10, -0.000232419, 25
DataValue, -4.715E-08, 80.9985, 1.5797500000000002E-10, -0.000230582, 25
DataValue, -6.540000000000001E-09, 82.002, 1.5693000000000002E-10, -0.00022905100000000003, 25
DataValue, 3.0690000000000005E-08, 83.0025, 1.55888E-10, -0.000227433, 25
DataValue, -9.0980000000000011E-08, 83.9985, 1.54921E-10, -0.00022633600000000002, 25
DataValue, 5.7900000000000009E-09, 84.999, 1.5394900000000001E-10, -0.000225078, 25
DataValue, -9.3900000000000017E-09, 85.995, 1.52927E-10, -0.00022293900000000002, 25
DataValue, -4.7540000000000007E-08, 87.003, 1.5192800000000002E-10, -0.000221658, 25
DataValue, 1.1680000000000001E-08, 88.0005, 1.5119200000000001E-10, -0.00022061400000000003, 25
DataValue, -3.4770000000000006E-08, 89.001, 1.50269E-10, -0.00021977000000000002, 25
DataValue, -1.122E-08, 90, 1.49304E-10, -0.00021820000000000002, 25
DataValue, -2.2290000000000003E-08, 91.0005, 1.4842900000000002E-10, -0.00021715900000000003, 25
DataValue, -3.543E-08, 91.998, 1.47611E-10, -0.00021602, 25
DataValue, -7.7350000000000014E-08, 92.9985, 1.4686200000000002E-10, -0.00021465600000000003, 25
DataValue, -3.0870000000000004E-08, 94.005, 1.4601000000000002E-10, -0.00021347800000000002, 25
DataValue, -3.0060000000000006E-08, 94.9995, 1.45249E-10, -0.00021251900000000002, 25
DataValue, -4.3820000000000005E-08, 96.001500000000007, 1.4445800000000002E-10, -0.00021157400000000002, 25
DataValue, -2.1730000000000003E-08, 97.0035, 1.4370400000000001E-10, -0.00021059300000000002, 25
DataValue, -6.9980000000000009E-08, 98.001, 1.4287000000000002E-10, -0.00020959100000000002, 25
DataValue, -3.144E-08, 99.001500000000007, 1.4219500000000002E-10, -0.00020824000000000003, 25
DataValue, -4.4240000000000004E-08, 99.999, 1.4136000000000002E-10, -0.00020700500000000002, 25
DataValue, -5.2200000000000006E-09, 100.998, 1.40665E-10, -0.00020609800000000002, 25
DataValue, -3.022E-08, 101.9985, 1.40003E-10, -0.000204699, 25
DataValue, 1.3010000000000002E-08, 102.999, 1.39126E-10, -0.000203365, 25
DataValue, -2.0400000000000004E-09, 103.9965, 1.38502E-10, -0.000202585, 25
DataValue, -3.2480000000000004E-08, 104.9985, 1.37861E-10, -0.00020189400000000002, 25
DataValue, -2.052E-08, 105.9975, 1.37134E-10, -0.00020050700000000002, 25
DataValue, 3.8730000000000003E-08, 107.001, 1.36401E-10, -0.00019923300000000002, 25
DataValue, 9.420000000000001E-09, 108.003, 1.35696E-10, -0.000198449, 25
DataValue, 2.5950000000000004E-08, 109.0035, 1.35004E-10, -0.000197616, 25
DataValue, 1.2510000000000001E-08, 109.998, 1.34398E-10, -0.000197314, 25
DataValue, -9.6100000000000013E-09, 111.00150000000001, 1.3371200000000001E-10, -0.000196087, 25
DataValue, -3.693E-08, 112.0005, 1.33103E-10, -0.00019468500000000002, 25
DataValue, -2.0160000000000003E-08, 112.998, 1.32448E-10, -0.000194155, 25
DataValue, 1.4830000000000001E-08, 114.006, 1.31848E-10, -0.000193694, 25
DataValue, 1.937E-08, 115.002, 1.31219E-10, -0.000192628, 25
DataValue, -8.3700000000000015E-09, 115.9965, 1.3065100000000002E-10, -0.00019130700000000002, 25
DataValue, 2.066E-08, 117, 1.30032E-10, -0.00019083900000000002, 25
DataValue, -3.054E-08, 117.99900000000001, 1.29481E-10, -0.00018986300000000002, 25
DataValue, 1.3850000000000002E-08, 118.995, 1.28969E-10, -0.00018902, 25
DataValue, 8.4910000000000011E-08, 120.006, 1.28357E-10, -0.000188173, 25
DataValue, -4.7610000000000007E-08, 120.99600000000001, 1.27853E-10, -0.00018758900000000002, 25
DataValue, 2.544E-08, 121.9995, 1.2729E-10, -0.00018688, 25
DataValue, 4.128E-08, 122.9985, 1.2683000000000002E-10, -0.00018610500000000002, 25
DataValue, -2.3320000000000003E-08, 123.9975, 1.26313E-10, -0.00018540600000000002, 25
DataValue, -4.6720000000000004E-08, 124.998, 1.25819E-10, -0.000184847, 25
DataValue, -1.5540000000000002E-08, 125.994, 1.2529700000000002E-10, -0.00018432800000000002, 25
DataValue, -5.5730000000000003E-08, 127.0005, 1.24834E-10, -0.000183171, 25
DataValue, -7.767E-08, 127.9995, 1.2430500000000002E-10, -0.00018257100000000002, 25
DataValue, 2.55E-09, 128.9985, 1.23848E-10, -0.00018193200000000002, 25
DataValue, -7.6190000000000009E-08, 130.00050000000002, 1.2327100000000001E-10, -0.000180831, 25
DataValue, -7.3700000000000008E-09, 131.004, 1.2281400000000002E-10, -0.00018020200000000002, 25
DataValue, -6.9200000000000009E-09, 132, 1.22287E-10, -0.000179461, 25
DataValue, 6.0000000000000008E-09, 132.999, 1.21751E-10, -0.000178975, 25
DataValue, 4.8600000000000005E-08, 134.001, 1.21363E-10, -0.000178452, 25
DataValue, 3.951E-08, 135.0015, 1.20859E-10, -0.00017727700000000002, 25
DataValue, 8.96E-09, 135.999, 1.20407E-10, -0.000176887, 25
DataValue, 2.092E-08, 137.001, 1.19905E-10, -0.000176441, 25
DataValue, 8.9E-09, 138.0015, 1.19446E-10, -0.00017522000000000002, 25
DataValue, -4.24E-08, 139.0035, 1.19025E-10, -0.000175011, 25
DataValue, 3.0660000000000005E-08, 139.9995, 1.18534E-10, -0.000173921, 25
DataValue, 1.5610000000000002E-08, 140.9985, 1.1811000000000002E-10, -0.000173105, 25
DataValue, -3.1320000000000005E-08, 142.00050000000002, 1.17695E-10, -0.00017335200000000002, 25
DataValue, -2.8160000000000002E-08, 143.001, 1.17223E-10, -0.000172466, 25
DataValue, -6.889E-08, 143.9955, 1.16791E-10, -0.000171545, 25
DataValue, -5.5020000000000006E-08, 145.002, 1.1631600000000001E-10, -0.000170845, 25
DataValue, -2.2070000000000002E-08, 145.9995, 1.15895E-10, -0.00017035500000000002, 25
DataValue, -1.883E-08, 147.0015, 1.1548800000000002E-10, -0.00016944800000000002, 25
DataValue, -1.5100000000000002E-09, 147.999, 1.15154E-10, -0.000169256, 25
DataValue, -2.5600000000000004E-08, 148.9995, 1.1471200000000001E-10, -0.000168399, 25
DataValue, -5.8340000000000005E-08, 150.0015, 1.14357E-10, -0.000168082, 25
DataValue, 3.93E-08, 150.9975, 1.1391800000000001E-10, -0.00016742700000000002, 25
DataValue, 4.383E-08, 152.001, 1.13501E-10, -0.000166958, 25
DataValue, 5.4800000000000009E-09, 153, 1.1320600000000001E-10, -0.00016621300000000002, 25
DataValue, 3.783E-08, 154.00050000000002, 1.1282200000000001E-10, -0.00016607700000000002, 25
DataValue, -1.743E-08, 154.998, 1.1244900000000001E-10, -0.00016527500000000002, 25
DataValue, 4.8590000000000007E-08, 155.997, 1.1213800000000001E-10, -0.00016447800000000002, 25
DataValue, 8.84E-09, 157.00050000000002, 1.11723E-10, -0.00016430600000000002, 25
DataValue, -2.1600000000000004E-09, 157.995, 1.1137600000000001E-10, -0.000163639, 25
DataValue, -1.928E-08, 159.0015, 1.1107300000000001E-10, -0.000162732, 25
DataValue, 4.9500000000000005E-09, 160.00050000000002, 1.10726E-10, -0.00016248, 25
DataValue, -4.624E-08, 160.9965, 1.1032000000000001E-10, -0.000162158, 25
DataValue, -2.4960000000000003E-08, 162.00300000000001, 1.0992800000000001E-10, -0.00016173400000000002, 25
DataValue, -2.129E-08, 162.9975, 1.0965E-10, -0.000161172, 25
DataValue, 3.9770000000000005E-08, 163.9995, 1.0933000000000001E-10, -0.00016116900000000002, 25
DataValue, -1.0030000000000001E-08, 165.0015, 1.0897900000000001E-10, -0.00016003, 25
DataValue, -2.1370000000000002E-08, 165.99450000000002, 1.08618E-10, -0.00015963700000000002, 25
DataValue, 1.1950000000000001E-08, 166.9965, 1.08285E-10, -0.000158657, 25
DataValue, 1.7460000000000002E-08, 168, 1.0797E-10, -0.00015883300000000002, 25
DataValue, -8.4400000000000015E-09, 169.00050000000002, 1.0766100000000002E-10, -0.000157978, 25
DataValue, 2.0000000000000002E-11, 170.0025, 1.07253E-10, -0.000157465, 25
DataValue, 1.1000000000000001E-10, 170.997, 1.06926E-10, -0.00015716000000000002, 25
DataValue, 2.1000000000000002E-10, 172.00050000000002, 1.0657600000000001E-10, -0.000157219, 25
DataValue, -2.136E-08, 172.9995, 1.06292E-10, -0.00015612200000000002, 25
DataValue, 4.073E-08, 174.0015, 1.0597200000000001E-10, -0.000155698, 25
DataValue, -7.6900000000000014E-09, 175.0035, 1.0563300000000001E-10, -0.000155178, 25
DataValue, 2.8950000000000004E-08, 175.9965, 1.0528300000000001E-10, -0.00015538500000000002, 25
DataValue, -4.6050000000000005E-08, 177.00300000000001, 1.04996E-10, -0.000154794, 25
DataValue, 4.41E-09, 178.002, 1.0467600000000001E-10, -0.000153652, 25
DataValue, -8.9900000000000014E-09, 178.9995, 1.0438400000000001E-10, -0.00015379100000000002, 25
DataValue, -5.713E-08, 180.0015, 1.0407500000000001E-10, -0.00015319700000000002, 25
DataValue, -5.33E-09, 181.002, 1.0377900000000001E-10, -0.000152146, 25
DataValue, -6.073E-08, 181.9965, 1.03459E-10, -0.000151804, 25
DataValue, -2.4040000000000002E-08, 183.0015, 1.0319500000000001E-10, -0.00015184400000000002, 25
DataValue, 1.102E-08, 184.002, 1.0291800000000001E-10, -0.000151461, 25
DataValue, -5.0130000000000006E-08, 185.001, 1.0264200000000001E-10, -0.00015133600000000002, 25
DataValue, 1.509E-08, 186.0015, 1.02314E-10, -0.000150525, 25
DataValue, 1.169E-08, 187.005, 1.01983E-10, -0.00015005700000000002, 25
DataValue, -5.3490000000000005E-08, 187.995, 1.0177100000000001E-10, -0.000149831, 25
DataValue, -3.836E-08, 188.9985, 1.01481E-10, -0.00014897600000000002, 25
DataValue, 6.6E-09, 189.9975, 1.0116200000000001E-10, -0.00014851100000000002, 25
DataValue, 9.72E-09, 191.001, 1.0089400000000001E-10, -0.00014835100000000002, 25
DataValue, -5.2500000000000007E-09, 191.9985, 1.00705E-10, -0.000148108, 25
DataValue, -1.693E-08, 193.002, 1.0044400000000001E-10, -0.00014803800000000002, 25
DataValue, 3.106E-08, 193.995, 1.00226E-10, -0.00014785000000000002, 25
DataValue, 2.2680000000000002E-08, 195, 9.99326E-11, -0.000147352, 25
DataValue, 5.2640000000000007E-08, 196.005, 9.96575E-11, -0.000146577, 25
DataValue, -4.4470000000000007E-08, 196.9965, 9.9468899999999992E-11, -0.000146429, 25
DataValue, 2.242E-08, 197.9985, 9.9224899999999993E-11, -0.000145951, 25
DataValue, 2.146E-08, 199.005, 9.89387E-11, -0.000145553, 25
DataValue, 1.6460000000000003E-08, 199.998, 9.86638E-11, -0.00014561, 25
DataValue, -8.1600000000000016E-09, 201.00300000000001, 9.8479E-11, -0.00014514400000000002, 25
DataValue, -2.005E-08, 202.002, 9.8224399999999992E-11, -0.00014441900000000001, 25
DataValue, 2.9770000000000005E-08, 202.9995, 9.79709E-11, -0.00014427300000000002, 25
DataValue, -1.4010000000000001E-08, 204.0015, 9.7716E-11, -0.000143607, 25
DataValue, -2.3790000000000003E-08, 205.00050000000002, 9.74234E-11, -0.00014324700000000002, 25
DataValue, -7.4420000000000014E-08, 205.9965, 9.72545E-11, -0.000143253, 25
DataValue, -5.7220000000000005E-08, 206.9985, 9.70089E-11, -0.00014262, 25
DataValue, -1.719E-08, 208.005, 9.66886E-11, -0.000142785, 25
DataValue, -7.4900000000000012E-09, 208.9995, 9.64815E-11, -0.000141965, 25
DataValue, -2.8720000000000002E-08, 210.00300000000001, 9.6242299999999992E-11, -0.000141821, 25
DataValue, -5.78E-09, 211.0035, 9.6038599999999992E-11, -0.000141404, 25
DataValue, -4.9110000000000008E-08, 211.9965, 9.58097E-11, -0.000141025, 25
DataValue, 1.848E-08, 213, 9.55067E-11, -0.000140454, 25
DataValue, -9.2200000000000008E-09, 214.002, 9.5219E-11, -0.000140246, 25
DataValue, -1.157E-08, 214.998, 9.50363E-11, -0.00014000900000000002, 25
DataValue, -3.193E-08, 216, 9.47772E-11, -0.00013964, 25
DataValue, -1.801E-08, 216.993, 9.4578399999999992E-11, -0.00013948900000000002, 25
DataValue, 1.2550000000000002E-08, 218.001, 9.43535E-11, -0.000138414, 25
DataValue, 3.679E-08, 219.0045, 9.41161E-11, -0.000138682, 25
DataValue, -3.706E-08, 219.996, 9.3849599999999993E-11, -0.00013828, 25
DataValue, -1.5000000000000003E-10, 221.001, 9.36851E-11, -0.000138039, 25
DataValue, -6.950000000000001E-09, 222.0015, 9.34774E-11, -0.00013732500000000002, 25
DataValue, -4.6400000000000005E-09, 223.005, 9.31979E-11, -0.00013740400000000002, 25
DataValue, -6.5100000000000009E-09, 223.99800000000002, 9.30266E-11, -0.000136878, 25
DataValue, 4.621E-08, 225.00300000000001, 9.2853E-11, -0.000136699, 25
DataValue, -7.6820000000000009E-08, 226.005, 9.27086E-11, -0.000136534, 25
DataValue, 1.6290000000000002E-08, 227.001, 9.24381E-11, -0.00013603900000000002, 25
DataValue, -2.239E-08, 228.0015, 9.22242E-11, -0.00013563100000000002, 25
DataValue, 3.786E-08, 229.002, 9.2027E-11, -0.000135815, 25
DataValue, -7.839E-08, 229.9995, 9.18352E-11, -0.000134979, 25
DataValue, -5.2410000000000004E-08, 231, 9.16601E-11, -0.000134423, 25
DataValue, -6.162E-08, 232.0035, 9.14017E-11, -0.000134563, 25
DataValue, -1.3100000000000002E-08, 233.001, 9.11578E-11, -0.000134169, 25
DataValue, -7.4520000000000008E-08, 233.9955, 9.10305E-11, -0.000134028, 25
DataValue, -8.42E-09, 235.0035, 9.08849E-11, -0.00013305900000000002, 25
DataValue, 1.9100000000000002E-09, 236.0025, 9.06853E-11, -0.00013382000000000002, 25
