
SetupTitle, Cds
ApplicationTest, Cds, Public
TestParameter, Name, Memo, IntegTime, Frequency, OscLevel, Scale, Drain, VdBias, VdStart, VdStop, VdLinearStep, IdLimit, HoldTime, DelayTime, IdMinRange
TestParameter, Value, , SHORT, 100000, 0.025, LINEAR, CMU1:MF	MFCMU, SMU6:HV	HVSMU, 0, 1000, 1, 0.004, 0, 0.08, 10uA
DutParameter, Name, Polarity, Temp, YAxisCdsMin, YAxisCdsMax
DutParameter, Value, 1, 25, 1E-12, 1E-09
MetaData, TestRecord.EntryPoint, true
MetaData, TestRecord.RecordTime, 04/22/2021 10:56:30
MetaData, TestRecord.TestTarget, 
MetaData, TestRecord.IterationIndex, 40
MetaData, TestRecord.Preservation, true
MetaData, TestRecord.Flag, 
MetaData, TestRecord.Remarks, 
MetaData, TestRecord.LinkKey, 6ed1595d-3b31-466a-9b59-c4628b305acf
Dimension1, 1001, 1001, 1001, 1001, 1001
Dimension2, 1, 1, 1, 1, 1
DataName, Ids, Vdrain, Cds, G, Ta
DataValue, -9.3330000000000016E-08, 0, 1.76825E-09, -2.42412E-05, 25
DataValue, 1.2426E-07, 0.999, 1.41217E-09, -2.2384500000000002E-05, 25
DataValue, 1.0224000000000001E-07, 1.995, 1.25056E-09, -1.98846E-05, 25
DataValue, 1.6390000000000003E-08, 3.003, 1.14296E-09, -1.83945E-05, 25
DataValue, 9.478E-08, 4.002, 1.05987E-09, -1.6943800000000002E-05, 25
DataValue, 9.3680000000000016E-08, 4.998, 9.92232E-10, -1.62741E-05, 25
DataValue, -2.8440000000000002E-08, 6.0015, 9.35379E-10, -1.40479E-05, 25
DataValue, 1.0230000000000001E-07, 6.9975000000000005, 8.8609800000000006E-10, -1.41486E-05, 25
DataValue, 6.113E-08, 7.9995, 8.42149E-10, -1.37663E-05, 25
DataValue, 2.3760000000000002E-08, 9.003, 8.020940000000001E-10, -1.26434E-05, 25
DataValue, 1.0980000000000002E-07, 9.9975, 7.6578E-10, -1.2151100000000001E-05, 25
DataValue, -2.9900000000000002E-09, 10.998000000000001, 7.3107600000000009E-10, -1.13316E-05, 25
DataValue, 1.4102E-07, 12.0045, 6.97874E-10, -1.0395E-05, 25
DataValue, 9.102E-08, 12.9975, 6.6743500000000008E-10, -1.0863900000000001E-05, 25
DataValue, 6.387E-08, 14.001, 6.2998300000000006E-10, -9.84653E-06, 25
DataValue, 1.2335E-07, 15.0015, 5.5567600000000006E-10, -8.4991099999999987E-06, 25
DataValue, 3.7890000000000004E-08, 15.9975, 5.30857E-10, -8.016699999999999E-06, 25
DataValue, 9.2920000000000014E-08, 17.004, 5.1110500000000007E-10, -7.8264E-06, 25
DataValue, 1.7339000000000002E-07, 17.9985, 4.9547300000000007E-10, -7.8059E-06, 25
DataValue, 2.7120000000000004E-08, 19.0005, 4.8115400000000007E-10, -7.6899499999999991E-06, 25
DataValue, 1.2265E-07, 20.001, 4.68095E-10, -7.12601E-06, 25
DataValue, 1.7384000000000003E-07, 21, 4.56524E-10, -6.9328499999999992E-06, 25
DataValue, 1.0644E-07, 22.0035, 4.44965E-10, -6.6583499999999995E-06, 25
DataValue, 5.8320000000000009E-08, 23.0025, 4.3637200000000003E-10, -6.6980399999999995E-06, 25
DataValue, 2.0757000000000003E-07, 24.0015, 4.2700900000000005E-10, -6.43079E-06, 25
DataValue, 1.9520000000000002E-08, 24.996000000000002, 4.19141E-10, -6.11212E-06, 25
DataValue, 1.5962000000000002E-07, 25.9995, 4.0972400000000004E-10, -6.49068E-06, 25
DataValue, 1.0864000000000001E-07, 27, 4.0272200000000005E-10, -6.31137E-06, 25
DataValue, 7.991E-08, 27.997500000000002, 3.9579100000000004E-10, -6.16232E-06, 25
DataValue, 1.2411000000000002E-07, 28.998, 3.89496E-10, -6.28852E-06, 25
DataValue, 2.497E-08, 30.003, 3.8271900000000004E-10, -6.1289E-06, 25
DataValue, 1.2402000000000002E-07, 31.002, 3.7674700000000004E-10, -5.3138299999999994E-06, 25
DataValue, 2.1407E-07, 32.001, 3.7152100000000003E-10, -5.9681199999999994E-06, 25
DataValue, -4.4970000000000005E-08, 33.0015, 3.65112E-10, -5.6757799999999994E-06, 25
DataValue, 1.5086000000000002E-07, 33.9975, 3.6052300000000004E-10, -5.6622E-06, 25
DataValue, 8.5730000000000014E-08, 35.001, 3.54705E-10, -5.6233999999999994E-06, 25
DataValue, 6.6540000000000012E-08, 36, 3.51118E-10, -5.68748E-06, 25
DataValue, 1.6879000000000002E-07, 36.9975, 3.4569800000000004E-10, -5.80319E-06, 25
DataValue, 6.5500000000000011E-08, 38.007, 3.41331E-10, -5.66232E-06, 25
DataValue, 1.29E-07, 39.003, 3.3822000000000005E-10, -5.50708E-06, 25
DataValue, 9.604E-08, 39.993, 3.33997E-10, -5.20483E-06, 25
DataValue, -1.7410000000000002E-08, 40.998, 3.29989E-10, -5.2522499999999996E-06, 25
DataValue, 2.3641000000000004E-07, 42.0045, 3.25941E-10, -5.3764299999999994E-06, 25
DataValue, 5.5620000000000004E-08, 43.0065, 3.22433E-10, -4.9990899999999994E-06, 25
DataValue, 6.9140000000000009E-08, 44.001, 3.1850500000000003E-10, -5.19894E-06, 25
DataValue, 1.2384E-07, 44.9985, 3.15671E-10, -5.08722E-06, 25
DataValue, 3.6870000000000005E-08, 45.996, 3.1185300000000004E-10, -4.8216199999999994E-06, 25
DataValue, 1.6355E-07, 47.001, 3.0840600000000004E-10, -4.9590099999999993E-06, 25
DataValue, 7.5620000000000011E-08, 48.0015, 3.05867E-10, -4.8689999999999995E-06, 25
DataValue, 2.544E-08, 49.0005, 3.02775E-10, -4.8451699999999994E-06, 25
DataValue, 1.5360000000000003E-07, 49.9965, 2.9967900000000004E-10, -4.84125E-06, 25
DataValue, 5.7000000000000006E-09, 50.9985, 2.96989E-10, -4.51146E-06, 25
DataValue, 8.298E-08, 52.0005, 2.94386E-10, -4.7743499999999994E-06, 25
DataValue, 1.4516E-07, 52.998, 2.91268E-10, -4.4489E-06, 25
DataValue, -7.53E-09, 54.0015, 2.8931900000000003E-10, -4.71432E-06, 25
DataValue, 1.6411E-07, 54.9975, 2.8644600000000005E-10, -5.16908E-06, 25
DataValue, 2.9520000000000002E-08, 55.999500000000005, 2.8417E-10, -4.49135E-06, 25
DataValue, 1.935E-08, 57, 2.81634E-10, -4.3708799999999994E-06, 25
DataValue, 1.9159E-07, 57.999, 2.7941700000000003E-10, -4.53064E-06, 25
DataValue, 2.216E-08, 59.001000000000005, 2.76979E-10, -4.31644E-06, 25
DataValue, 1.4009E-07, 60.0015, 2.74178E-10, -4.84788E-06, 25
DataValue, 1.3218E-07, 61.0005, 2.7270500000000004E-10, -4.15667E-06, 25
DataValue, 7.2210000000000009E-08, 61.995000000000005, 2.72122E-10, -4.5208999999999994E-06, 25
DataValue, 1.1567000000000002E-07, 63, 2.6849200000000004E-10, -3.97999E-06, 25
DataValue, 6.7680000000000008E-08, 64.002, 2.6696100000000004E-10, -4.12757E-06, 25
DataValue, 1.3599000000000002E-07, 64.9965, 2.6424300000000004E-10, -4.3674799999999996E-06, 25
DataValue, 1.8478000000000002E-07, 66, 2.6240600000000004E-10, -4.10402E-06, 25
DataValue, 6.164E-08, 67.002, 2.61008E-10, -4.5338199999999994E-06, 25
DataValue, 7.7840000000000014E-08, 68.0025, 2.5898700000000003E-10, -4.5754499999999995E-06, 25
DataValue, 1.1534000000000001E-07, 68.9985, 2.56834E-10, -3.82183E-06, 25
DataValue, 6.974E-08, 69.999, 2.5537100000000003E-10, -4.00464E-06, 25
DataValue, 1.6766E-07, 70.998, 2.5352800000000004E-10, -4.53943E-06, 25
DataValue, -1.4480000000000001E-08, 71.9985, 2.51759E-10, -4.2087899999999996E-06, 25
DataValue, 1.4355E-07, 73.002, 2.5026100000000003E-10, -4.0029499999999995E-06, 25
DataValue, 1.9669000000000002E-07, 73.998, 2.48203E-10, -3.8701099999999994E-06, 25
DataValue, 3.7750000000000004E-08, 75, 2.4678E-10, -3.37647E-06, 25
DataValue, 1.2324E-07, 76.002, 2.46057E-10, -2.96283E-06, 25
DataValue, 9.541E-08, 76.9995, 2.43772E-10, -4.1777799999999995E-06, 25
DataValue, 7.3940000000000012E-08, 78.001500000000007, 2.4298E-10, -3.8364599999999993E-06, 25
DataValue, 1.7133E-07, 78.999, 2.41428E-10, -3.62711E-06, 25
DataValue, 2.6730000000000002E-08, 80.0025, 2.40067E-10, -3.8544799999999996E-06, 25
DataValue, 8.910000000000001E-08, 81.003, 2.3815E-10, -3.7518899999999998E-06, 25
DataValue, 1.5496E-07, 82.0035, 2.36462E-10, -4.02256E-06, 25
DataValue, -5.4600000000000006E-09, 83.0025, 2.35758E-10, -3.48105E-06, 25
DataValue, 1.1896000000000001E-07, 83.9985, 2.34859E-10, -3.6864799999999996E-06, 25
DataValue, 5.9460000000000004E-08, 84.9975, 2.33312E-10, -3.39258E-06, 25
DataValue, 7.0750000000000008E-08, 86.001, 2.3188400000000001E-10, -4.08464E-06, 25
DataValue, 1.7752000000000002E-07, 86.997, 2.3064700000000003E-10, -3.7407499999999997E-06, 25
DataValue, 7.6900000000000014E-09, 88.002, 2.2935600000000001E-10, -4.05498E-06, 25
DataValue, 1.9699000000000002E-07, 88.9995, 2.2762200000000003E-10, -3.69534E-06, 25
DataValue, 1.2401E-07, 89.997, 2.26927E-10, -3.4235499999999996E-06, 25
DataValue, 1.8310000000000003E-08, 91.0035, 2.2566500000000002E-10, -3.8474799999999995E-06, 25
DataValue, 1.7930000000000002E-07, 91.9995, 2.2440400000000003E-10, -3.46953E-06, 25
DataValue, 4.7750000000000007E-08, 93, 2.2302200000000001E-10, -3.97035E-06, 25
DataValue, 9.3750000000000016E-08, 94.0035, 2.2203800000000003E-10, -3.3391699999999997E-06, 25
DataValue, 1.0651E-07, 95.0025, 2.21325E-10, -3.6140199999999997E-06, 25
DataValue, 6.9410000000000011E-08, 96, 2.19219E-10, -3.7118699999999996E-06, 25
DataValue, 1.9916000000000002E-07, 96.9975, 2.17968E-10, -3.14705E-06, 25
DataValue, 1.0457000000000002E-07, 98.0025, 2.17875E-10, -3.75194E-06, 25
DataValue, 1.574E-08, 99.001500000000007, 2.16504E-10, -3.8140599999999998E-06, 25
DataValue, 1.8764000000000003E-07, 100.002, 2.1546600000000002E-10, -3.8460399999999995E-06, 25
DataValue, 4.5900000000000007E-08, 101.001, 2.14705E-10, -3.77253E-06, 25
DataValue, 1.6838000000000003E-07, 101.997, 2.13921E-10, -3.3492499999999997E-06, 25
DataValue, 5.1530000000000005E-08, 102.999, 2.1343E-10, -3.09963E-06, 25
DataValue, 9.6800000000000013E-09, 104.0025, 2.1187600000000001E-10, -3.06844E-06, 25
DataValue, 1.6198000000000003E-07, 105, 2.10742E-10, -3.4564799999999997E-06, 25
DataValue, 4.9160000000000005E-08, 105.9975, 2.0974000000000002E-10, -3.6758499999999997E-06, 25
DataValue, 9.1880000000000013E-08, 106.998, 2.0854500000000003E-10, -3.32095E-06, 25
DataValue, 1.8862000000000003E-07, 107.997, 2.07551E-10, -3.1853399999999996E-06, 25
DataValue, 2.256E-08, 108.9975, 2.0751700000000002E-10, -2.9068999999999996E-06, 25
DataValue, 1.2785000000000002E-07, 109.998, 2.0615500000000002E-10, -2.94192E-06, 25
DataValue, 7.2750000000000013E-08, 110.9955, 2.0530100000000001E-10, -3.4442199999999997E-06, 25
DataValue, 5.6510000000000008E-08, 111.99900000000001, 2.0415700000000002E-10, -3.37054E-06, 25
DataValue, 1.7802000000000003E-07, 112.9995, 2.03514E-10, -3.11424E-06, 25
DataValue, 2.5880000000000004E-08, 114, 2.0135400000000002E-10, -3.8389799999999995E-06, 25
DataValue, 1.2325000000000002E-07, 115.002, 2.0185500000000002E-10, -3.23532E-06, 25
DataValue, 1.8939000000000003E-07, 115.998, 2.0068800000000002E-10, -3.0541299999999997E-06, 25
DataValue, 4.0680000000000004E-08, 117.00150000000001, 2.0051000000000001E-10, -2.9470399999999997E-06, 25
DataValue, 1.1004000000000001E-07, 117.99900000000001, 1.9927200000000002E-10, -3.07692E-06, 25
DataValue, 9.7940000000000015E-08, 118.998, 1.9847700000000002E-10, -2.98109E-06, 25
DataValue, 4.9830000000000003E-08, 119.9985, 1.97969E-10, -3.29046E-06, 25
DataValue, 2.1237000000000002E-07, 121.0005, 1.9701200000000002E-10, -3.14119E-06, 25
DataValue, -2.4770000000000003E-08, 121.9995, 1.9652200000000003E-10, -3.0169399999999997E-06, 25
DataValue, 1.6807000000000002E-07, 123, 1.95691E-10, -3.12628E-06, 25
DataValue, 1.7134000000000002E-07, 124.0005, 1.94576E-10, -2.85993E-06, 25
DataValue, 2.04E-08, 124.9995, 1.9372500000000002E-10, -3.38212E-06, 25
DataValue, 2.1969000000000003E-07, 125.9985, 1.9334900000000003E-10, -3.0500799999999997E-06, 25
DataValue, 6.429E-08, 126.99900000000001, 1.92021E-10, -3.4611599999999997E-06, 25
DataValue, 7.905000000000001E-08, 127.9995, 1.91617E-10, -2.77217E-06, 25
DataValue, 1.2883000000000002E-07, 128.997, 1.91548E-10, -3.1415999999999997E-06, 25
DataValue, 8.1220000000000009E-08, 130.005, 1.90324E-10, -3.57286E-06, 25
DataValue, 1.495E-07, 131.001, 1.8983200000000002E-10, -2.7148899999999998E-06, 25
DataValue, 1.0239E-07, 131.997, 1.8891900000000002E-10, -3.35516E-06, 25
DataValue, -1.191E-08, 133.00050000000002, 1.8881100000000003E-10, -2.9508599999999997E-06, 25
DataValue, 1.6737000000000002E-07, 133.9995, 1.8795500000000003E-10, -3.01811E-06, 25
DataValue, 6.404000000000001E-08, 135, 1.8598100000000002E-10, -3.09297E-06, 25
DataValue, 1.7160000000000003E-08, 136.00050000000002, 1.8643300000000002E-10, -2.41438E-06, 25
DataValue, 1.0578000000000001E-07, 136.9995, 1.8570300000000002E-10, -2.98243E-06, 25
DataValue, 9.7030000000000016E-08, 138.0015, 1.85509E-10, -3.1029499999999997E-06, 25
DataValue, 1.7230000000000003E-07, 139.00050000000002, 1.85084E-10, -2.77562E-06, 25
DataValue, 1.1205000000000001E-07, 140.0025, 1.84096E-10, -3.02562E-06, 25
DataValue, 1.8471000000000002E-07, 141.00300000000001, 1.83334E-10, -2.61524E-06, 25
DataValue, 2.4134E-07, 142.002, 1.8244600000000002E-10, -3.06749E-06, 25
DataValue, 8.823E-08, 143.001, 1.8156900000000002E-10, -3.1072799999999998E-06, 25
DataValue, 1.1588000000000002E-07, 144.00300000000001, 1.81387E-10, -2.8305899999999998E-06, 25
DataValue, 1.6513000000000002E-07, 144.9975, 1.8134000000000002E-10, -2.43937E-06, 25
DataValue, 3.5370000000000005E-08, 145.9995, 1.80302E-10, -2.9152499999999997E-06, 25
DataValue, 1.3071E-07, 146.997, 1.79887E-10, -2.64265E-06, 25
DataValue, 3.2190000000000006E-08, 147.999, 1.7864900000000002E-10, -3.56171E-06, 25
DataValue, 8.075E-08, 148.998, 1.7837300000000003E-10, -2.78128E-06, 25
DataValue, 2.2965000000000002E-07, 150.0015, 1.77985E-10, -2.9478799999999996E-06, 25
DataValue, -7.8470000000000014E-08, 150.999, 1.77365E-10, -2.4500399999999997E-06, 25
DataValue, 1.1871000000000001E-07, 151.9935, 1.7733800000000001E-10, -2.7908799999999997E-06, 25
DataValue, 1.7236000000000002E-07, 153, 1.7676900000000002E-10, -3.2108399999999997E-06, 25
DataValue, 2.4560000000000003E-08, 153.999, 1.7528700000000002E-10, -2.96339E-06, 25
DataValue, 1.3970000000000001E-07, 155.001, 1.75017E-10, -2.66339E-06, 25
DataValue, 1.3174000000000001E-07, 156.0015, 1.7493400000000002E-10, -3.2320299999999997E-06, 25
DataValue, 7.5840000000000009E-08, 156.993, 1.7431700000000003E-10, -2.96506E-06, 25
DataValue, 1.7352E-07, 157.9995, 1.7317200000000003E-10, -2.67686E-06, 25
DataValue, -2.4320000000000002E-08, 158.9985, 1.72851E-10, -3.16404E-06, 25
DataValue, 1.1260000000000002E-07, 160.002, 1.73221E-10, -3.1255199999999997E-06, 25
DataValue, 1.6060000000000002E-07, 160.998, 1.71892E-10, -2.9457799999999997E-06, 25
DataValue, 7.3730000000000012E-08, 161.9985, 1.7180000000000002E-10, -2.35701E-06, 25
DataValue, 2.0536000000000003E-07, 162.999, 1.70744E-10, -3.05762E-06, 25
DataValue, 3.0660000000000005E-08, 164.004, 1.7036600000000002E-10, -2.90518E-06, 25
DataValue, 1.7309000000000002E-07, 165.0015, 1.70066E-10, -2.45962E-06, 25
DataValue, 1.8291000000000002E-07, 165.996, 1.6941E-10, -2.7596599999999998E-06, 25
DataValue, -7.4100000000000007E-09, 166.9995, 1.6916300000000001E-10, -2.57463E-06, 25
DataValue, 2.7235000000000003E-07, 168.0045, 1.6883600000000003E-10, -2.66609E-06, 25
DataValue, 1.0708000000000002E-07, 169.002, 1.6816400000000003E-10, -2.7318699999999996E-06, 25
DataValue, 1.1902000000000002E-07, 169.998, 1.6707300000000002E-10, -2.71938E-06, 25
DataValue, 1.9198000000000003E-07, 171, 1.67688E-10, -2.6290899999999997E-06, 25
DataValue, 3.1570000000000004E-08, 172.002, 1.67044E-10, -2.3839599999999997E-06, 25
DataValue, 7.9660000000000013E-08, 172.9995, 1.66323E-10, -2.6910899999999997E-06, 25
DataValue, 1.1821000000000001E-07, 173.9985, 1.65104E-10, -2.44763E-06, 25
DataValue, 5.8920000000000007E-08, 174.999, 1.65209E-10, -2.75882E-06, 25
DataValue, 2.1875000000000002E-07, 176.0025, 1.6515900000000002E-10, -2.75902E-06, 25
DataValue, 2.539E-08, 176.9985, 1.64955E-10, -2.40697E-06, 25
DataValue, 1.1173000000000001E-07, 178.002, 1.642E-10, -2.3231899999999998E-06, 25
DataValue, 1.5694000000000003E-07, 178.998, 1.63675E-10, -2.8615199999999998E-06, 25
DataValue, 7.316E-08, 180.0045, 1.63073E-10, -2.83348E-06, 25
DataValue, 1.4198E-07, 180.999, 1.63232E-10, -1.9633099999999998E-06, 25
DataValue, 4.8130000000000008E-08, 182.0025, 1.6145000000000002E-10, -2.56451E-06, 25
DataValue, 1.1971E-07, 183, 1.62244E-10, -2.33446E-06, 25
DataValue, 1.7944000000000002E-07, 184.00050000000002, 1.61515E-10, -2.326E-06, 25
DataValue, 5.7910000000000007E-08, 185.001, 1.60887E-10, -1.95944E-06, 25
DataValue, 1.6149000000000003E-07, 186.0015, 1.60653E-10, -2.66411E-06, 25
DataValue, 1.5939000000000003E-07, 187.002, 1.60376E-10, -2.8402999999999997E-06, 25
DataValue, 6.86E-08, 187.9995, 1.5808E-10, -2.9403499999999997E-06, 25
DataValue, 2.1025000000000002E-07, 188.9985, 1.59686E-10, -2.9661099999999997E-06, 25
DataValue, 5.9430000000000003E-08, 189.9975, 1.5767E-10, -1.7730099999999999E-06, 25
DataValue, 7.517E-08, 191.001, 1.58691E-10, -2.72088E-06, 25
DataValue, 2.0115000000000002E-07, 192.00300000000001, 1.5867100000000002E-10, -2.6513699999999997E-06, 25
DataValue, 3.829E-08, 192.999, 1.5761700000000002E-10, -2.48302E-06, 25
DataValue, 8.7500000000000009E-08, 194.001, 1.58323E-10, -2.58996E-06, 25
DataValue, 1.2468E-07, 194.997, 1.5746900000000002E-10, -2.88615E-06, 25
DataValue, 8.445E-08, 195.9975, 1.57446E-10, -2.9328299999999997E-06, 25
DataValue, 1.6070000000000003E-07, 197.001, 1.5716800000000002E-10, -2.52638E-06, 25
DataValue, 5.6460000000000004E-08, 198.0015, 1.55596E-10, -2.2699499999999998E-06, 25
DataValue, 1.7274000000000002E-07, 199.00050000000002, 1.5551300000000001E-10, -2.57911E-06, 25
DataValue, 1.2851E-07, 200.001, 1.5541700000000002E-10, -2.58002E-06, 25
DataValue, 4.1050000000000007E-08, 201.00300000000001, 1.54964E-10, -2.25445E-06, 25
DataValue, 1.4410000000000003E-07, 201.999, 1.5481400000000002E-10, -2.8155499999999997E-06, 25
DataValue, 1.0339000000000002E-07, 202.9965, 1.54728E-10, -2.73529E-06, 25
DataValue, 7.088000000000001E-08, 204.00300000000001, 1.53553E-10, -2.47678E-06, 25
DataValue, 1.3054E-07, 205.002, 1.53918E-10, -2.2811799999999997E-06, 25
DataValue, 1.3078E-07, 206.0085, 1.53279E-10, -3.1795899999999997E-06, 25
DataValue, 1.6604000000000002E-07, 206.997, 1.5307600000000002E-10, -2.3337899999999997E-06, 25
DataValue, 1.5132E-07, 207.999, 1.5294000000000002E-10, -2.2661299999999998E-06, 25
DataValue, -3.423E-08, 208.998, 1.5216600000000002E-10, -2.30653E-06, 25
DataValue, 1.337E-07, 210.00300000000001, 1.51607E-10, -2.52132E-06, 25
DataValue, 1.2868E-07, 211.002, 1.5111100000000002E-10, -2.2149599999999997E-06, 25
DataValue, 8.4330000000000015E-08, 211.9965, 1.51378E-10, -2.20282E-06, 25
DataValue, 1.7503000000000003E-07, 213, 1.50865E-10, -2.81889E-06, 25
DataValue, 4.9430000000000007E-08, 214.00050000000002, 1.50559E-10, -2.13206E-06, 25
DataValue, 1.7246000000000002E-07, 214.995, 1.4974300000000002E-10, -2.3552E-06, 25
DataValue, 1.1056E-07, 215.997, 1.49419E-10, -2.6643799999999997E-06, 25
DataValue, 1.0132000000000001E-07, 217.00050000000002, 1.4979500000000002E-10, -2.64364E-06, 25
DataValue, 2.2520000000000003E-07, 218.0025, 1.4927300000000002E-10, -2.46111E-06, 25
DataValue, 6.233E-08, 218.997, 1.48638E-10, -2.69573E-06, 25
DataValue, 2.3911000000000003E-07, 220.00050000000002, 1.49036E-10, -2.25543E-06, 25
DataValue, 7.942E-08, 221.0025, 1.4820000000000002E-10, -2.60799E-06, 25
DataValue, 1.8406000000000002E-07, 222.0045, 1.47461E-10, -2.5695899999999997E-06, 25
DataValue, 1.0331000000000002E-07, 223.002, 1.47698E-10, -2.4579899999999997E-06, 25
DataValue, -2.6650000000000004E-08, 223.99800000000002, 1.4699500000000002E-10, -2.13545E-06, 25
DataValue, 1.404E-07, 224.9985, 1.4596E-10, -2.34412E-06, 25
DataValue, 4.5970000000000007E-08, 226.00050000000002, 1.47298E-10, -2.71147E-06, 25
DataValue, 6.1610000000000007E-08, 227.0025, 1.4652200000000002E-10, -2.2073199999999997E-06, 25
DataValue, 1.8589E-07, 228.00300000000001, 1.45545E-10, -2.39314E-06, 25
DataValue, 5.5970000000000004E-08, 229.002, 1.4582000000000002E-10, -2.32201E-06, 25
DataValue, 2.2788000000000003E-07, 230.004, 1.4553000000000001E-10, -2.3405099999999997E-06, 25
DataValue, 5.7900000000000009E-08, 231.00300000000001, 1.45372E-10, -2.16885E-06, 25
DataValue, 1.8530000000000003E-07, 232.00050000000002, 1.44954E-10, -2.2602199999999997E-06, 25
