
SetupTitle, Cds
ApplicationTest, Cds, Public
TestParameter, Name, Memo, IntegTime, Frequency, OscLevel, Scale, Drain, VdBias, VdStart, VdStop, VdLinearStep, IdLimit, HoldTime, DelayTime, IdMinRange
TestParameter, Value, , SHORT, 1000000, 0.025, LINEAR, CMU1:MF	MFCMU, SMU6:HV	HVSMU, 0, 1000, 1, 0.004, 0, 0.08, 10uA
DutParameter, Name, Polarity, Temp, YAxisCdsMin, YAxisCdsMax
DutParameter, Value, 1, 25, 1E-12, 1E-09
MetaData, TestRecord.EntryPoint, true
MetaData, TestRecord.RecordTime, 12/27/2020 09:00:48
MetaData, TestRecord.TestTarget, 
MetaData, TestRecord.IterationIndex, 6
MetaData, TestRecord.Preservation, true
MetaData, TestRecord.Flag, 
MetaData, TestRecord.Remarks, 
MetaData, TestRecord.LinkKey, 31b6b689-bd03-4d21-b194-15893139a70a
Dimension1, 1001, 1001, 1001, 1001, 1001
Dimension2, 1, 1, 1, 1, 1
DataName, Ids, Vdrain, Cds, G, Ta
DataValue, 8.9E-09, 0.003, 1.07261E-09, -0.00147854, 25
DataValue, 2.5750000000000002E-08, 0.999, 9.31475E-10, -0.00129079, 25
DataValue, 1.9290000000000003E-08, 1.9995, 8.4025400000000011E-10, -0.0011731600000000001, 25
DataValue, 4.669E-08, 3, 7.7274500000000011E-10, -0.00108405, 25
DataValue, 4.1230000000000006E-08, 4.0005, 7.1980800000000011E-10, -0.00101411, 25
DataValue, 4.662E-08, 4.9995, 6.76433E-10, -0.00095567900000000008, 25
DataValue, -2.5330000000000002E-08, 5.994, 6.40022E-10, -0.00090655000000000011, 25
DataValue, -1.8300000000000002E-08, 7.0005, 6.084850000000001E-10, -0.00086224600000000011, 25
DataValue, 2.1770000000000002E-08, 8.001, 5.80635E-10, -0.00082401400000000008, 25
DataValue, -3.3000000000000005E-10, 9, 5.53457E-10, -0.000784767, 25
DataValue, -2.12E-09, 10.0005, 5.12114E-10, -0.000636954, 25
DataValue, 1.4460000000000002E-08, 10.996500000000001, 4.71516E-10, -0.000657557, 25
DataValue, -2.6710000000000002E-08, 11.997, 4.5435500000000003E-10, -0.00063453500000000009, 25
DataValue, -4.2130000000000007E-08, 12.999, 4.3957500000000006E-10, -0.00061411800000000009, 25
DataValue, -1.101E-08, 13.999500000000001, 4.26342E-10, -0.00059645600000000009, 25
DataValue, 1.1030000000000002E-08, 15, 4.1456E-10, -0.00058044600000000009, 25
DataValue, -2.516E-08, 15.999, 4.03785E-10, -0.00056568800000000006, 25
DataValue, 4.8850000000000004E-08, 17.004, 3.9377900000000005E-10, -0.00055278400000000007, 25
DataValue, 1.806E-08, 18, 3.8451500000000004E-10, -0.000539627, 25
DataValue, 2.5030000000000003E-08, 18.999, 3.7605500000000005E-10, -0.00052886, 25
DataValue, 3.9840000000000005E-08, 20.004, 3.6812E-10, -0.00051739700000000006, 25
DataValue, 6.9700000000000005E-09, 20.997, 3.60742E-10, -0.00050723, 25
DataValue, -3.1570000000000004E-08, 21.9975, 3.53765E-10, -0.00049806100000000005, 25
DataValue, -1.5660000000000003E-08, 22.9995, 3.4721700000000004E-10, -0.00048953800000000008, 25
DataValue, -3.1080000000000004E-08, 24.0045, 3.40964E-10, -0.000480665, 25
DataValue, -3.294E-08, 25.002, 3.3525300000000003E-10, -0.00047295700000000003, 25
DataValue, -3.926E-08, 25.9995, 3.29581E-10, -0.00046566200000000004, 25
DataValue, -8.7400000000000008E-09, 27.003, 3.24336E-10, -0.000458413, 25
DataValue, -6.6290000000000007E-08, 27.999000000000002, 3.1930800000000004E-10, -0.00045114600000000003, 25
DataValue, -7.4400000000000008E-09, 28.9995, 3.1455200000000003E-10, -0.0004447, 25
DataValue, -6.4930000000000013E-08, 30, 3.09958E-10, -0.000438829, 25
DataValue, -5.6800000000000006E-08, 31.002, 3.0561500000000003E-10, -0.00043289, 25
DataValue, 3.7E-10, 31.9995, 3.0149400000000004E-10, -0.000427213, 25
DataValue, 1.8230000000000002E-08, 32.9985, 2.97349E-10, -0.00042147200000000005, 25
DataValue, -3.867E-08, 34.002, 2.9358700000000004E-10, -0.000416852, 25
DataValue, -1.2290000000000001E-08, 35.004, 2.89919E-10, -0.000411097, 25
DataValue, 5.8300000000000008E-09, 36.0015, 2.86412E-10, -0.00040674, 25
DataValue, -3.4950000000000005E-08, 37.002, 2.8299100000000003E-10, -0.000402076, 25
DataValue, 1.675E-08, 38.0025, 2.79639E-10, -0.000397417, 25
DataValue, 4.45E-09, 39.003, 2.76601E-10, -0.00039291500000000003, 25
DataValue, -2.228E-08, 40.0005, 2.7351100000000003E-10, -0.000389082, 25
DataValue, -2.9640000000000003E-08, 40.9995, 2.7053500000000004E-10, -0.00038451500000000004, 25
DataValue, -2.0880000000000002E-08, 41.9985, 2.6764700000000003E-10, -0.000380319, 25
DataValue, -2.9220000000000003E-08, 43.0005, 2.6500800000000003E-10, -0.00037738800000000004, 25
DataValue, -4.6330000000000005E-08, 44.001, 2.62383E-10, -0.00037342900000000005, 25
DataValue, 2.7490000000000003E-08, 45.0015, 2.5976600000000004E-10, -0.000370218, 25
DataValue, -3.072E-08, 46.0005, 2.5728900000000004E-10, -0.000366675, 25
DataValue, 2.7380000000000004E-08, 46.9965, 2.54789E-10, -0.000363201, 25
DataValue, 2.1930000000000002E-08, 48, 2.52548E-10, -0.00036011800000000004, 25
DataValue, 6.064E-08, 49.002, 2.5018200000000003E-10, -0.00035688900000000005, 25
DataValue, 1.2680000000000002E-08, 50.001, 2.48011E-10, -0.000353915, 25
DataValue, 3.7630000000000007E-08, 51, 2.4585600000000003E-10, -0.000351075, 25
DataValue, 3.5580000000000005E-08, 52.0005, 2.43666E-10, -0.000348001, 25
DataValue, 4.9850000000000006E-08, 52.9995, 2.4152400000000004E-10, -0.00034496200000000004, 25
DataValue, 3.2300000000000005E-08, 53.9985, 2.39602E-10, -0.00034233900000000004, 25
DataValue, 6.690000000000001E-08, 55.002, 2.37638E-10, -0.000339387, 25
DataValue, 2.701E-08, 55.998000000000005, 2.3578600000000004E-10, -0.00033732600000000004, 25
DataValue, 8.7900000000000013E-09, 57.0015, 2.33867E-10, -0.000334036, 25
DataValue, -1.6290000000000002E-08, 58.0005, 2.32004E-10, -0.000332095, 25
DataValue, -8.7900000000000013E-09, 58.999500000000005, 2.3030100000000003E-10, -0.00032976900000000005, 25
DataValue, -1.602E-08, 59.997, 2.2859200000000003E-10, -0.00032707600000000004, 25
DataValue, -4.687E-08, 60.9975, 2.2689100000000001E-10, -0.000324899, 25
DataValue, -5.2400000000000009E-09, 62.002500000000005, 2.2526500000000002E-10, -0.00032276, 25
DataValue, 2.1040000000000002E-08, 63, 2.23651E-10, -0.00032003, 25
DataValue, -1.0160000000000001E-08, 64.005, 2.2210400000000002E-10, -0.000318447, 25
DataValue, -6.7600000000000006E-09, 64.998, 2.2051200000000001E-10, -0.00031607200000000003, 25
DataValue, -2.3900000000000002E-08, 66.001500000000007, 2.1901600000000003E-10, -0.000313754, 25
DataValue, -8.296000000000001E-08, 66.9945, 2.1740600000000002E-10, -0.00031198600000000004, 25
DataValue, -6.0970000000000009E-08, 68.001, 2.1597100000000001E-10, -0.00031045000000000004, 25
DataValue, -5.266E-08, 69.006, 2.14599E-10, -0.000307866, 25
DataValue, 1.0800000000000002E-09, 70.005, 2.13243E-10, -0.000306032, 25
DataValue, -6.5930000000000009E-08, 70.9965, 2.11933E-10, -0.00030404300000000004, 25
DataValue, -5.3880000000000003E-08, 71.997, 2.1056000000000002E-10, -0.00030230400000000004, 25
DataValue, -7.0380000000000012E-08, 72.9975, 2.0928900000000003E-10, -0.000300154, 25
DataValue, -3.235E-08, 74.001, 2.0800100000000001E-10, -0.000298962, 25
DataValue, 3.7110000000000006E-08, 75, 2.0676300000000002E-10, -0.00029688100000000003, 25
DataValue, -3.194E-08, 75.999, 2.0555E-10, -0.00029539100000000005, 25
DataValue, -2.6520000000000002E-08, 77.001, 2.0424E-10, -0.000294108, 25
DataValue, 4.202E-08, 78.001500000000007, 2.0309100000000003E-10, -0.00029185, 25
DataValue, -2.7550000000000002E-08, 78.996, 2.01868E-10, -0.000290025, 25
DataValue, 4.478E-08, 79.998, 2.00796E-10, -0.000288287, 25
DataValue, 7.084E-08, 81.001500000000007, 1.9967900000000002E-10, -0.000287242, 25
DataValue, 4.5480000000000008E-08, 82.0005, 1.9855900000000003E-10, -0.000285256, 25
DataValue, -3.0860000000000006E-08, 83.0025, 1.97511E-10, -0.000283848, 25
DataValue, 2.3970000000000002E-08, 84.003, 1.9641500000000001E-10, -0.000282743, 25
DataValue, 9.6700000000000016E-09, 85.0005, 1.9536E-10, -0.000280914, 25
DataValue, 1.5590000000000003E-08, 85.9995, 1.94362E-10, -0.000279324, 25
DataValue, -3.8590000000000003E-08, 86.9985, 1.93347E-10, -0.000278218, 25
DataValue, 4.746E-08, 87.9975, 1.92383E-10, -0.000277209, 25
DataValue, -2.1750000000000003E-08, 88.9995, 1.91301E-10, -0.000275778, 25
DataValue, 1.1550000000000001E-08, 89.9985, 1.90343E-10, -0.000274477, 25
DataValue, -8.4400000000000015E-09, 91.002, 1.89378E-10, -0.00027283200000000003, 25
DataValue, -1.6410000000000003E-08, 91.9995, 1.8851200000000002E-10, -0.00027154, 25
DataValue, -4.68E-08, 93.001500000000007, 1.87552E-10, -0.00027040500000000004, 25
DataValue, -1.355E-08, 94.0005, 1.8665000000000002E-10, -0.000268592, 25
DataValue, -8.892E-08, 94.9965, 1.8571500000000002E-10, -0.00026766800000000004, 25
DataValue, -4.1750000000000007E-08, 95.9985, 1.8487500000000002E-10, -0.000266499, 25
DataValue, -3.83E-09, 97.002, 1.84014E-10, -0.00026509, 25
DataValue, -2.298E-08, 97.9995, 1.8319300000000002E-10, -0.000263792, 25
DataValue, -1.647E-08, 99, 1.82388E-10, -0.00026231400000000004, 25
DataValue, 3.469E-08, 100.002, 1.81465E-10, -0.00026154600000000003, 25
DataValue, -5.2010000000000007E-08, 101.001, 1.80568E-10, -0.00026038900000000003, 25
DataValue, 1.006E-08, 101.997, 1.7984600000000002E-10, -0.000259567, 25
DataValue, 2.4890000000000003E-08, 103.0035, 1.79103E-10, -0.00025805800000000003, 25
DataValue, -3.6900000000000003E-09, 103.995, 1.7821200000000002E-10, -0.000257653, 25
DataValue, 4.4450000000000004E-08, 105.00150000000001, 1.77473E-10, -0.000255925, 25
DataValue, 5.8580000000000006E-08, 105.999, 1.7666400000000002E-10, -0.00025502, 25
DataValue, 4.7310000000000005E-08, 106.9995, 1.7596500000000002E-10, -0.00025426800000000004, 25
DataValue, 2.7200000000000002E-08, 108, 1.7523800000000002E-10, -0.000252604, 25
DataValue, 6.2700000000000009E-09, 108.9975, 1.7448E-10, -0.000251959, 25
DataValue, 1.7810000000000002E-08, 109.998, 1.73802E-10, -0.00025126900000000004, 25
DataValue, -9.9500000000000014E-09, 111.003, 1.73065E-10, -0.000249807, 25
DataValue, 1.717E-08, 112.0005, 1.72377E-10, -0.000248734, 25
DataValue, -4.279E-08, 113.001, 1.7157400000000002E-10, -0.000248028, 25
DataValue, -5.7780000000000005E-08, 114.00150000000001, 1.7099600000000002E-10, -0.000246367, 25
DataValue, 4.9720000000000004E-08, 114.9975, 1.7021800000000002E-10, -0.000246012, 25
DataValue, -4.5560000000000006E-08, 115.998, 1.69605E-10, -0.000245266, 25
DataValue, -6.3500000000000006E-09, 117.003, 1.68954E-10, -0.000243968, 25
DataValue, 3.706E-08, 117.9975, 1.68348E-10, -0.000243536, 25
DataValue, 1.6920000000000002E-08, 118.9965, 1.67631E-10, -0.00024232700000000003, 25
DataValue, -2.99E-08, 120, 1.67014E-10, -0.00024127100000000002, 25
DataValue, -1.41E-09, 121.0065, 1.6642500000000002E-10, -0.00024075000000000002, 25
DataValue, 1.3320000000000001E-08, 121.998, 1.65776E-10, -0.000240002, 25
DataValue, 2.3100000000000002E-08, 122.9985, 1.65175E-10, -0.00023874800000000003, 25
DataValue, 4.4310000000000004E-08, 123.9975, 1.64612E-10, -0.000238296, 25
DataValue, 4.2150000000000004E-08, 125.0025, 1.6391100000000001E-10, -0.00023752000000000002, 25
DataValue, 4.2390000000000004E-08, 126.00150000000001, 1.6344800000000002E-10, -0.00023620200000000003, 25
DataValue, 5.5120000000000007E-08, 127.0005, 1.6281200000000002E-10, -0.00023545800000000002, 25
DataValue, -2.324E-08, 127.998, 1.6229400000000002E-10, -0.00023468000000000002, 25
DataValue, -2.6560000000000004E-08, 129, 1.6167300000000002E-10, -0.00023419400000000002, 25
DataValue, 4.083E-08, 130.00050000000002, 1.61198E-10, -0.00023349700000000002, 25
DataValue, 5.03E-09, 130.9965, 1.60628E-10, -0.000232333, 25
DataValue, -6.8220000000000011E-08, 131.9985, 1.59975E-10, -0.00023170700000000002, 25
DataValue, -3.1100000000000002E-09, 133.0035, 1.5945E-10, -0.00023059000000000003, 25
DataValue, -7.4710000000000012E-08, 133.9995, 1.5894200000000001E-10, -0.000230024, 25
DataValue, -6.7330000000000008E-08, 134.9985, 1.58393E-10, -0.000229523, 25
DataValue, -6.5160000000000009E-08, 136.002, 1.5795400000000002E-10, -0.000228167, 25
DataValue, -3.2720000000000004E-08, 136.9995, 1.5737000000000002E-10, -0.00022776500000000003, 25
DataValue, -9.8200000000000012E-09, 138, 1.5681E-10, -0.000227177, 25
DataValue, -4.3840000000000007E-08, 139.002, 1.56259E-10, -0.00022670900000000001, 25
DataValue, -2.9060000000000003E-08, 139.998, 1.55772E-10, -0.000225894, 25
DataValue, -6.2150000000000011E-08, 140.997, 1.5533300000000002E-10, -0.00022481600000000002, 25
DataValue, -5.5450000000000004E-08, 141.9975, 1.54862E-10, -0.00022435800000000002, 25
DataValue, -3.1220000000000004E-08, 142.9995, 1.54264E-10, -0.00022407000000000002, 25
DataValue, -9.17E-09, 144.0015, 1.5379300000000002E-10, -0.000222785, 25
DataValue, -4.2200000000000007E-09, 144.9975, 1.53388E-10, -0.00022262100000000002, 25
DataValue, 2.134E-08, 145.995, 1.52905E-10, -0.000221332, 25
DataValue, 4.2130000000000007E-08, 147.0015, 1.5239200000000002E-10, -0.000220771, 25
DataValue, 3.9460000000000004E-08, 148.00050000000002, 1.5197000000000002E-10, -0.00021983200000000002, 25
DataValue, 1.409E-08, 148.9995, 1.5150900000000002E-10, -0.00021924700000000002, 25
DataValue, 2.785E-08, 150, 1.51034E-10, -0.00021868600000000003, 25
DataValue, 1.041E-08, 150.999, 1.5064700000000002E-10, -0.00021801, 25
DataValue, 2.0340000000000002E-08, 151.9995, 1.5010200000000002E-10, -0.00021758000000000001, 25
DataValue, 1.8610000000000003E-08, 152.9985, 1.4969500000000002E-10, -0.00021718, 25
DataValue, -6.2100000000000007E-09, 154.00650000000002, 1.4934200000000002E-10, -0.00021691600000000002, 25
DataValue, 2.8700000000000002E-09, 154.998, 1.4891800000000002E-10, -0.00021544200000000002, 25
DataValue, -3.332E-08, 156.0045, 1.4846500000000001E-10, -0.000215323, 25
DataValue, 6.4600000000000004E-09, 157.00050000000002, 1.4805900000000002E-10, -0.00021440600000000002, 25
DataValue, -2.6770000000000004E-08, 158.001, 1.4763700000000002E-10, -0.000214087, 25
DataValue, -7.7000000000000011E-09, 158.9985, 1.47205E-10, -0.000213596, 25
DataValue, -9.72E-09, 159.999, 1.46659E-10, -0.000212777, 25
DataValue, -1.686E-08, 161.001, 1.4634E-10, -0.00021190100000000002, 25
DataValue, -1.355E-08, 162.0015, 1.46003E-10, -0.00021126800000000002, 25
DataValue, 1.176E-08, 162.999, 1.45554E-10, -0.00021091100000000001, 25
DataValue, -2.3860000000000003E-08, 163.9995, 1.4516300000000002E-10, -0.000210065, 25
DataValue, -2.1790000000000002E-08, 164.9955, 1.44812E-10, -0.000210036, 25
DataValue, -3.4920000000000004E-08, 166.002, 1.4436800000000002E-10, -0.00020888000000000002, 25
DataValue, 5.3330000000000008E-08, 166.998, 1.4390100000000002E-10, -0.00020909000000000002, 25
DataValue, 2.9680000000000002E-08, 167.9985, 1.436E-10, -0.00020851300000000001, 25
DataValue, -4.272E-08, 168.999, 1.4326800000000002E-10, -0.00020795600000000003, 25
DataValue, -7.3800000000000006E-09, 170.004, 1.42842E-10, -0.000207454, 25
DataValue, -9.92E-09, 171, 1.42515E-10, -0.000206564, 25
DataValue, -2.5070000000000002E-08, 172.00050000000002, 1.42158E-10, -0.000206359, 25
DataValue, -1.0510000000000001E-08, 173.0025, 1.41723E-10, -0.000205908, 25
DataValue, -4.3720000000000004E-08, 173.9985, 1.4138700000000002E-10, -0.00020518, 25
DataValue, -8.870000000000001E-09, 175.00650000000002, 1.4099500000000001E-10, -0.000204288, 25
DataValue, -6.276E-08, 175.998, 1.4062200000000002E-10, -0.00020405, 25
DataValue, -2.6490000000000004E-08, 176.9955, 1.4035100000000002E-10, -0.000203181, 25
DataValue, -1.1610000000000001E-08, 177.9975, 1.39955E-10, -0.00020337800000000002, 25
DataValue, 1.679E-08, 179.001, 1.39611E-10, -0.00020272900000000002, 25
DataValue, 1.0140000000000002E-08, 180.0015, 1.39241E-10, -0.000201909, 25
DataValue, 3.092E-08, 180.9975, 1.3894400000000002E-10, -0.00020161200000000002, 25
DataValue, -3.835E-08, 181.995, 1.38623E-10, -0.00020116600000000002, 25
DataValue, -3.1110000000000005E-08, 183, 1.38289E-10, -0.00020051200000000002, 25
DataValue, -2.054E-08, 183.999, 1.38026E-10, -0.000200353, 25
DataValue, -4.84E-08, 184.995, 1.37599E-10, -0.000200261, 25
DataValue, -8.9200000000000015E-09, 186, 1.3729E-10, -0.000199098, 25
DataValue, -3.067E-08, 187.00050000000002, 1.3689800000000002E-10, -0.000198974, 25
DataValue, -7.048E-08, 187.998, 1.36667E-10, -0.000198208, 25
DataValue, -3.5410000000000004E-08, 188.997, 1.36303E-10, -0.00019808500000000003, 25
DataValue, -6.236000000000001E-08, 189.9975, 1.3597800000000001E-10, -0.000197455, 25
DataValue, 2.01E-08, 190.9965, 1.35673E-10, -0.00019709100000000001, 25
DataValue, 5.9500000000000003E-08, 192.0015, 1.35327E-10, -0.00019642700000000002, 25
DataValue, 9.59E-09, 193.00050000000002, 1.3493900000000002E-10, -0.00019638200000000002, 25
DataValue, 4.907E-08, 193.998, 1.34673E-10, -0.000195922, 25
DataValue, -5.17E-09, 195, 1.3439300000000001E-10, -0.00019509, 25
DataValue, -2.8080000000000004E-08, 196.00050000000002, 1.34046E-10, -0.00019418000000000001, 25
DataValue, 1.4510000000000002E-08, 197.001, 1.33766E-10, -0.000194548, 25
DataValue, -3.0970000000000005E-08, 198, 1.33509E-10, -0.00019378, 25
DataValue, -1.658E-08, 198.999, 1.33172E-10, -0.00019348300000000002, 25
DataValue, -6.2300000000000009E-08, 199.998, 1.3289000000000002E-10, -0.000193009, 25
DataValue, -3.5580000000000005E-08, 200.997, 1.326E-10, -0.000192697, 25
DataValue, -4.132E-08, 201.999, 1.3236000000000002E-10, -0.00019206300000000002, 25
DataValue, -5.2030000000000003E-08, 203.0025, 1.32005E-10, -0.000192016, 25
DataValue, -3.2160000000000005E-08, 204.0015, 1.3173000000000002E-10, -0.00019168600000000002, 25
DataValue, -2.8370000000000002E-08, 204.999, 1.3146200000000002E-10, -0.000190984, 25
DataValue, -6.596E-08, 206.001, 1.3118100000000002E-10, -0.000190525, 25
DataValue, 2.504E-08, 207.00300000000001, 1.30929E-10, -0.00019011900000000001, 25
DataValue, -3.6400000000000003E-09, 208.00050000000002, 1.30677E-10, -0.00019, 25
DataValue, 2.0130000000000002E-08, 209.01, 1.3037100000000002E-10, -0.00018975600000000002, 25
DataValue, 2.4250000000000002E-08, 210, 1.30119E-10, -0.00018909300000000001, 25
DataValue, -2.4130000000000002E-08, 211.00050000000002, 1.2985600000000002E-10, -0.00018902100000000002, 25
DataValue, -4.048E-08, 211.995, 1.2961500000000002E-10, -0.00018832900000000002, 25
DataValue, 5.6170000000000006E-08, 213.0015, 1.29279E-10, -0.00018772500000000002, 25
DataValue, 2.6520000000000002E-08, 214.002, 1.29005E-10, -0.00018786, 25
DataValue, -2.4140000000000003E-08, 214.998, 1.28802E-10, -0.00018723100000000002, 25
DataValue, 2.2760000000000003E-08, 216.0015, 1.28511E-10, -0.00018714800000000002, 25
DataValue, 3.3900000000000005E-09, 217.00050000000002, 1.2826400000000001E-10, -0.000187039, 25
DataValue, -4.3880000000000006E-08, 217.998, 1.27949E-10, -0.000186486, 25
DataValue, 6.4000000000000006E-10, 219.0045, 1.27765E-10, -0.00018594500000000002, 25
DataValue, -2.8980000000000002E-08, 219.999, 1.2750200000000002E-10, -0.000185448, 25
DataValue, -3.521E-08, 220.998, 1.27214E-10, -0.00018481400000000002, 25
DataValue, -7.8200000000000015E-09, 222.0045, 1.26979E-10, -0.000184479, 25
DataValue, -1.902E-08, 222.99450000000002, 1.26666E-10, -0.000184341, 25
DataValue, -6.491E-08, 223.99800000000002, 1.2643500000000001E-10, -0.00018407200000000002, 25
DataValue, -8.2670000000000012E-08, 225.00300000000001, 1.2622700000000001E-10, -0.000183968, 25
DataValue, -2.6580000000000004E-08, 225.999, 1.2599800000000001E-10, -0.00018331800000000002, 25
DataValue, -4.523E-08, 226.9965, 1.25711E-10, -0.000182487, 25
DataValue, 3.445E-08, 228, 1.25497E-10, -0.000182516, 25
DataValue, -1.7600000000000001E-09, 228.999, 1.2530800000000001E-10, -0.00018206100000000002, 25
DataValue, -3.7750000000000004E-08, 230.001, 1.2495900000000002E-10, -0.000182215, 25
DataValue, 3.3200000000000006E-08, 230.9985, 1.24809E-10, -0.00018149500000000002, 25
DataValue, 1.539E-08, 232.0035, 1.24547E-10, -0.00018115700000000001, 25
