
SetupTitle, Cds
ApplicationTest, Cds, Public
TestParameter, Name, Memo, IntegTime, Frequency, OscLevel, Scale, Drain, VdBias, VdStart, VdStop, VdLinearStep, IdLimit, HoldTime, DelayTime, IdMinRange
TestParameter, Value, , SHORT, 100000, 0.025, LINEAR, CMU1:MF	MFCMU, SMU6:HV	HVSMU, 0, 1000, 1, 0.004, 0, 0.08, 10uA
DutParameter, Name, Polarity, Temp, YAxisCdsMin, YAxisCdsMax
DutParameter, Value, 1, 25, 1E-12, 1E-09
MetaData, TestRecord.EntryPoint, true
MetaData, TestRecord.RecordTime, 04/22/2021 10:26:13
MetaData, TestRecord.TestTarget, 
MetaData, TestRecord.IterationIndex, 32
MetaData, TestRecord.Preservation, true
MetaData, TestRecord.Flag, 
MetaData, TestRecord.Remarks, 
MetaData, TestRecord.LinkKey, 3a56dce8-691f-440f-801f-be0bc61e5879
Dimension1, 1001, 1001, 1001, 1001, 1001
Dimension2, 1, 1, 1, 1, 1
DataName, Ids, Vdrain, Cds, G, Ta
DataValue, 1.2350000000000001E-08, 0.006, 4.33347E-09, -6.9672E-05, 25
DataValue, -2.22E-09, 0.9975, 3.6931E-09, -5.95323E-05, 25
DataValue, 5.1220000000000005E-08, 1.998, 3.32786E-09, -5.3317000000000005E-05, 25
DataValue, 5.6820000000000009E-08, 3.003, 3.05827E-09, -4.8966E-05, 25
DataValue, -5.1940000000000007E-08, 4.002, 2.84896E-09, -4.55667E-05, 25
DataValue, 5.0200000000000006E-08, 4.9995, 2.67722E-09, -4.35092E-05, 25
DataValue, -6.2800000000000006E-09, 6.003, 2.5347E-09, -4.0522700000000004E-05, 25
DataValue, -6.4650000000000013E-08, 7.002, 2.4108E-09, -3.84236E-05, 25
DataValue, 4.2950000000000004E-08, 8.001, 2.30287E-09, -3.7515800000000004E-05, 25
DataValue, -5.8720000000000006E-08, 9.0015, 2.20802E-09, -3.55519E-05, 25
DataValue, -2.7230000000000003E-08, 10.0005, 2.12225E-09, -3.40689E-05, 25
DataValue, 1.506E-08, 10.9995, 2.04461E-09, -3.2985300000000004E-05, 25
DataValue, -4.038E-08, 11.997, 1.97213E-09, -3.1637E-05, 25
DataValue, 4.69E-09, 13.0005, 1.8973E-09, -3.04281E-05, 25
DataValue, 4.886E-08, 13.999500000000001, 1.81135E-09, -2.76015E-05, 25
DataValue, -6.148E-08, 14.9985, 1.63968E-09, -2.5442500000000002E-05, 25
DataValue, 1.4830000000000001E-08, 15.999, 1.57705E-09, -2.5066E-05, 25
DataValue, 5.1870000000000007E-08, 17.001, 1.53108E-09, -2.45869E-05, 25
DataValue, 2.258E-08, 18.0015, 1.49003E-09, -2.3915E-05, 25
DataValue, -4.718E-08, 18.996, 1.45297E-09, -2.31945E-05, 25
DataValue, 2.031E-08, 19.998, 1.41911E-09, -2.2545000000000002E-05, 25
DataValue, 9.45E-09, 21.0045, 1.38743E-09, -2.2027400000000002E-05, 25
DataValue, -3.0030000000000005E-08, 22.005, 1.35789E-09, -2.18805E-05, 25
DataValue, -5.1430000000000005E-08, 22.9995, 1.33043E-09, -2.13304E-05, 25
DataValue, -2.5480000000000004E-08, 24.0045, 1.3051E-09, -2.1075500000000002E-05, 25
DataValue, 8.6700000000000009E-09, 24.999, 1.28078E-09, -2.0532E-05, 25
DataValue, -1.6310000000000002E-08, 25.9965, 1.25827E-09, -2.04396E-05, 25
DataValue, 7.4400000000000008E-09, 27, 1.23656E-09, -1.9799E-05, 25
DataValue, 3.2790000000000004E-08, 27.999000000000002, 1.21639E-09, -1.94683E-05, 25
DataValue, -2.49E-08, 29.0025, 1.19727E-09, -1.9089E-05, 25
DataValue, -2.2990000000000003E-08, 30.0015, 1.17866E-09, -1.8634E-05, 25
DataValue, -4.21E-09, 30.997500000000002, 1.16096E-09, -1.84342E-05, 25
DataValue, -3.057E-08, 31.9995, 1.14466E-09, -1.80539E-05, 25
DataValue, -2.6230000000000004E-08, 32.9985, 1.12842E-09, -1.8122700000000002E-05, 25
DataValue, -2.07E-09, 34.002, 1.11294E-09, -1.7710100000000002E-05, 25
DataValue, 3.395E-08, 34.998, 1.09826E-09, -1.74755E-05, 25
DataValue, 3.3040000000000003E-08, 36, 1.08431E-09, -1.72025E-05, 25
DataValue, 2.1370000000000002E-08, 37.005, 1.07068E-09, -1.70116E-05, 25
DataValue, 2.139E-08, 37.998, 1.05724E-09, -1.69434E-05, 25
DataValue, -7.68E-09, 39.006, 1.04553E-09, -1.64931E-05, 25
DataValue, -2.5900000000000004E-08, 40.002, 1.03295E-09, -1.64907E-05, 25
DataValue, 1.827E-08, 40.9995, 1.02155E-09, -1.6376700000000002E-05, 25
DataValue, -8.0530000000000007E-08, 42, 1.01031E-09, -1.60215E-05, 25
DataValue, 1.6320000000000003E-08, 43.0035, 9.98733E-10, -1.5805000000000002E-05, 25
DataValue, 5.081E-08, 44.004, 9.8830700000000015E-10, -1.56446E-05, 25
DataValue, -9.276E-08, 44.9925, 9.7817900000000012E-10, -1.55395E-05, 25
DataValue, 7.656E-08, 46.002, 9.6879400000000016E-10, -1.5259E-05, 25
DataValue, -5.0090000000000007E-08, 46.9995, 9.58946E-10, -1.53525E-05, 25
DataValue, -6.423E-08, 47.9955, 9.4956500000000012E-10, -1.51319E-05, 25
DataValue, 6.283E-08, 49.0005, 9.4084E-10, -1.51544E-05, 25
DataValue, -5.7230000000000004E-08, 50.001, 9.3167200000000017E-10, -1.51523E-05, 25
DataValue, 6.1870000000000011E-08, 51.0045, 9.2298300000000008E-10, -1.4626400000000001E-05, 25
DataValue, 1.2680000000000002E-08, 51.999, 9.15097E-10, -1.49815E-05, 25
DataValue, -2.8760000000000004E-08, 52.9995, 9.06828E-10, -1.4553800000000001E-05, 25
DataValue, 6.2300000000000009E-08, 53.9985, 8.9893500000000006E-10, -1.4319600000000001E-05, 25
DataValue, -6.5660000000000007E-08, 55.002, 8.912740000000001E-10, -1.43016E-05, 25
DataValue, -8.34E-08, 55.996500000000005, 8.8394400000000009E-10, -1.4455000000000001E-05, 25
DataValue, 3.828E-08, 56.9985, 8.7702600000000009E-10, -1.38372E-05, 25
DataValue, -2.5020000000000002E-08, 58.0005, 8.6936900000000006E-10, -1.38735E-05, 25
DataValue, 1.1312000000000001E-07, 59.0025, 8.6317300000000005E-10, -1.40785E-05, 25
DataValue, -5.5610000000000006E-08, 60.0015, 8.55553E-10, -1.3877800000000001E-05, 25
DataValue, -4.7260000000000008E-08, 61.0005, 8.4946300000000011E-10, -1.36315E-05, 25
DataValue, 3.6550000000000006E-08, 62.002500000000005, 8.42705E-10, -1.35708E-05, 25
DataValue, -2.0150000000000002E-08, 63, 8.366130000000001E-10, -1.3148400000000001E-05, 25
DataValue, -1.944E-08, 64.0005, 8.3008800000000006E-10, -1.31689E-05, 25
DataValue, 3.3730000000000005E-08, 64.9995, 8.2476300000000008E-10, -1.30288E-05, 25
DataValue, -4.6890000000000005E-08, 65.9985, 8.18682E-10, -1.31133E-05, 25
DataValue, 7.7530000000000007E-08, 67.0065, 8.1308100000000006E-10, -1.31496E-05, 25
DataValue, -6.6200000000000007E-09, 68.001, 8.0740800000000009E-10, -1.29639E-05, 25
DataValue, 3.3300000000000003E-09, 68.997, 8.0188500000000007E-10, -1.27269E-05, 25
DataValue, 7.4500000000000005E-09, 70.0005, 7.9682100000000005E-10, -1.28445E-05, 25
DataValue, -6.0000000000000008E-08, 71.004, 7.91299E-10, -1.25262E-05, 25
DataValue, -3.452E-08, 71.9985, 7.8589100000000007E-10, -1.25602E-05, 25
DataValue, 1.525E-08, 73.0035, 7.80823E-10, -1.2738E-05, 25
DataValue, -3.894E-08, 74.001, 7.76194E-10, -1.22896E-05, 25
DataValue, 5.7430000000000005E-08, 75.001500000000007, 7.71505E-10, -1.24535E-05, 25
DataValue, -2.3440000000000003E-08, 75.999, 7.6674300000000011E-10, -1.23128E-05, 25
DataValue, -2.3760000000000002E-08, 76.9995, 7.61852E-10, -1.20387E-05, 25
DataValue, -1.9730000000000002E-08, 78.001500000000007, 7.5702200000000006E-10, -1.24188E-05, 25
DataValue, -1.984E-08, 78.9975, 7.5242000000000008E-10, -1.21098E-05, 25
DataValue, 5.793E-08, 79.9965, 7.48078E-10, -1.20301E-05, 25
DataValue, 1.504E-08, 80.9985, 7.4390900000000006E-10, -1.1867E-05, 25
DataValue, -1.57E-08, 81.999, 7.39576E-10, -1.17412E-05, 25
DataValue, 4.3500000000000006E-08, 82.998, 7.3517300000000008E-10, -1.18237E-05, 25
DataValue, -6.776E-08, 83.9985, 7.3143E-10, -1.1919300000000001E-05, 25
DataValue, 5.3750000000000008E-08, 84.9975, 7.26933E-10, -1.18384E-05, 25
DataValue, -5.8810000000000008E-08, 85.998, 7.23152E-10, -1.15811E-05, 25
DataValue, -2.4170000000000004E-08, 87, 7.1883900000000007E-10, -1.1487400000000001E-05, 25
DataValue, 1.0630000000000002E-08, 88.0005, 7.1542800000000007E-10, -1.1398500000000001E-05, 25
DataValue, -7.265E-08, 89.0025, 7.1152400000000008E-10, -1.1434000000000001E-05, 25
DataValue, 7.2430000000000007E-08, 90, 7.0785000000000009E-10, -1.15449E-05, 25
DataValue, 2.6100000000000003E-09, 91.002, 7.040780000000001E-10, -1.1250100000000001E-05, 25
DataValue, 3.6410000000000006E-08, 91.9995, 7.00512E-10, -1.11494E-05, 25
DataValue, 3.088E-08, 93, 6.96981E-10, -1.1028E-05, 25
DataValue, -1.5500000000000003E-08, 94.005, 6.9322500000000005E-10, -1.10637E-05, 25
DataValue, -6.6400000000000011E-09, 95.004, 6.90137E-10, -1.09649E-05, 25
DataValue, 8.3000000000000015E-09, 95.994, 6.8679000000000007E-10, -1.08938E-05, 25
DataValue, -5.2300000000000005E-08, 97.0005, 6.83036E-10, -1.0758100000000001E-05, 25
DataValue, 3.358E-08, 97.9995, 6.8E-10, -1.0909400000000001E-05, 25
DataValue, -2.0830000000000002E-08, 98.9985, 6.7688300000000007E-10, -1.10544E-05, 25
DataValue, -4.0500000000000005E-08, 100.002, 6.7320900000000009E-10, -1.05864E-05, 25
DataValue, 2.736E-08, 101.001, 6.70126E-10, -1.08451E-05, 25
DataValue, -9.1420000000000007E-08, 102.00150000000001, 6.6733700000000007E-10, -1.04479E-05, 25
DataValue, -7.8130000000000012E-08, 102.996, 6.6382000000000009E-10, -1.05458E-05, 25
DataValue, 1.068E-08, 104.001, 6.612410000000001E-10, -1.06295E-05, 25
DataValue, -5.57E-08, 105, 6.5793500000000007E-10, -1.05614E-05, 25
DataValue, 1.17E-08, 105.9975, 6.55124E-10, -1.04162E-05, 25
DataValue, -3.4150000000000005E-08, 107.001, 6.52035E-10, -1.03549E-05, 25
DataValue, -6.5440000000000009E-08, 108, 6.48904E-10, -1.04872E-05, 25
DataValue, -4.3900000000000008E-09, 109.0005, 6.4645100000000009E-10, -1.02539E-05, 25
DataValue, -4.4380000000000004E-08, 109.9995, 6.4373800000000008E-10, -1.04931E-05, 25
DataValue, -5.9200000000000007E-08, 110.9985, 6.41842E-10, -1.03128E-05, 25
DataValue, 3.032E-08, 112.002, 6.3846000000000009E-10, -1.0211000000000001E-05, 25
DataValue, -8.6650000000000012E-08, 112.995, 6.3590400000000008E-10, -1.03085E-05, 25
DataValue, 7.4360000000000012E-08, 113.9955, 6.326880000000001E-10, -9.97512E-06, 25
DataValue, -9.52E-09, 114.99900000000001, 6.30173E-10, -9.95477E-06, 25
DataValue, -4.7450000000000005E-08, 115.9965, 6.279270000000001E-10, -1.02785E-05, 25
DataValue, 4.4140000000000004E-08, 117.00150000000001, 6.2523400000000006E-10, -9.845279999999999E-06, 25
DataValue, -9.8850000000000015E-08, 118.0035, 6.2274300000000009E-10, -9.7332E-06, 25
DataValue, 2.8310000000000003E-08, 118.9965, 6.2040500000000009E-10, -1.0072800000000001E-05, 25
DataValue, 3.5960000000000006E-08, 120.00150000000001, 6.18094E-10, -9.7644199999999989E-06, 25
DataValue, -4.293E-08, 121.0005, 6.1528200000000009E-10, -9.7373899999999986E-06, 25
DataValue, 3.5020000000000005E-08, 122.001, 6.13141E-10, -9.90869E-06, 25
DataValue, -2.368E-08, 123.00150000000001, 6.1090500000000007E-10, -9.82582E-06, 25
DataValue, -3.375E-08, 123.99900000000001, 6.084730000000001E-10, -9.66778E-06, 25
DataValue, -2.7560000000000003E-08, 124.9995, 6.0609400000000006E-10, -9.4913E-06, 25
DataValue, -2.5570000000000003E-08, 125.9985, 6.03608E-10, -9.6190199999999986E-06, 25
DataValue, 1.574E-08, 126.99600000000001, 6.0152800000000008E-10, -9.445829999999999E-06, 25
DataValue, -9.304E-08, 127.998, 5.9927300000000007E-10, -1.00258E-05, 25
DataValue, -1.2920000000000001E-08, 128.997, 5.96944E-10, -9.649319999999999E-06, 25
DataValue, 3.989E-08, 129.9975, 5.95185E-10, -9.37912E-06, 25
DataValue, -5.7900000000000009E-09, 130.9995, 5.9292100000000007E-10, -9.4709199999999991E-06, 25
DataValue, -1.83E-09, 132.0015, 5.90785E-10, -9.40467E-06, 25
DataValue, 6.064E-08, 133.00050000000002, 5.88371E-10, -9.456799999999999E-06, 25
DataValue, -2.7440000000000003E-08, 134.001, 5.8647200000000006E-10, -9.49073E-06, 25
DataValue, 3.5850000000000007E-08, 135.0015, 5.84332E-10, -9.36184E-06, 25
DataValue, -3.8370000000000005E-08, 136.00050000000002, 5.8207300000000006E-10, -9.2988099999999988E-06, 25
DataValue, 1.129E-08, 137.001, 5.8018300000000008E-10, -9.2964899999999991E-06, 25
DataValue, 5.0240000000000005E-08, 138, 5.7814500000000008E-10, -9.15231E-06, 25
DataValue, -3.598E-08, 139.00050000000002, 5.76141E-10, -9.04314E-06, 25
DataValue, 1.4000000000000001E-09, 140.0025, 5.74195E-10, -9.11062E-06, 25
DataValue, -1.82E-08, 141, 5.72049E-10, -9.3422099999999991E-06, 25
DataValue, -1.996E-08, 141.999, 5.7063500000000007E-10, -9.06891E-06, 25
DataValue, 5.4760000000000009E-08, 143.004, 5.68662E-10, -9.19426E-06, 25
DataValue, -7.6670000000000011E-08, 143.9955, 5.6669500000000008E-10, -9.1129499999999989E-06, 25
DataValue, -4.08E-08, 144.9975, 5.6491300000000009E-10, -8.8805199999999988E-06, 25
DataValue, -2.047E-08, 145.9995, 5.6306800000000009E-10, -9.181289999999999E-06, 25
DataValue, 1.527E-08, 146.9985, 5.6107900000000008E-10, -8.8062499999999989E-06, 25
DataValue, 3.417E-08, 148.005, 5.5930600000000007E-10, -9.08642E-06, 25
DataValue, 8.5100000000000014E-09, 149.004, 5.5783E-10, -9.07863E-06, 25
DataValue, -3.9630000000000005E-08, 150, 5.5583600000000009E-10, -8.89582E-06, 25
DataValue, 1.534E-08, 150.999, 5.54202E-10, -8.9302599999999988E-06, 25
DataValue, -2.5900000000000004E-09, 152.004, 5.5222100000000009E-10, -8.9251799999999991E-06, 25
DataValue, -1.2410000000000002E-08, 153.00300000000001, 5.50247E-10, -8.58458E-06, 25
DataValue, 2.893E-08, 154.005, 5.4867600000000008E-10, -8.93339E-06, 25
DataValue, -5.8310000000000004E-08, 154.998, 5.4728700000000006E-10, -8.90299E-06, 25
DataValue, 7.7500000000000016E-09, 156, 5.4570000000000009E-10, -8.78077E-06, 25
DataValue, -5.8550000000000005E-08, 157.00050000000002, 5.4390300000000008E-10, -8.83121E-06, 25
DataValue, -2.5450000000000003E-08, 158.004, 5.4226100000000006E-10, -8.7989399999999991E-06, 25
DataValue, -5.6E-10, 159.0015, 5.4084300000000009E-10, -8.3224999999999987E-06, 25
DataValue, -3.001E-08, 159.999, 5.3899800000000009E-10, -8.82467E-06, 25
DataValue, -3.4850000000000004E-08, 160.9965, 5.3753800000000007E-10, -8.3483699999999992E-06, 25
DataValue, -3.2710000000000006E-08, 162.0015, 5.3616300000000006E-10, -8.30236E-06, 25
DataValue, -1.3300000000000002E-09, 163.00050000000002, 5.34323E-10, -8.4294E-06, 25
DataValue, -9.9400000000000017E-09, 163.998, 5.32724E-10, -8.5456299999999987E-06, 25
DataValue, -3.5440000000000005E-08, 165.0015, 5.30915E-10, -8.65854E-06, 25
DataValue, 1.1380000000000002E-08, 165.999, 5.29441E-10, -8.42808E-06, 25
DataValue, 1.157E-08, 167.001, 5.28044E-10, -8.63139E-06, 25
DataValue, -2.441E-08, 167.9955, 5.26742E-10, -8.43847E-06, 25
DataValue, -5.75E-09, 168.999, 5.2531500000000006E-10, -8.12867E-06, 25
DataValue, 3.368E-08, 169.9995, 5.24006E-10, -8.58161E-06, 25
DataValue, -5.8670000000000009E-08, 170.997, 5.2214800000000009E-10, -8.3083E-06, 25
DataValue, 1.7800000000000003E-09, 172.002, 5.20922E-10, -8.47002E-06, 25
DataValue, -2.2000000000000002E-08, 173.004, 5.19431E-10, -8.26566E-06, 25
DataValue, 1.923E-08, 174.00300000000001, 5.1792600000000006E-10, -8.35203E-06, 25
DataValue, 2.4860000000000002E-08, 175.00050000000002, 5.17331E-10, -8.2342099999999989E-06, 25
DataValue, -1.2340000000000002E-08, 175.9995, 5.15257E-10, -8.3551699999999988E-06, 25
DataValue, -8.95E-09, 177.006, 5.1392500000000006E-10, -8.28048E-06, 25
DataValue, -9.322000000000001E-08, 177.999, 5.12256E-10, -8.11299E-06, 25
DataValue, 3.902E-08, 178.9995, 5.11461E-10, -8.37425E-06, 25
DataValue, -4.313E-08, 179.9985, 5.0972100000000008E-10, -8.20506E-06, 25
DataValue, -4.4860000000000006E-08, 181.002, 5.08434E-10, -7.99623E-06, 25
DataValue, -8.1100000000000012E-09, 181.9995, 5.07013E-10, -7.93655E-06, 25
DataValue, -6.676000000000001E-08, 182.997, 5.0582700000000008E-10, -8.3340299999999989E-06, 25
DataValue, -2.7800000000000003E-09, 184.0035, 5.0457200000000006E-10, -8.0223399999999988E-06, 25
DataValue, 5.1320000000000006E-08, 185.001, 5.03242E-10, -8.00894E-06, 25
DataValue, -3.036E-08, 185.9985, 5.01816E-10, -7.95275E-06, 25
DataValue, 4.167E-08, 187.00050000000002, 5.0101900000000009E-10, -8.0142999999999988E-06, 25
DataValue, -6.1950000000000009E-08, 187.998, 4.99496E-10, -8.03935E-06, 25
DataValue, -6.008E-08, 188.9955, 4.97904E-10, -8.02312E-06, 25
DataValue, -4.2320000000000004E-08, 190.00050000000002, 4.9682300000000007E-10, -7.9495499999999991E-06, 25
DataValue, -2.7910000000000003E-08, 191.001, 4.9544700000000006E-10, -7.80283E-06, 25
DataValue, 3.623E-08, 191.9985, 4.94368E-10, -8.006989999999999E-06, 25
DataValue, -1.3450000000000001E-08, 192.999, 4.9314500000000006E-10, -7.93891E-06, 25
DataValue, -4.8670000000000005E-08, 194.0025, 4.9195200000000006E-10, -7.957369999999999E-06, 25
DataValue, -1.039E-08, 194.997, 4.9075800000000005E-10, -7.85015E-06, 25
DataValue, -9.5360000000000015E-08, 196.00050000000002, 4.8937500000000008E-10, -7.71967E-06, 25
DataValue, -7.4900000000000012E-09, 196.9995, 4.8815800000000008E-10, -7.69291E-06, 25
DataValue, 3.316E-08, 198.0015, 4.87247E-10, -7.6939699999999991E-06, 25
DataValue, -5.05E-08, 198.999, 4.86185E-10, -7.65944E-06, 25
DataValue, 4.28E-09, 199.998, 4.84824E-10, -7.52363E-06, 25
DataValue, -1.4040000000000002E-08, 200.9985, 4.83933E-10, -7.58113E-06, 25
DataValue, -6.4800000000000008E-09, 202.00050000000002, 4.82402E-10, -7.69371E-06, 25
DataValue, 5.2430000000000007E-08, 203.001, 4.81476E-10, -7.74519E-06, 25
DataValue, -4.8130000000000008E-08, 203.9985, 4.80572E-10, -7.49296E-06, 25
DataValue, 2.79E-09, 205.00050000000002, 4.79194E-10, -7.57022E-06, 25
DataValue, 4.7910000000000004E-08, 205.9995, 4.78408E-10, -7.68015E-06, 25
DataValue, -2.8490000000000002E-08, 207, 4.77277E-10, -7.5682999999999992E-06, 25
DataValue, 1.621E-08, 208.00050000000002, 4.75697E-10, -7.91456E-06, 25
DataValue, -4.8480000000000008E-08, 208.998, 4.74709E-10, -7.6480999999999988E-06, 25
DataValue, 8.1000000000000014E-09, 209.9955, 4.7345100000000006E-10, -7.65467E-06, 25
DataValue, 1.231E-08, 211.00050000000002, 4.72481E-10, -7.65169E-06, 25
DataValue, -1.4810000000000002E-08, 212.0025, 4.71562E-10, -7.55034E-06, 25
DataValue, 3.7140000000000007E-08, 212.9985, 4.7046400000000008E-10, -7.51388E-06, 25
DataValue, -3.0000000000000004E-09, 214.002, 4.69573E-10, -7.5315E-06, 25
DataValue, -2.2850000000000003E-08, 215.001, 4.689E-10, -7.55982E-06, 25
DataValue, 2.1650000000000002E-08, 215.9985, 4.6747400000000008E-10, -7.54484E-06, 25
DataValue, 2.0980000000000003E-08, 216.999, 4.6602800000000008E-10, -7.66823E-06, 25
DataValue, -2.0560000000000003E-08, 217.9965, 4.64978E-10, -7.24761E-06, 25
DataValue, 6.74E-09, 218.9955, 4.6443100000000003E-10, -7.3567499999999995E-06, 25
DataValue, -3.053E-08, 219.9975, 4.63587E-10, -7.3182099999999995E-06, 25
DataValue, -1.0040000000000001E-08, 221.004, 4.62677E-10, -7.3295399999999993E-06, 25
DataValue, 1.129E-08, 221.997, 4.6137800000000005E-10, -7.44944E-06, 25
DataValue, -9.900000000000001E-09, 223.00050000000002, 4.60494E-10, -7.2515299999999995E-06, 25
DataValue, -5.0800000000000007E-09, 224.0025, 4.5958800000000005E-10, -7.24748E-06, 25
DataValue, -1.846E-08, 224.997, 4.58506E-10, -7.4506199999999991E-06, 25
DataValue, -2.0480000000000002E-08, 226.002, 4.5736500000000005E-10, -7.12241E-06, 25
DataValue, 2.2800000000000004E-09, 226.9995, 4.56795E-10, -7.54143E-06, 25
DataValue, -3.933E-08, 228.00300000000001, 4.55486E-10, -7.433E-06, 25
DataValue, -6.7300000000000005E-09, 229.00050000000002, 4.5481900000000003E-10, -7.3559399999999996E-06, 25
DataValue, -2.5080000000000004E-08, 229.995, 4.5387300000000003E-10, -7.2285599999999994E-06, 25
DataValue, 9.5E-09, 231.00300000000001, 4.5323100000000006E-10, -7.20102E-06, 25
DataValue, -3.2230000000000005E-08, 231.999, 4.5148100000000004E-10, -7.1858999999999993E-06, 25
DataValue, 2.7550000000000002E-08, 233.001, 4.51021E-10, -7.2486599999999995E-06, 25
DataValue, -5.2960000000000006E-08, 234, 4.4986700000000005E-10, -7.43047E-06, 25
DataValue, -1.4530000000000002E-08, 235.002, 4.4934700000000003E-10, -7.07598E-06, 25
DataValue, -7.3620000000000007E-08, 235.9995, 4.47929E-10, -7.5955599999999995E-06, 25
DataValue, -3.25E-09, 237, 4.4718600000000005E-10, -7.28361E-06, 25
DataValue, -1.9830000000000003E-08, 237.999, 4.4681900000000006E-10, -7.08508E-06, 25
