
SetupTitle, ID-VGS
PrimitiveTest, Multi Channel I/V Sweep
TestParameter, Channel.UnitType, SMU, SMU
TestParameter, Channel.Unit, SMU2:MC, SMU3:UHC500
TestParameter, Channel.IName, IG, ID
TestParameter, Channel.VName, VGS, VDS
TestParameter, Channel.Mode, VPULSE, VPULSE
TestParameter, Channel.Func, VAR1, CONST
TestParameter, Channel.Index, 
TestParameter, Channel.Time, 
TestParameter, Measurement.Port.Unit, SMU2:MC, SMU3:UHC500
TestParameter, Measurement.Port.SeriesResistor, NONE, NONE
TestParameter, Measurement.Port.Filter, OFF, OFF
TestParameter, Measurement.Port.OutputVoltageComparison, 0, 0
TestParameter, Measurement.Primary.Start, 0
TestParameter, Measurement.Primary.Stop, 10
TestParameter, Measurement.Primary.Compliance, 0.099999999999999992
TestParameter, Measurement.Primary.PowerCompliance, 0
TestParameter, Measurement.Primary.Locus, Single
TestParameter, Measurement.Primary.Scale, LINEAR
TestParameter, Measurement.Primary.Count, 2001
TestParameter, Measurement.Aborting.Condition, CONTINUE AT ANY
TestParameter, Measurement.PostOutput.Value, START
TestParameter, Measurement.PostOutput.Retention, OFF
TestParameter, Measurement.Bias.Source, 0, 3
TestParameter, Measurement.Bias.Compliance, 0.099999999999999992, 5
TestParameter, Measurement.Pulse.Delay, 0, 9.9999999999999991E-05
TestParameter, Measurement.Pulse.Duration, 0.001, 4.9999999999999996E-05
TestParameter, Measurement.Pulse.Base, 0, 0
TestParameter, Measurement.Pulse.Period, 0
TestParameter, Measurement.Pulse.MeasurementDelay, 0
TestParameter, Measurement.Pulse.AveragingCount, 1
TestParameter, Measurement.Monitor.Unit, SMU2:MC, SMU3:UHC500
TestParameter, Measurement.Monitor.Adc, HS ADC, HS ADC
TestParameter, Measurement.Monitor.Measurement, Force and Compliance Sides, Force and Compliance Sides
TestParameter, Measurement.Timing.Hold, 0
TestParameter, Measurement.Timing.Delay, 0
TestParameter, Measurement.Adc.HighSpeed.Mode, TIME
TestParameter, Measurement.Adc.HighSpeed.Coeff, 9.9999999999999991E-06
TestParameter, Measurement.Adc.HighResolution.AutoZero, OFF
TestParameter, Measurement.Adc.HighResolution.Mode, AUTO
TestParameter, Measurement.Adc.HighResolution.Coeff, 6
TestParameter, Measurement.WaitTime.Source.Coeff, 1
TestParameter, Measurement.WaitTime.Source.Offset, 0
TestParameter, Measurement.WaitTime.Monitor.Coeff, 1
TestParameter, Measurement.WaitTime.Monitor.Offset, 0
TestParameter, Output.Graph.Enabled, true
TestParameter, Output.Graph.AutoScaling, false
TestParameter, Output.Graph.XAxis.Data, VGS
TestParameter, Output.Graph.XAxis.Scale, Linear
TestParameter, Output.Graph.XAxis.Left, -5.4
TestParameter, Output.Graph.XAxis.Right, 12.6
TestParameter, Output.Graph.XAxis.RunTimeAutoScale, false
TestParameter, Output.Graph.YAxis.Data, ID
TestParameter, Output.Graph.YAxis.Scale, Linear
TestParameter, Output.Graph.YAxis.Bottom, 0
TestParameter, Output.Graph.YAxis.Top, 10
TestParameter, Output.Graph.YAxis.Group, 
TestParameter, Output.Graph.YAxis.RunTimeAutoScale, false
TestParameter, Output.List.Data, VGS, ID
TestParameter, AutoAnalysis.Interpolation, false
TestParameter, AutoAnalysis.Line1.Enabled, false
TestParameter, AutoAnalysis.Line1.Type, 1
TestParameter, AutoAnalysis.Line1.Fix, True
TestParameter, AutoAnalysis.Line1.YAxis, 0
TestParameter, AutoAnalysis.Line1.Point1.Type, 0
TestParameter, AutoAnalysis.Line1.Point1.XY.X, 
TestParameter, AutoAnalysis.Line1.Point1.XY.Y, 
TestParameter, AutoAnalysis.Line1.Point1.Data.Var, 
TestParameter, AutoAnalysis.Line1.Point1.Data.Condition, 
TestParameter, AutoAnalysis.Line1.Point1.Data.Start, false
TestParameter, AutoAnalysis.Line1.Point1.Data.StartVar, 
TestParameter, AutoAnalysis.Line1.Point1.Data.StartCondition, 
TestParameter, AutoAnalysis.Line1.Point2.Type, 0
TestParameter, AutoAnalysis.Line1.Point2.XY.X, 
TestParameter, AutoAnalysis.Line1.Point2.XY.Y, 
TestParameter, AutoAnalysis.Line1.Point2.Data.Var, 
TestParameter, AutoAnalysis.Line1.Point2.Data.Condition, 
TestParameter, AutoAnalysis.Line1.Point2.Data.Start, false
TestParameter, AutoAnalysis.Line1.Point2.Data.StartVar, 
TestParameter, AutoAnalysis.Line1.Point2.Data.StartCondition, 
TestParameter, AutoAnalysis.Line1.GradientExpr, 0
TestParameter, AutoAnalysis.Line2.Enabled, false
TestParameter, AutoAnalysis.Line2.Type, 1
TestParameter, AutoAnalysis.Line2.Fix, True
TestParameter, AutoAnalysis.Line2.YAxis, 0
TestParameter, AutoAnalysis.Line2.Point1.Type, 0
TestParameter, AutoAnalysis.Line2.Point1.XY.X, 
TestParameter, AutoAnalysis.Line2.Point1.XY.Y, 
TestParameter, AutoAnalysis.Line2.Point1.Data.Var, 
TestParameter, AutoAnalysis.Line2.Point1.Data.Condition, 
TestParameter, AutoAnalysis.Line2.Point1.Data.Start, false
TestParameter, AutoAnalysis.Line2.Point1.Data.StartVar, 
TestParameter, AutoAnalysis.Line2.Point1.Data.StartCondition, 
TestParameter, AutoAnalysis.Line2.Point2.Type, 0
TestParameter, AutoAnalysis.Line2.Point2.XY.X, 
TestParameter, AutoAnalysis.Line2.Point2.XY.Y, 
TestParameter, AutoAnalysis.Line2.Point2.Data.Var, 
TestParameter, AutoAnalysis.Line2.Point2.Data.Condition, 
TestParameter, AutoAnalysis.Line2.Point2.Data.Start, false
TestParameter, AutoAnalysis.Line2.Point2.Data.StartVar, 
TestParameter, AutoAnalysis.Line2.Point2.Data.StartCondition, 
TestParameter, AutoAnalysis.Line2.GradientExpr, 0
TestParameter, AutoAnalysis.Marker.Enabled, false
TestParameter, AutoAnalysis.Marker.Data.Var, 
TestParameter, AutoAnalysis.Marker.Data.Condition, 
TestParameter, AutoAnalysis.Marker.Data.Start, false
TestParameter, AutoAnalysis.Marker.Data.StartVar, 
TestParameter, AutoAnalysis.Marker.Data.StartCondition, 
MetaData, TestRecord.EntryPoint, true
MetaData, TestRecord.RecordTime, 04/17/2021 09:59:55
MetaData, TestRecord.TestTarget, 
MetaData, TestRecord.IterationIndex, 1
MetaData, TestRecord.Preservation, true
MetaData, TestRecord.Flag, 
MetaData, TestRecord.Remarks, 
MetaData, TestRecord.LinkKey, 86463392-974e-4eeb-a571-562de3595f93
Dimension1, 2001, 2001
Dimension2, 1, 1
DataName, VGS, ID
DataValue, -0.0006600000000000001, -0.032
DataValue, 0.005, -0.006
DataValue, 0.01054, -0.043500000000000004
DataValue, 0.015420000000000001, -0.0025
DataValue, 0.01924, -0.0385
DataValue, 0.02474, -0.024
DataValue, 0.02936, -0.0545
DataValue, 0.035140000000000005, -0.0205
DataValue, 0.04, -0.021500000000000002
DataValue, 0.045000000000000005, -0.0075
DataValue, 0.050240000000000007, -0.043500000000000004
DataValue, 0.054400000000000004, -0.03
DataValue, 0.059420000000000008, -0.031
DataValue, 0.0649, -0.0315
DataValue, 0.07012, -0.0305
DataValue, 0.07546, -0.025
DataValue, 0.080160000000000009, -0.029
DataValue, 0.085280000000000009, -0.0395
DataValue, 0.089860000000000009, -0.029
DataValue, 0.09494000000000001, -0.032
DataValue, 0.10044, -0.02
DataValue, 0.10478000000000001, -0.0445
DataValue, 0.11000000000000001, -0.0165
DataValue, 0.11484000000000001, -0.0415
DataValue, 0.12014000000000001, -0.029500000000000002
DataValue, 0.12480000000000001, -0.037
DataValue, 0.12974000000000002, -0.015
DataValue, 0.1343, -0.037
DataValue, 0.14062000000000002, -0.0225
DataValue, 0.14488, -0.042
DataValue, 0.15006, -0.0245
DataValue, 0.15548, -0.0305
DataValue, 0.15958, -0.0205
DataValue, 0.16486, -0.033
DataValue, 0.16972, -0.005
DataValue, 0.17490000000000003, -0.029500000000000002
DataValue, 0.17950000000000002, -0.0095
DataValue, 0.18492000000000003, -0.025
DataValue, 0.19042, -0.0275
DataValue, 0.19456, -0.015
DataValue, 0.20004000000000002, -0.033
DataValue, 0.20514000000000002, -0.022
DataValue, 0.20992000000000002, -0.03
DataValue, 0.21554, -0.017
DataValue, 0.22018000000000002, -0.043500000000000004
DataValue, 0.22502000000000003, -0.0165
DataValue, 0.23044, -0.0365
DataValue, 0.23606000000000002, -0.0165
DataValue, 0.24024, -0.037
DataValue, 0.24528000000000003, -0.025
DataValue, 0.25, -0.012
DataValue, 0.25538, -0.046
DataValue, 0.26006, -0.022
DataValue, 0.26494, -0.0405
DataValue, 0.26940000000000003, -0.016
DataValue, 0.27556, -0.0425
DataValue, 0.27968000000000004, -0.0195
DataValue, 0.28506000000000004, -0.0345
DataValue, 0.29024, -0.0225
DataValue, 0.29548, -0.0275
DataValue, 0.30016000000000004, -0.026000000000000002
DataValue, 0.30510000000000004, -0.0285
DataValue, 0.30992000000000003, -0.029
DataValue, 0.31498000000000004, -0.0275
DataValue, 0.32034, -0.039
DataValue, 0.32504000000000005, -0.0285
DataValue, 0.33038, -0.0455
DataValue, 0.33530000000000004, -0.034
DataValue, 0.33994, -0.054
DataValue, 0.34498, -0.0405
DataValue, 0.34990000000000004, -0.0375
DataValue, 0.35472000000000004, -0.032
DataValue, 0.36010000000000003, -0.038
DataValue, 0.36454000000000003, -0.033
DataValue, 0.36962, -0.0415
DataValue, 0.37474, -0.0205
DataValue, 0.37984, -0.0475
DataValue, 0.38492000000000004, -0.0205
DataValue, 0.38958000000000004, -0.0495
DataValue, 0.39546000000000003, -0.0285
DataValue, 0.40062000000000003, -0.027
DataValue, 0.40462000000000004, -0.0225
DataValue, 0.40992, -0.051000000000000004
DataValue, 0.41506000000000004, -0.006
DataValue, 0.42034000000000005, -0.042
DataValue, 0.42454000000000003, -0.019
DataValue, 0.43062000000000006, -0.0425
DataValue, 0.43524, -0.035
DataValue, 0.43986000000000003, -0.027
DataValue, 0.44522000000000006, -0.039
DataValue, 0.44966000000000006, -0.0235
DataValue, 0.45456, -0.0475
DataValue, 0.45924000000000004, -0.027
DataValue, 0.46502000000000004, -0.042
DataValue, 0.46984000000000004, -0.0275
DataValue, 0.47548, -0.036000000000000004
DataValue, 0.48028000000000004, -0.028
DataValue, 0.48504, -0.03
DataValue, 0.48996000000000006, -0.0395
DataValue, 0.49452, -0.021500000000000002
DataValue, 0.49944000000000005, -0.0455
DataValue, 0.50502, -0.029500000000000002
DataValue, 0.50972000000000006, -0.0475
DataValue, 0.51502, -0.0265
DataValue, 0.52014, -0.031
DataValue, 0.52506000000000008, -0.025
DataValue, 0.5302, -0.0345
DataValue, 0.53532, -0.0245
DataValue, 0.53978, -0.033
DataValue, 0.5452, -0.024
DataValue, 0.54992000000000008, -0.0345
DataValue, 0.5552, -0.019
DataValue, 0.5606000000000001, -0.0445
DataValue, 0.56462, -0.0245
DataValue, 0.56980000000000008, -0.0335
DataValue, 0.57554, -0.037
DataValue, 0.57996, -0.0245
DataValue, 0.58500000000000008, -0.0425
DataValue, 0.59052, -0.022
DataValue, 0.59416, -0.0415
DataValue, 0.5996, -0.032
DataValue, 0.60498000000000007, -0.039
DataValue, 0.61054000000000008, -0.0345
DataValue, 0.61492, -0.026000000000000002
DataValue, 0.61994, -0.029
DataValue, 0.62504, -0.029
DataValue, 0.62992, -0.0375
DataValue, 0.63488, -0.0205
DataValue, 0.63982, -0.029500000000000002
DataValue, 0.64476, -0.0185
DataValue, 0.64968, -0.042
DataValue, 0.65494000000000008, -0.0335
DataValue, 0.65984000000000009, -0.015
DataValue, 0.66472000000000009, -0.0475
DataValue, 0.66926000000000008, -0.026000000000000002
DataValue, 0.67452, -0.0485
DataValue, 0.67996, -0.014
DataValue, 0.68476, -0.0485
DataValue, 0.68948000000000009, -0.016
DataValue, 0.69486, -0.029
DataValue, 0.69974, -0.0235
DataValue, 0.70488000000000006, -0.032
DataValue, 0.70926000000000011, -0.035
DataValue, 0.7153, -0.021500000000000002
DataValue, 0.72026, -0.055
DataValue, 0.72520000000000007, -0.01
DataValue, 0.73004, -0.043000000000000003
DataValue, 0.73490000000000011, -0.0125
DataValue, 0.73998000000000008, -0.0415
DataValue, 0.74500000000000011, -0.019
DataValue, 0.75016, -0.04
DataValue, 0.75502, -0.015
DataValue, 0.75986000000000009, -0.028
DataValue, 0.76558, -0.0205
DataValue, 0.76992, -0.0165
DataValue, 0.77464000000000011, -0.032
DataValue, 0.78032, -0.021500000000000002
DataValue, 0.7849, -0.0445
DataValue, 0.79028000000000009, -0.022
DataValue, 0.79518000000000011, -0.043000000000000003
DataValue, 0.80012, -0.015
DataValue, 0.80490000000000006, -0.0445
DataValue, 0.8101, -0.0075
DataValue, 0.8148200000000001, -0.0235
DataValue, 0.81992000000000009, -0.0275
DataValue, 0.8244800000000001, -0.0275
DataValue, 0.8302, -0.0335
DataValue, 0.83466000000000007, -0.021500000000000002
DataValue, 0.83994, -0.0305
DataValue, 0.84498000000000006, -0.026000000000000002
DataValue, 0.85010000000000008, -0.0385
DataValue, 0.85500000000000009, -0.01
DataValue, 0.85974000000000006, -0.037
DataValue, 0.86484, -0.0075
DataValue, 0.86934000000000011, -0.02
DataValue, 0.8745400000000001, -0.043500000000000004
DataValue, 0.88022000000000011, -0.0195
DataValue, 0.8849800000000001, -0.04
DataValue, 0.89018000000000008, -0.0165
DataValue, 0.89476000000000011, -0.0585
DataValue, 0.90018000000000009, -0.013000000000000001
DataValue, 0.90514000000000006, -0.0425
DataValue, 0.91022, -0.033
DataValue, 0.91544, -0.029
DataValue, 0.91978, -0.0385
DataValue, 0.92496000000000012, -0.025
DataValue, 0.93058000000000007, -0.043000000000000003
DataValue, 0.93492000000000008, -0.025
DataValue, 0.9402, -0.0485
DataValue, 0.94380000000000008, -0.0185
DataValue, 0.94962000000000013, -0.0395
DataValue, 0.95482000000000011, -0.0275
DataValue, 0.95992000000000011, -0.0385
DataValue, 0.96496, -0.035
DataValue, 0.97020000000000006, -0.0145
DataValue, 0.97532000000000008, -0.0315
DataValue, 0.98016, -0.015
DataValue, 0.98536000000000012, -0.039
DataValue, 0.98938, -0.029500000000000002
DataValue, 0.99520000000000008, -0.02
DataValue, 1.00034, -0.0115
DataValue, 1.00492, -0.026000000000000002
DataValue, 1.0105600000000001, -0.0365
DataValue, 1.01488, -0.019
DataValue, 1.01996, -0.0505
DataValue, 1.02516, -0.025
DataValue, 1.02994, -0.0485
DataValue, 1.0348600000000001, -0.026000000000000002
DataValue, 1.04054, -0.0525
DataValue, 1.0452400000000002, -0.017
DataValue, 1.0506, -0.0305
DataValue, 1.0552400000000002, -0.033
DataValue, 1.0597, -0.0415
DataValue, 1.0644200000000001, -0.0265
DataValue, 1.0702200000000002, -0.015
DataValue, 1.0754400000000002, -0.043500000000000004
DataValue, 1.0793400000000002, -0.011
DataValue, 1.0852600000000001, -0.043500000000000004
DataValue, 1.0904800000000001, -0.0065000000000000006
DataValue, 1.0947, -0.0375
DataValue, 1.1001, -0.0135
DataValue, 1.10538, -0.0445
DataValue, 1.10934, -0.03
DataValue, 1.1147600000000002, -0.043000000000000003
DataValue, 1.11976, -0.0265
DataValue, 1.12514, -0.047
DataValue, 1.1306, -0.0185
DataValue, 1.1344400000000001, -0.0345
DataValue, 1.13982, -0.0395
DataValue, 1.14484, -0.019
DataValue, 1.1501400000000002, -0.037
DataValue, 1.15514, -0.0205
DataValue, 1.15908, -0.038
DataValue, 1.1654, -0.022
DataValue, 1.1697600000000001, -0.034
DataValue, 1.17568, -0.022
DataValue, 1.1810200000000002, -0.0425
DataValue, 1.1849800000000001, -0.0105
DataValue, 1.1898000000000002, -0.047
DataValue, 1.1952, -0.016
DataValue, 1.19988, -0.0455
DataValue, 1.20496, -0.0175
DataValue, 1.2096, -0.035
DataValue, 1.2152, -0.0165
DataValue, 1.2193200000000002, -0.039
DataValue, 1.2251, -0.02
DataValue, 1.22984, -0.016
DataValue, 1.23496, -0.035
DataValue, 1.23998, -0.0135
DataValue, 1.24522, -0.031
DataValue, 1.2499, -0.0065000000000000006
DataValue, 1.25496, -0.0325
DataValue, 1.2599, -0.029
DataValue, 1.2652, -0.0445
DataValue, 1.26966, -0.0205
DataValue, 1.2752400000000002, -0.034
DataValue, 1.28034, -0.035
DataValue, 1.28482, -0.04
DataValue, 1.29054, -0.0505
DataValue, 1.2949400000000002, -0.033
DataValue, 1.3001600000000002, -0.026000000000000002
DataValue, 1.3049600000000001, -0.032
DataValue, 1.3100800000000001, -0.037
DataValue, 1.3149000000000002, -0.035500000000000004
DataValue, 1.31996, -0.0285
DataValue, 1.3251400000000002, -0.0105
DataValue, 1.3303, -0.048
DataValue, 1.33522, -0.02
DataValue, 1.3405200000000002, -0.0585
DataValue, 1.34546, -0.025
DataValue, 1.3498400000000002, -0.0365
DataValue, 1.3556800000000002, -0.0225
DataValue, 1.36006, -0.054
DataValue, 1.36532, -0.0375
DataValue, 1.3694600000000001, -0.035
DataValue, 1.3751000000000002, -0.0245
DataValue, 1.3801400000000001, -0.0375
DataValue, 1.3850600000000002, -0.035
DataValue, 1.39012, -0.026000000000000002
DataValue, 1.39538, -0.05
DataValue, 1.40006, -0.029
DataValue, 1.4049600000000002, -0.031
DataValue, 1.4098600000000001, -0.019
DataValue, 1.4149, -0.06
DataValue, 1.4192600000000002, -0.0135
DataValue, 1.4252600000000002, -0.0445
DataValue, 1.43026, -0.012
DataValue, 1.435, -0.0395
DataValue, 1.4399400000000002, -0.0325
DataValue, 1.44462, -0.026000000000000002
DataValue, 1.4503400000000002, -0.0175
DataValue, 1.4549200000000002, -0.046
DataValue, 1.4598200000000001, -0.015
DataValue, 1.46482, -0.032
DataValue, 1.4693, -0.0285
DataValue, 1.4742600000000001, -0.036000000000000004
DataValue, 1.48008, -0.029
DataValue, 1.48472, -0.0225
DataValue, 1.4895200000000002, -0.0425
DataValue, 1.4956200000000002, -0.0265
DataValue, 1.49974, -0.033
DataValue, 1.5051, -0.024
DataValue, 1.5104400000000002, -0.042
DataValue, 1.5154400000000001, -0.02
DataValue, 1.51998, -0.035
DataValue, 1.52502, -0.0065000000000000006
DataValue, 1.5298800000000001, -0.0225
DataValue, 1.53492, -0.0145
DataValue, 1.53974, -0.027
DataValue, 1.54498, -0.041
DataValue, 1.54956, -0.0275
DataValue, 1.5552800000000002, -0.0205
DataValue, 1.5602800000000001, -0.016
DataValue, 1.5654000000000001, -0.0195
DataValue, 1.5703200000000002, -0.017
DataValue, 1.5747000000000002, -0.0305
DataValue, 1.5805600000000002, -0.0235
DataValue, 1.5851400000000002, -0.0395
DataValue, 1.59, -0.0335
DataValue, 1.5947000000000002, -0.046
DataValue, 1.5998200000000002, -0.0135
DataValue, 1.6051400000000002, -0.0375
DataValue, 1.6099200000000002, -0.0145
DataValue, 1.61542, -0.0375
DataValue, 1.6201400000000001, -0.015
DataValue, 1.62498, -0.033
DataValue, 1.6303, -0.036000000000000004
DataValue, 1.63498, -0.0445
DataValue, 1.6404200000000002, -0.0265
DataValue, 1.6448600000000002, -0.029
DataValue, 1.6502200000000002, -0.0305
DataValue, 1.6553600000000002, -0.0275
DataValue, 1.6598800000000002, -0.0505
DataValue, 1.6646800000000002, -0.027
DataValue, 1.6695000000000002, -0.0425
DataValue, 1.6755200000000001, -0.0205
DataValue, 1.68036, -0.041
DataValue, 1.6848600000000003, -0.0105
DataValue, 1.6899600000000001, -0.0405
DataValue, 1.69486, -0.0135
DataValue, 1.70022, -0.0425
DataValue, 1.70554, -0.022
DataValue, 1.7100600000000001, -0.0265
DataValue, 1.71462, -0.023
DataValue, 1.7199600000000002, -0.0195
DataValue, 1.7248400000000002, -0.029
DataValue, 1.7304800000000002, -0.0135
DataValue, 1.73462, -0.0395
DataValue, 1.7404400000000002, -0.0195
DataValue, 1.7454600000000002, -0.033
DataValue, 1.75032, -0.029500000000000002
DataValue, 1.7548400000000002, -0.0225
DataValue, 1.7599200000000002, -0.0365
DataValue, 1.7651000000000001, -0.0265
DataValue, 1.77014, -0.038
DataValue, 1.77516, -0.019
DataValue, 1.7801600000000002, -0.042
DataValue, 1.7850800000000002, -0.013000000000000001
DataValue, 1.7898800000000001, -0.0385
DataValue, 1.7959200000000002, -0.029500000000000002
DataValue, 1.8000800000000001, -0.0365
DataValue, 1.8052400000000002, -0.013000000000000001
DataValue, 1.8101600000000002, -0.043000000000000003
DataValue, 1.81478, -0.011
DataValue, 1.8199600000000002, -0.0385
DataValue, 1.8252400000000002, -0.017
DataValue, 1.8296000000000001, -0.0375
DataValue, 1.8354800000000002, -0.027
DataValue, 1.83966, -0.0335
DataValue, 1.8451600000000001, -0.032
DataValue, 1.84986, -0.0305
DataValue, 1.85518, -0.0365
DataValue, 1.8601, -0.026000000000000002
DataValue, 1.86494, -0.038
DataValue, 1.8700400000000002, -0.0335
DataValue, 1.87518, -0.024
DataValue, 1.8799200000000003, -0.016
DataValue, 1.8844800000000002, -0.035
DataValue, 1.8905200000000002, -0.02
DataValue, 1.8947, -0.046
DataValue, 1.90016, -0.017
DataValue, 1.90518, -0.023
DataValue, 1.90982, -0.039
DataValue, 1.9150600000000002, -0.0445
