
SetupTitle, Rds-Id
ApplicationTest, Rds-Id, Public
TestParameter, Name, Memo, Scale, HoldTime, PulseBase, PulseAvgCnt, Gate, VgStart, VgStop, VgStep, IgLimit, Source, MeasurementTime, Drain, IdStart, IdStop, IdLinearStep, VdLimit, VdStop, PulsePeriodMode, ManualPulsePeriod, PulseWidth
TestParameter, Value, , LINEAR, 0, 0, 1, SMU2:MC	MCSMU, 20, 5, 1, 0.1, GNDU:GND	GNDU, 1E-05, SMU3:UHC500	UHCU500A, 0.5, 30, 0.2, 2, 0, 0, 0.05, 0.0002
DutParameter, Name, Polarity, Temp, YAxisRdsMin, YAxisRdsMax
DutParameter, Value, 1, 25, 0.001, 1
MetaData, TestRecord.EntryPoint, true
MetaData, TestRecord.RecordTime, 04/17/2021 13:33:19
MetaData, TestRecord.TestTarget, 
MetaData, TestRecord.IterationIndex, 1
MetaData, TestRecord.Preservation, true
MetaData, TestRecord.Flag, 
MetaData, TestRecord.Remarks, 
MetaData, TestRecord.LinkKey, a251d7b3-b60f-43c9-9463-61d6221debcc
Dimension1, 148, 148, 148, 148, 148, 148
Dimension2, 16, 16, 16, 16, 16, 16
DataName, Igate, Vgate, Vdrain, Idrain, Ta, Rds
DataValue, -4.1000000000000006E-06, 20.00008, 0.006, 0.0845, 25, 0.071005917159763315
DataValue, -3.5000000000000004E-06, 20.000020000000003, 0.019700000000000002, 0.26, 25, 0.075769230769230769
DataValue, -4.3E-06, 20.00052, 0.0337, 0.491, 25, 0.068635437881873734
DataValue, -4.4E-06, 20.00052, 0.049800000000000004, 0.7165, 25, 0.069504535938590378
DataValue, -1.6000000000000001E-06, 20.000140000000002, 0.0639, 0.9615, 25, 0.066458658346333854
DataValue, -4.1000000000000006E-06, 20.000500000000002, 0.0765, 1.1480000000000001, 25, 0.0666376306620209
DataValue, -4.3E-06, 20.000120000000003, 0.0898, 1.3885, 25, 0.064674108750450127
DataValue, -4.4E-06, 19.999660000000002, 0.1071, 1.5985, 25, 0.067000312793243672
DataValue, -2.8000000000000003E-06, 20.000120000000003, 0.11910000000000001, 1.7845, 25, 0.06674138414121604
DataValue, -3.3E-06, 19.999640000000003, 0.1338, 1.982, 25, 0.067507568113017155
DataValue, -4.5E-06, 19.9999, 0.1453, 2.1945, 25, 0.066210982000455693
DataValue, -2.7000000000000004E-06, 20.00006, 0.16110000000000002, 2.4115, 25, 0.06680489321998756
DataValue, -2.4000000000000003E-06, 19.99962, 0.1729, 2.613, 25, 0.06616915422885572
DataValue, -5.9E-06, 20.000220000000002, 0.18760000000000002, 2.8005, 25, 0.066988037850383861
DataValue, -4.5E-06, 19.999820000000003, 0.1998, 2.999, 25, 0.066622207402467493
DataValue, -2.6E-06, 20.00024, 0.2132, 3.1875, 25, 0.066886274509803917
DataValue, -3.5000000000000004E-06, 20.00006, 0.2281, 3.4145, 25, 0.066803338702591891
DataValue, -3.7E-06, 19.999480000000002, 0.23920000000000002, 3.6225, 25, 0.066031746031746039
DataValue, -3.4000000000000005E-06, 19.99996, 0.255, 3.805, 25, 0.067017082785808146
DataValue, -4.8000000000000006E-06, 19.99952, 0.2685, 4.006, 25, 0.067024463305042442
DataValue, -3.3E-06, 20.00044, 0.2797, 4.2105, 25, 0.0664291651822824
DataValue, -3.3E-06, 20.000320000000002, 0.2924, 4.4, 25, 0.066454545454545447
DataValue, -8.0000000000000007E-07, 20.00066, 0.30710000000000004, 4.605, 25, 0.066688382193268184
DataValue, -3.7E-06, 19.99986, 0.32020000000000004, 4.82, 25, 0.066431535269709546
DataValue, -4.1000000000000006E-06, 19.99996, 0.3336, 4.9995, 25, 0.066726672667266729
DataValue, -2.7000000000000004E-06, 20.000300000000003, 0.3461, 5.183, 25, 0.066775998456492389
DataValue, -4.0000000000000007E-06, 19.99878, 0.3589, 5.4035, 25, 0.066419913019339319
DataValue, -3.3E-06, 19.99998, 0.37170000000000003, 5.5825000000000005, 25, 0.066583072100313473
DataValue, -2.5E-06, 20.000480000000003, 0.3865, 5.7445, 25, 0.067281747758725738
DataValue, -3.6000000000000003E-06, 19.999920000000003, 0.3961, 5.939, 25, 0.066694729752483584
DataValue, -1.9000000000000002E-06, 20.000700000000002, 0.4063, 6.106, 25, 0.066541107107762856
DataValue, -2.1000000000000002E-06, 19.999820000000003, 0.4148, 6.213, 25, 0.066763238371157246
DataValue, -3.5000000000000004E-06, 19.99952, 0.4213, 6.314, 25, 0.066724738675958184
DataValue, -2.4000000000000003E-06, 20.000380000000003, 0.4248, 6.3945, 25, 0.066432090077410272
DataValue, -2.5E-06, 20.000400000000003, 0.4295, 6.4275, 25, 0.066822248152469857
DataValue, -4.7000000000000007E-06, 19.99962, 0.4297, 6.464, 25, 0.06647586633663366
DataValue, -4.6E-06, 20.00006, 0.4312, 6.4995, 25, 0.0663435648896069
DataValue, -3.2000000000000003E-06, 19.999920000000003, 0.43210000000000004, 6.498, 25, 0.06649738381040321
DataValue, -5.1E-06, 19.99968, 0.43210000000000004, 6.5275, 25, 0.066196859440827274
DataValue, -2.2E-06, 19.99914, 0.433, 6.538, 25, 0.066228204343836028
DataValue, -1.5E-06, 19.999480000000002, 0.4333, 6.532, 25, 0.066334966319657074
DataValue, -2.8000000000000003E-06, 19.99922, 0.4359, 6.5600000000000005, 25, 0.0664481707317073
DataValue, -2.2E-06, 20.00056, 0.4345, 6.542, 25, 0.066416997859981661
DataValue, -1.8000000000000001E-06, 19.99958, 0.43570000000000003, 6.5335, 25, 0.066687074309328853
DataValue, -4.0000000000000007E-06, 20.000500000000002, 0.4345, 6.5535000000000005, 25, 0.066300450141145953
DataValue, -3.7E-06, 19.999360000000003, 0.4358, 6.5405, 25, 0.066630991514410223
DataValue, -4.1000000000000006E-06, 19.9998, 0.4359, 6.575, 25, 0.066296577946768062
DataValue, -3.1000000000000004E-06, 20.000020000000003, 0.43560000000000004, 6.5395, 25, 0.06661059714045417
DataValue, -2.3E-06, 19.999760000000002, 0.43410000000000004, 6.5505, 25, 0.066269750400732769
DataValue, -2.9E-06, 20.000040000000002, 0.43370000000000003, 6.559, 25, 0.066122884586064953
DataValue, -5.3E-06, 20.000100000000003, 0.4353, 6.5425, 25, 0.0665341994650363
DataValue, -3.8000000000000005E-06, 20.000120000000003, 0.43420000000000003, 6.5575, 25, 0.066214258482653457
DataValue, -4.1000000000000006E-06, 20.00062, 0.4355, 6.5505, 25, 0.066483474543927945
DataValue, -3.2000000000000003E-06, 20.000100000000003, 0.4343, 6.563, 25, 0.066174005790035045
DataValue, -2.5E-06, 19.99978, 0.43560000000000004, 6.5600000000000005, 25, 0.066402439024390247
DataValue, -4.0000000000000007E-06, 20.000100000000003, 0.436, 6.5475, 25, 0.066590301641848024
DataValue, -3.6000000000000003E-06, 19.99922, 0.4358, 6.5760000000000005, 25, 0.0662712895377129
DataValue, -3.5000000000000004E-06, 19.9995, 0.43470000000000003, 6.5605, 25, 0.066260193582806187
DataValue, -1.6000000000000001E-06, 19.99998, 0.43470000000000003, 6.577, 25, 0.066093963813288734
DataValue, -3E-06, 20.00008, 0.43410000000000004, 6.542, 25, 0.066355854478752682
DataValue, -3.3E-06, 19.99972, 0.43410000000000004, 6.5665000000000004, 25, 0.066108276859818779
DataValue, -4.5E-06, 19.999740000000003, 0.43460000000000004, 6.557, 25, 0.066280311117889276
DataValue, 1.0000000000000001E-07, 19.99998, 0.4353, 6.563, 25, 0.066326375133323179
DataValue, -2.3E-06, 20.00016, 0.4354, 6.554, 25, 0.066432712847116257
DataValue, -2.7000000000000004E-06, 20.000100000000003, 0.4353, 6.573, 25, 0.066225467822911915
DataValue, -3E-06, 20.00036, 0.43660000000000004, 6.5515, 25, 0.0666412271998779
DataValue, -1.8000000000000001E-06, 20.00024, 0.435, 6.5600000000000005, 25, 0.066310975609756087
DataValue, -4.1000000000000006E-06, 19.999660000000002, 0.43510000000000004, 6.554, 25, 0.066386939273725978
DataValue, -3.9E-06, 19.99998, 0.4359, 6.5685, 25, 0.066362183146837173
DataValue, -2.3E-06, 19.99944, 0.4359, 6.5525, 25, 0.066524227394124377
DataValue, -2.4000000000000003E-06, 20.000400000000003, 0.4363, 6.5760000000000005, 25, 0.066347323600973229
DataValue, -3.6000000000000003E-06, 20, 0.436, 6.556, 25, 0.066503965832824891
DataValue, -6.0000000000000008E-07, 19.99988, 0.43510000000000004, 6.5865, 25, 0.066059363850299868
DataValue, -3.1000000000000004E-06, 19.999360000000003, 0.4353, 6.554, 25, 0.0664174549893195
DataValue, -2.3E-06, 20.000480000000003, 0.43570000000000003, 6.58, 25, 0.066215805471124628
DataValue, -4.4E-06, 20.000500000000002, 0.4355, 6.5415, 25, 0.0665749445845754
DataValue, -2.7000000000000004E-06, 20.000120000000003, 0.4344, 6.572, 25, 0.066098600121728551
DataValue, -3.1000000000000004E-06, 20.00024, 0.43710000000000004, 6.5575, 25, 0.066656500190621429
DataValue, -3E-06, 20.00034, 0.434, 6.558, 25, 0.066178713022262886
DataValue, -2.8000000000000003E-06, 20.00028, 0.43710000000000004, 6.5685, 25, 0.066544873258734871
DataValue, -3.1000000000000004E-06, 20.00024, 0.4355, 6.555, 25, 0.066437833714721589
DataValue, -2.1000000000000002E-06, 19.999820000000003, 0.4379, 6.579, 25, 0.066560267517859859
DataValue, -7.0000000000000007E-07, 20.00062, 0.4355, 6.5680000000000005, 25, 0.066306333739342263
DataValue, -3.2000000000000003E-06, 19.99996, 0.4358, 6.5765, 25, 0.066266251045388885
DataValue, -4.1000000000000006E-06, 19.9993, 0.4363, 6.5505, 25, 0.066605602625753754
DataValue, -2.9E-06, 20.00056, 0.4354, 6.573, 25, 0.066240681576144836
DataValue, -1.9000000000000002E-06, 20.000400000000003, 0.43660000000000004, 6.5535000000000005, 25, 0.066620889600976577
DataValue, -2.7000000000000004E-06, 20.00006, 0.4358, 6.563, 25, 0.066402559804967246
DataValue, -2.0000000000000003E-06, 20.000580000000003, 0.43520000000000003, 6.54, 25, 0.066544342507645265
DataValue, -2.4000000000000003E-06, 20.000120000000003, 0.43570000000000003, 6.5680000000000005, 25, 0.066336784409257
DataValue, -2.4000000000000003E-06, 20.00056, 0.43670000000000003, 6.556, 25, 0.066610738255033566
DataValue, -1.8000000000000001E-06, 19.999760000000002, 0.437, 6.583, 25, 0.066383108005468636
DataValue, -2.8000000000000003E-06, 20.000020000000003, 0.43410000000000004, 6.5855000000000006, 25, 0.065917546124060436
DataValue, -3.7E-06, 20.00008, 0.4358, 6.5595, 25, 0.066437990700510707
DataValue, -2.9E-06, 19.999920000000003, 0.435, 6.575, 25, 0.0661596958174905
DataValue, -1.6000000000000001E-06, 19.999760000000002, 0.43510000000000004, 6.559, 25, 0.06633633175788993
DataValue, -2.8000000000000003E-06, 20.00052, 0.43410000000000004, 6.565, 25, 0.066123381568926123
DataValue, -1.4000000000000002E-06, 19.999740000000003, 0.436, 6.5815, 25, 0.066246296436982446
DataValue, -4.1000000000000006E-06, 19.999560000000002, 0.43420000000000003, 6.547, 25, 0.066320452115472744
DataValue, -4.8000000000000006E-06, 19.999760000000002, 0.4359, 6.5635, 25, 0.066412737106726585
DataValue, -1.8000000000000001E-06, 19.99978, 0.4363, 6.578, 25, 0.0663271511097598
DataValue, -2.6E-06, 20.000140000000002, 0.4369, 6.562, 25, 0.066580310880829011
DataValue, -2.1000000000000002E-06, 20.00018, 0.4353, 6.557, 25, 0.066387067256367241
DataValue, -3.7E-06, 20.00006, 0.43460000000000004, 6.5920000000000005, 25, 0.06592839805825243
DataValue, -2.8000000000000003E-06, 20.000200000000003, 0.43560000000000004, 6.5655, 25, 0.066346812885538051
DataValue, -3.1000000000000004E-06, 20.000040000000002, 0.43410000000000004, 6.585, 25, 0.065922551252847392
DataValue, -4.6E-06, 19.999740000000003, 0.4353, 6.5775000000000006, 25, 0.066180159635119723
DataValue, -2.5E-06, 19.99972, 0.4365, 6.562, 25, 0.066519353855531843
DataValue, -1.9000000000000002E-06, 20.000420000000002, 0.43510000000000004, 6.5655, 25, 0.06627065722336456
DataValue, -7.0000000000000007E-07, 20.00016, 0.43610000000000004, 6.573, 25, 0.0663471778487753
DataValue, -1.8000000000000001E-06, 19.999940000000002, 0.43660000000000004, 6.538, 25, 0.066778831446925674
DataValue, -2.2E-06, 20.000020000000003, 0.4353, 6.5760000000000005, 25, 0.066195255474452555
DataValue, -5.1E-06, 19.999760000000002, 0.4359, 6.5760000000000005, 25, 0.06628649635036496
DataValue, -7.0000000000000007E-07, 19.9994, 0.43560000000000004, 6.565, 25, 0.066351865955826358
DataValue, -2.0000000000000003E-06, 20.000020000000003, 0.4354, 6.5875, 25, 0.066094876660341556
DataValue, -3.6000000000000003E-06, 19.999940000000002, 0.43670000000000003, 6.566, 25, 0.0665092902832775
DataValue, -3.3E-06, 20.000380000000003, 0.4374, 6.5655, 25, 0.066620973269362574
DataValue, -1.0000000000000001E-07, 20.000100000000003, 0.43660000000000004, 6.5685, 25, 0.0664687523787775
DataValue, -3.9E-06, 19.9999, 0.43660000000000004, 6.562, 25, 0.066534593111856138
DataValue, -3E-06, 19.9999, 0.436, 6.5815, 25, 0.066246296436982446
DataValue, -4.1000000000000006E-06, 20.000420000000002, 0.4375, 6.5515, 25, 0.066778600320537285
DataValue, 3.0000000000000004E-07, 20.00052, 0.43620000000000003, 6.5815, 25, 0.06627668464635722
DataValue, -2.5E-06, 20, 0.4355, 6.5535000000000005, 25, 0.066453040360112917
DataValue, -3.1000000000000004E-06, 19.999840000000003, 0.4353, 6.5605, 25, 0.0663516500266748
DataValue, -4.7000000000000007E-06, 19.99958, 0.4358, 6.5815, 25, 0.066215908227607687
DataValue, -3.2000000000000003E-06, 20.000040000000002, 0.4363, 6.5455000000000005, 25, 0.066656481552211447
DataValue, -1.9000000000000002E-06, 20.000320000000002, 0.43620000000000003, 6.566, 25, 0.066433140420347245
DataValue, -2.2E-06, 19.999660000000002, 0.436, 6.5665000000000004, 25, 0.066397624305185407
DataValue, -8.0000000000000007E-07, 20.001140000000003, 0.436, 6.565, 25, 0.0664127951256664
DataValue, -5.5000000000000007E-06, 19.999640000000003, 0.43610000000000004, 6.564, 25, 0.06643814747105424
DataValue, -2.4000000000000003E-06, 20.000580000000003, 0.4363, 6.581, 25, 0.066296915362406922
DataValue, -2.3E-06, 19.999820000000003, 0.43560000000000004, 6.5675, 25, 0.0663266082984393
DataValue, -1.6000000000000001E-06, 20.000760000000003, 0.43670000000000003, 6.5805, 25, 0.066362738393739087
DataValue, -2.0000000000000003E-06, 19.999740000000003, 0.4354, 6.5715, 25, 0.066255801567374262
DataValue, -4.5E-06, 19.99996, 0.43660000000000004, 6.5595, 25, 0.066559951215793889
DataValue, -4.7000000000000007E-06, 19.9996, 0.4389, 6.5785, 25, 0.066717336778900974
DataValue, -2.4000000000000003E-06, 19.999540000000003, 0.4354, 6.5455000000000005, 25, 0.066518982507065921
DataValue, -3.1000000000000004E-06, 20.000120000000003, 0.4368, 6.58, 25, 0.066382978723404262
DataValue, -2.4000000000000003E-06, 20.00044, 0.43460000000000004, 6.543, 25, 0.06642213052116766
DataValue, -2.5E-06, 19.999920000000003, 0.4373, 6.57, 25, 0.066560121765601221
DataValue, -4.1000000000000006E-06, 19.9998, 0.4363, 6.5785, 25, 0.066322109903473439
DataValue, -1.5E-06, 19.99988, 0.4363, 6.5625, 25, 0.066483809523809528
DataValue, -2.5E-06, 19.99968, 0.4354, 6.5795, 25, 0.0661752412797325
DataValue, -4.0000000000000007E-06, 20.00006, 0.4353, 6.555, 25, 0.066407322654462253
DataValue, -2.7000000000000004E-06, 20.000500000000002, 0.4358, 6.57, 25, 0.066331811263318108
DataValue, -2.4000000000000003E-06, 20.000200000000003, 0.43720000000000003, 6.559, 25, 0.06665650251562738
DataValue, -1.5E-06, 20.00118, 0.4358, 6.5965, 25, 0.066065337679072245
DataValue, -3.8000000000000005E-06, 19.99868, 0.436, 6.563, 25, 0.066433033673624867
DataValue, -4.4E-06, 19.00026, 0.0065000000000000006, 0.0975, 25, 0.066666666666666666
DataValue, -2.9E-06, 18.9996, 0.0196, 0.296, 25, 0.06621621621621622
DataValue, -3.8000000000000005E-06, 18.99978, 0.035300000000000005, 0.507, 25, 0.069625246548323486
DataValue, -1.9000000000000002E-06, 18.999820000000003, 0.051300000000000005, 0.7185, 25, 0.071398747390396658
DataValue, -2.7000000000000004E-06, 18.999380000000002, 0.065200000000000008, 0.94300000000000006, 25, 0.069141039236479324
DataValue, -2.6E-06, 19.00016, 0.0787, 1.1380000000000001, 25, 0.069156414762741647
DataValue, -1.9000000000000002E-06, 19.000680000000003, 0.0936, 1.3860000000000001, 25, 0.067532467532467527
DataValue, -2.3E-06, 19.00046, 0.1073, 1.57, 25, 0.068343949044585989
DataValue, -3.0000000000000004E-07, 19.000500000000002, 0.1197, 1.7785, 25, 0.067303907787461342
DataValue, -3.6000000000000003E-06, 19.00062, 0.1355, 1.975, 25, 0.068607594936708857
DataValue, -3.8000000000000005E-06, 19.000400000000003, 0.1476, 2.182, 25, 0.067644362969752528
DataValue, -2.2E-06, 18.999920000000003, 0.16140000000000002, 2.4210000000000003, 25, 0.066666666666666666
DataValue, -3.4000000000000005E-06, 18.99924, 0.17650000000000002, 2.5845000000000002, 25, 0.068291739214548272
DataValue, -2.8000000000000003E-06, 19.000100000000003, 0.1904, 2.825, 25, 0.067398230088495575
DataValue, -1.7000000000000002E-06, 18.999480000000002, 0.2041, 2.996, 25, 0.0681241655540721
DataValue, -2.0000000000000003E-06, 19.000040000000002, 0.217, 3.2105, 25, 0.067590717956704557
DataValue, -5.1E-06, 19.000100000000003, 0.2313, 3.4215, 25, 0.0676019289785182
DataValue, -2.0000000000000003E-06, 19.000200000000003, 0.24450000000000002, 3.608, 25, 0.0677660753880266
DataValue, -3.6000000000000003E-06, 19.00066, 0.2591, 3.8165, 25, 0.06788942748591642
DataValue, -1.9000000000000002E-06, 19.00044, 0.27080000000000004, 4.014, 25, 0.0674638764324863
DataValue, -5.5000000000000007E-06, 18.9994, 0.2849, 4.2055, 25, 0.067744620140292477
DataValue, -3.1000000000000004E-06, 19.00016, 0.2992, 4.4055, 25, 0.06791510611735331
DataValue, -3.6000000000000003E-06, 18.999740000000003, 0.31170000000000003, 4.6075, 25, 0.067650569723277279
DataValue, -2.8000000000000003E-06, 18.99998, 0.3255, 4.8100000000000005, 25, 0.067671517671517661
DataValue, -3E-06, 18.9994, 0.33840000000000003, 4.982, 25, 0.067924528301886791
DataValue, -2.9E-06, 18.999660000000002, 0.3524, 5.1935, 25, 0.067854048329642813
DataValue, -1.6000000000000001E-06, 19.000700000000002, 0.3627, 5.386, 25, 0.067341255105829931
DataValue, -2.7000000000000004E-06, 18.999920000000003, 0.3766, 5.5655, 25, 0.067666876291438319
DataValue, -3.5000000000000004E-06, 19.00026, 0.3891, 5.7835, 25, 0.067277600069162266
DataValue, -1.6000000000000001E-06, 19.00006, 0.4026, 5.924, 25, 0.067960837272113439
DataValue, -4.1000000000000006E-06, 19.00052, 0.41150000000000003, 6.0905000000000005, 25, 0.0675642393892127
DataValue, -3E-06, 19.000200000000003, 0.4214, 6.212, 25, 0.067836445589182226
DataValue, -2.9E-06, 19.00016, 0.4258, 6.292, 25, 0.06767323585505404
DataValue, -2.1000000000000002E-06, 19.00074, 0.4294, 6.3785, 25, 0.067319902798463588
DataValue, -2.4000000000000003E-06, 19.000400000000003, 0.434, 6.4265, 25, 0.067532871703104333
DataValue, -2.5E-06, 19.000480000000003, 0.4349, 6.4445000000000006, 25, 0.067483901000853441
DataValue, -1.2000000000000002E-06, 19.0008, 0.4389, 6.4750000000000005, 25, 0.067783783783783774
DataValue, -2.7000000000000004E-06, 19.000220000000002, 0.43820000000000003, 6.5120000000000005, 25, 0.067291154791154786
DataValue, -2.3E-06, 18.9998, 0.4369, 6.4935, 25, 0.067282667282667283
DataValue, -4.8000000000000006E-06, 18.99972, 0.43870000000000003, 6.516, 25, 0.067326580724370783
DataValue, -6.1000000000000009E-06, 18.9995, 0.4393, 6.54, 25, 0.067171253822629978
DataValue, -2.1000000000000002E-06, 18.99968, 0.43910000000000005, 6.5095, 25, 0.06745525770028421
DataValue, -2.9E-06, 19.000040000000002, 0.44010000000000005, 6.5285, 25, 0.067412116106303141
DataValue, -2.9E-06, 19.000140000000002, 0.4403, 6.521, 25, 0.067520318969483212
DataValue, -2.9E-06, 19.000020000000003, 0.44060000000000005, 6.5195, 25, 0.06758186977528953
DataValue, -3.6000000000000003E-06, 19.00034, 0.4388, 6.5205, 25, 0.067295452802699177
DataValue, -3.5000000000000004E-06, 18.999480000000002, 0.43920000000000003, 6.5355, 25, 0.067202203350929551
DataValue, -4.0000000000000007E-06, 19, 0.4399, 6.525, 25, 0.067417624521072791
DataValue, -3.9E-06, 19.00024, 0.4399, 6.5245, 25, 0.067422791018468847
DataValue, -4.0000000000000007E-06, 19.00038, 0.4409, 6.5435, 25, 0.067379842591885078
DataValue, -3.6000000000000003E-06, 18.99962, 0.4403, 6.5280000000000005, 25, 0.067447916666666663
DataValue, -1.0000000000000002E-06, 19.000120000000003, 0.44, 6.543, 25, 0.067247440012226808
DataValue, -6.0000000000000008E-07, 19.000300000000003, 0.4403, 6.553, 25, 0.067190599725316658
DataValue, -5E-06, 18.99952, 0.43870000000000003, 6.525, 25, 0.067233716475095781
DataValue, -2.5E-06, 18.99986, 0.44020000000000004, 6.529, 25, 0.067422269872874876
DataValue, -8.0000000000000007E-07, 19.00006, 0.4405, 6.5595, 25, 0.067154508727799378
