
SetupTitle, Rds-Id
ApplicationTest, Rds-Id, Public
TestParameter, Name, Memo, Scale, HoldTime, PulseBase, PulseAvgCnt, Gate, VgStart, VgStop, VgStep, IgLimit, Source, MeasurementTime, Drain, IdStart, IdStop, IdLinearStep, VdLimit, VdStop, PulsePeriodMode, ManualPulsePeriod, PulseWidth
TestParameter, Value, , LINEAR, 0, 0, 1, SMU2:MC	MCSMU, 15, 5, 1, 0.1, GNDU:GND	GNDU, 1E-05, SMU3:UHC500	UHCU500A, 0.5, 15, 0.1, 5, 0, 0, 0.05, 0.0002
DutParameter, Name, Polarity, Temp, YAxisRdsMin, YAxisRdsMax
DutParameter, Value, 1, 25, 0.001, 10
MetaData, TestRecord.EntryPoint, true
MetaData, TestRecord.RecordTime, 12/24/2020 13:10:19
MetaData, TestRecord.TestTarget, 
MetaData, TestRecord.IterationIndex, 1
MetaData, TestRecord.Preservation, true
MetaData, TestRecord.Flag, 
MetaData, TestRecord.Remarks, 
MetaData, TestRecord.LinkKey, 24038988-7a5d-4559-9369-4d5b9413c57c
Dimension1, 146, 146, 146, 146, 146, 146
Dimension2, 11, 11, 11, 11, 11, 11
DataName, Igate, Vgate, Vdrain, Idrain, Ta, Rds
DataValue, -1.4000000000000002E-06, 14.999920000000001, 0.016800000000000002, 0.105, 25, 0.16000000000000003
DataValue, -2.0000000000000003E-06, 15.000320000000002, 0.0292, 0.157, 25, 0.18598726114649683
DataValue, -1.4000000000000002E-06, 14.999740000000001, 0.0419, 0.2615, 25, 0.16022944550669216
DataValue, -2.8000000000000003E-06, 14.99966, 0.057300000000000004, 0.34700000000000003, 25, 0.16512968299711814
DataValue, -1.3E-06, 14.999780000000001, 0.0723, 0.45, 25, 0.16066666666666668
DataValue, -2.0000000000000003E-06, 15.00078, 0.08660000000000001, 0.542, 25, 0.15977859778597786
DataValue, -2.8000000000000003E-06, 14.99994, 0.1012, 0.6445, 25, 0.1570209464701319
DataValue, -2.5E-06, 15.000940000000002, 0.11560000000000001, 0.727, 25, 0.15900962861072904
DataValue, -1.0000000000000002E-06, 14.99994, 0.1338, 0.835, 25, 0.16023952095808383
DataValue, -2.8000000000000003E-06, 14.999620000000002, 0.1481, 0.9345, 25, 0.15848047084002143
DataValue, -1.1E-06, 14.999340000000002, 0.1628, 1.0055, 25, 0.16190949776230731
DataValue, -2.0000000000000003E-06, 14.999720000000002, 0.1778, 1.124, 25, 0.15818505338078293
DataValue, -2.3E-06, 15.000020000000001, 0.19340000000000002, 1.224, 25, 0.15800653594771244
DataValue, -2.3E-06, 14.999740000000001, 0.2043, 1.2845, 25, 0.15905021409108602
DataValue, -2.6E-06, 15.00008, 0.2197, 1.4005, 25, 0.15687254551945734
DataValue, -1.0000000000000002E-06, 15.000580000000001, 0.23440000000000003, 1.499, 25, 0.15637091394262842
DataValue, -1.9000000000000002E-06, 15.000340000000001, 0.2499, 1.5815000000000001, 25, 0.15801454315523236
DataValue, -2.6E-06, 14.99994, 0.26430000000000003, 1.6755, 25, 0.15774395702775293
DataValue, -1.5E-06, 15.000200000000001, 0.28090000000000004, 1.793, 25, 0.15666480758505302
DataValue, -1.7000000000000002E-06, 14.999920000000001, 0.29400000000000004, 1.8565, 25, 0.15836251009964988
DataValue, -7.0000000000000007E-07, 14.999760000000002, 0.31010000000000004, 1.959, 25, 0.15829504849412968
DataValue, -7.0000000000000007E-07, 14.999900000000002, 0.3242, 2.055, 25, 0.15776155717761556
DataValue, -2.1000000000000002E-06, 15.00008, 0.3398, 2.1725, 25, 0.156409666283084
DataValue, -2.0000000000000003E-06, 14.999740000000001, 0.35350000000000004, 2.2465, 25, 0.15735588693523259
DataValue, -3.3E-06, 14.999480000000002, 0.3673, 2.345, 25, 0.15663113006396587
DataValue, -5.0000000000000008E-07, 15.000560000000002, 0.3841, 2.4235, 25, 0.15848978749742107
DataValue, -2.3E-06, 15.000480000000001, 0.39880000000000004, 2.5275, 25, 0.15778437190900102
DataValue, -2.2E-06, 14.999860000000002, 0.4126, 2.6455, 25, 0.15596295596295595
DataValue, -1.9000000000000002E-06, 15.0005, 0.4284, 2.7365, 25, 0.15655033802302212
DataValue, -1.0000000000000002E-06, 15.000300000000001, 0.44380000000000003, 2.826, 25, 0.15704175513092711
DataValue, -2.1000000000000002E-06, 14.999900000000002, 0.457, 2.8985, 25, 0.15766775918578577
DataValue, -1.5E-06, 15.000720000000001, 0.4726, 3.011, 25, 0.15695782132181999
DataValue, -1.5E-06, 15.000560000000002, 0.4874, 3.11, 25, 0.15672025723472668
DataValue, -1.8000000000000001E-06, 14.999920000000001, 0.5017, 3.1815, 25, 0.15769291214835771
DataValue, -4.0000000000000003E-07, 15.000240000000002, 0.5171, 3.2840000000000003, 25, 0.15746041412911083
DataValue, -2.5E-06, 15.000280000000002, 0.5329, 3.386, 25, 0.1573833431777909
DataValue, -2.4000000000000003E-06, 14.999680000000002, 0.5439, 3.454, 25, 0.15746960046323105
DataValue, -3E-06, 15.000240000000002, 0.5604, 3.5605, 25, 0.15739362449094227
DataValue, -1.4000000000000002E-06, 15.00022, 0.5747, 3.6550000000000002, 25, 0.15723666210670315
DataValue, -1.1E-06, 15.00022, 0.5896, 3.765, 25, 0.15660026560424967
DataValue, -2.0000000000000003E-06, 15.00012, 0.60310000000000008, 3.8395, 25, 0.15707774449798154
DataValue, -1.9000000000000002E-06, 14.999780000000001, 0.6185, 3.936, 25, 0.15713922764227645
DataValue, -1.5E-06, 15.000060000000001, 0.63230000000000008, 4.021, 25, 0.15724944043770209
DataValue, -1.8000000000000001E-06, 14.999640000000001, 0.6459, 4.123, 25, 0.15665777346592288
DataValue, -1.9000000000000002E-06, 15.0006, 0.66280000000000006, 4.206, 25, 0.15758440323347597
DataValue, -1.3E-06, 14.99928, 0.6776, 4.313, 25, 0.15710642244377465
DataValue, -2.4000000000000003E-06, 14.999760000000002, 0.6922, 4.394, 25, 0.15753299954483388
DataValue, -3E-06, 14.999680000000002, 0.7078, 4.507, 25, 0.15704459729309964
DataValue, -1.6000000000000001E-06, 14.999920000000001, 0.72010000000000007, 4.5885, 25, 0.15693581780538304
DataValue, -1.4000000000000002E-06, 15.000320000000002, 0.7367, 4.679, 25, 0.15744817268647146
DataValue, -1.3E-06, 14.999740000000001, 0.7527, 4.793, 25, 0.15704151888170248
DataValue, -1.6000000000000001E-06, 14.999880000000001, 0.76650000000000007, 4.9025, 25, 0.15634880163182052
DataValue, -2.7000000000000004E-06, 15.000380000000002, 0.7811, 4.9525, 25, 0.15771832407874811
DataValue, -2.0000000000000003E-06, 15.000580000000001, 0.7954, 5.0520000000000005, 25, 0.15744259699129057
DataValue, -2.0000000000000003E-06, 14.999760000000002, 0.811, 5.142, 25, 0.15772073123298327
DataValue, -3.2000000000000003E-06, 14.999160000000002, 0.8237, 5.2375, 25, 0.15726968973747016
DataValue, -2.7000000000000004E-06, 14.999440000000002, 0.8394, 5.345, 25, 0.157043966323667
DataValue, -1.4000000000000002E-06, 15.000240000000002, 0.8545, 5.4295, 25, 0.15738097430702644
DataValue, -2.0000000000000003E-06, 14.999780000000001, 0.86940000000000006, 5.516, 25, 0.15761421319796956
DataValue, -2.2E-06, 15.00008, 0.8849, 5.6005, 25, 0.15800374966520847
DataValue, -1.4000000000000002E-06, 14.999580000000002, 0.898, 5.7105, 25, 0.15725418089484283
DataValue, -9.0000000000000007E-07, 15.000560000000002, 0.9119, 5.8125, 25, 0.15688602150537634
DataValue, -2.3E-06, 15.000280000000002, 0.929, 5.9205000000000005, 25, 0.15691242293725191
DataValue, -2.7000000000000004E-06, 15.0005, 0.9446, 5.97, 25, 0.15822445561139029
DataValue, -1.9000000000000002E-06, 14.999900000000002, 0.9573, 6.074, 25, 0.15760619031939416
DataValue, -2.4000000000000003E-06, 14.999960000000002, 0.9696, 6.1690000000000005, 25, 0.15717296158210406
DataValue, -1.5E-06, 15.00036, 0.9866, 6.2725, 25, 0.1572897568752491
DataValue, -2.0000000000000003E-06, 15.000280000000002, 1.0021, 6.3745, 25, 0.15720448662640207
DataValue, -1.6000000000000001E-06, 14.999880000000001, 1.0134, 6.44, 25, 0.15736024844720498
DataValue, -2.3E-06, 15.000300000000001, 1.0314, 6.522, 25, 0.1581416743330267
DataValue, -1.9000000000000002E-06, 15.000280000000002, 1.0450000000000002, 6.6235, 25, 0.15777157092171815
DataValue, -2.2E-06, 14.999620000000002, 1.0623, 6.7275, 25, 0.15790412486064659
DataValue, -2.6E-06, 15.000520000000002, 1.0775000000000001, 6.832, 25, 0.15771370023419207
DataValue, -1.3E-06, 14.999540000000001, 1.0914000000000002, 6.917, 25, 0.15778516697990461
DataValue, -2.4000000000000003E-06, 14.999300000000002, 1.1052, 7.013, 25, 0.15759304149436759
DataValue, -1.0000000000000002E-06, 15.000200000000001, 1.1223, 7.1085, 25, 0.15788140958008018
DataValue, -3.1000000000000004E-06, 14.999540000000001, 1.1346, 7.1805, 25, 0.15801128055149363
DataValue, -2.4000000000000003E-06, 15.000180000000002, 1.1494, 7.2785, 25, 0.15791715325960018
DataValue, -2.7000000000000004E-06, 15.000160000000001, 1.163, 7.376, 25, 0.15767353579175705
DataValue, -1.4000000000000002E-06, 15.000380000000002, 1.1776, 7.473, 25, 0.1575806235782149
DataValue, -1.6000000000000001E-06, 15.00106, 1.195, 7.5775000000000006, 25, 0.15770372814252723
DataValue, -1.8000000000000001E-06, 14.99942, 1.2087, 7.646, 25, 0.15808265759874446
DataValue, -1.6000000000000001E-06, 15.000160000000001, 1.2227000000000001, 7.719, 25, 0.158401347324783
DataValue, -2.0000000000000003E-06, 14.99994, 1.2376, 7.8305, 25, 0.15804865589681374
DataValue, -2.4000000000000003E-06, 14.99956, 1.252, 7.9245, 25, 0.15799104044419207
DataValue, -2.4000000000000003E-06, 15.000300000000001, 1.2668000000000002, 8.0105, 25, 0.15814243805005931
DataValue, -1.4000000000000002E-06, 14.9998, 1.2822, 8.123, 25, 0.15784808568262959
DataValue, -1.7000000000000002E-06, 15.000300000000001, 1.2990000000000002, 8.187, 25, 0.15866617808721145
DataValue, -2.2E-06, 15.000380000000002, 1.3129, 8.2865, 25, 0.15843842394255717
DataValue, -1.3E-06, 14.99994, 1.3283, 8.356, 25, 0.15896361895643849
DataValue, -1.9000000000000002E-06, 15.00064, 1.3435000000000001, 8.4565, 25, 0.15887187370661624
DataValue, -2.5E-06, 15.000320000000002, 1.3572, 8.573500000000001, 25, 0.15830174374526154
DataValue, -3E-06, 14.99966, 1.3711, 8.661, 25, 0.15830735480891353
DataValue, -1.5E-06, 14.999920000000001, 1.3867, 8.7555, 25, 0.15838044657643768
DataValue, -1.5E-06, 15.00064, 1.4016, 8.835, 25, 0.15864176570458402
DataValue, -2.7000000000000004E-06, 15.000160000000001, 1.4161000000000001, 8.9310000000000009, 25, 0.15856007166050834
DataValue, -2.3E-06, 14.9998, 1.4304000000000001, 9.006, 25, 0.15882744836775484
DataValue, -2.4000000000000003E-06, 14.999900000000002, 1.4474, 9.1075, 25, 0.15892396376612683
DataValue, -2.5E-06, 15.000020000000001, 1.46, 9.1905, 25, 0.15885969207333658
DataValue, -2.6E-06, 14.999860000000002, 1.4774, 9.304, 25, 0.15879191745485813
DataValue, -2.6E-06, 14.999960000000002, 1.4925000000000002, 9.417, 25, 0.15848996495699269
DataValue, -3.1000000000000004E-06, 14.999620000000002, 1.5066000000000002, 9.486, 25, 0.15882352941176472
DataValue, -1.7000000000000002E-06, 15.00026, 1.5197, 9.5925, 25, 0.15842585353140476
DataValue, -3.3E-06, 14.999620000000002, 1.5336, 9.6575, 25, 0.15879886098886875
DataValue, -2.0000000000000003E-06, 15.0005, 1.5511000000000002, 9.7405, 25, 0.159242338688979
DataValue, -1.7000000000000002E-06, 15.00046, 1.5661, 9.852, 25, 0.15896264717823791
DataValue, -1.5E-06, 15.000420000000002, 1.5808, 9.9305, 25, 0.1591863450984341
DataValue, -1.2000000000000002E-06, 14.999960000000002, 1.5953000000000002, 10.031, 25, 0.15903698534542918
DataValue, -2.6E-06, 14.999820000000002, 1.6103, 10.113, 25, 0.15923069316721053
DataValue, -2.2E-06, 15.000140000000002, 1.6252, 10.202, 25, 0.15930209762791608
DataValue, -1.6000000000000001E-06, 15.000020000000001, 1.6404, 10.301, 25, 0.15924667508008933
DataValue, -2.3E-06, 15.000020000000001, 1.6529, 10.3895, 25, 0.15909331536647578
DataValue, -1.1E-06, 14.99994, 1.6677000000000002, 10.479000000000001, 25, 0.15914686515888921
DataValue, -1.9000000000000002E-06, 15.000000000000002, 1.6805, 10.5585, 25, 0.15916086565326515
DataValue, -2.7000000000000004E-06, 15.00022, 1.6967, 10.662, 25, 0.15913524667041831
DataValue, -1.8000000000000001E-06, 14.99932, 1.7128, 10.7495, 25, 0.15933764361133077
DataValue, -1.5E-06, 14.999720000000002, 1.7241000000000002, 10.839500000000001, 25, 0.15905715208266064
DataValue, -1.4000000000000002E-06, 15.00012, 1.7389000000000001, 10.918000000000001, 25, 0.15926909690419491
DataValue, -2.4000000000000003E-06, 14.99928, 1.7521, 10.9895, 25, 0.1594340051867692
DataValue, -2.3E-06, 15.00012, 1.766, 11.081, 25, 0.15937189784315495
DataValue, -2.3E-06, 14.999960000000002, 1.7745000000000002, 11.142, 25, 0.1592622509423802
DataValue, -1.6000000000000001E-06, 15.00022, 1.7863, 11.2075, 25, 0.15938434084318537
DataValue, -2.0000000000000003E-06, 15.000280000000002, 1.794, 11.264, 25, 0.15926846590909091
DataValue, -6.0000000000000008E-07, 14.999740000000001, 1.8008000000000002, 11.326500000000001, 25, 0.15898997925219618
DataValue, -1.2000000000000002E-06, 15.000040000000002, 1.8067000000000002, 11.356, 25, 0.15909651285663967
DataValue, -1.2000000000000002E-06, 15.000240000000002, 1.8128000000000002, 11.4235, 25, 0.15869041887337507
DataValue, -7.0000000000000007E-07, 14.999880000000001, 1.8169000000000002, 11.4375, 25, 0.15885464480874317
DataValue, 1.0000000000000001E-07, 15.000280000000002, 1.822, 11.46, 25, 0.15898778359511342
DataValue, -2.0000000000000003E-06, 14.99966, 1.8241, 11.484, 25, 0.15883838383838383
DataValue, -3.0000000000000004E-07, 15.000320000000002, 1.8256000000000001, 11.5055, 25, 0.15867193950719222
DataValue, -1.8000000000000001E-06, 15.000300000000001, 1.8270000000000002, 11.5115, 25, 0.15871085436302829
DataValue, -1.3E-06, 15.00022, 1.8297, 11.5035, 25, 0.15905593949667493
DataValue, -7.0000000000000007E-07, 15.00022, 1.8313000000000002, 11.5215, 25, 0.15894631775376472
DataValue, -1.2000000000000002E-06, 14.999820000000002, 1.8337, 11.532, 25, 0.15900971210544573
DataValue, -2.5E-06, 14.99932, 1.8351000000000002, 11.552, 25, 0.15885560941828256
DataValue, -1.2000000000000002E-06, 14.999580000000002, 1.8359, 11.5555, 25, 0.15887672536887196
DataValue, -1.7000000000000002E-06, 14.999120000000001, 1.8343, 11.562, 25, 0.15864902266043937
DataValue, -1.5E-06, 14.9998, 1.8366, 11.5795, 25, 0.15860788462368841
DataValue, -2.3E-06, 14.999500000000001, 1.8371000000000002, 11.578, 25, 0.15867161858697532
DataValue, -6.0000000000000008E-07, 14.999500000000001, 1.838, 11.583, 25, 0.158680825347492
DataValue, -1.6000000000000001E-06, 15.000100000000002, 1.8375000000000001, 11.571, 25, 0.15880217785843923
DataValue, -1.6000000000000001E-06, 14.999780000000001, 1.8398, 11.584, 25, 0.1588225138121547
DataValue, -1.1E-06, 14.999920000000001, 1.8375000000000001, 11.5725, 25, 0.15878159429682437
DataValue, -1.3E-06, 14.99966, 1.8393000000000002, 11.594, 25, 0.15864240124202175
DataValue, -1.9000000000000002E-06, 14.9998, 1.8409, 11.5845, 25, 0.15891061331952178
DataValue, -6.0000000000000008E-07, 14.999640000000001, 1.8414000000000002, 11.5935, 25, 0.15883037909173245
DataValue, -1.8000000000000001E-06, 14.000060000000001, 0.0145, 0.092, 25, 0.15760869565217392
DataValue, -2.4000000000000003E-06, 14.000060000000001, 0.0297, 0.188, 25, 0.15797872340425531
DataValue, -2.5E-06, 14.000100000000002, 0.0419, 0.2285, 25, 0.18336980306345732
DataValue, -2.0000000000000002E-07, 14.000340000000001, 0.055400000000000005, 0.336, 25, 0.16488095238095238
DataValue, -2.0000000000000003E-06, 14.000140000000002, 0.0692, 0.425, 25, 0.1628235294117647
DataValue, -2.2E-06, 13.999620000000002, 0.086500000000000007, 0.5235, 25, 0.1652340019102197
DataValue, -1.1E-06, 13.999880000000001, 0.1024, 0.627, 25, 0.16331738437001594
DataValue, -1.8000000000000001E-06, 14.0005, 0.1178, 0.7175, 25, 0.16418118466898954
DataValue, -2.8000000000000003E-06, 13.999920000000001, 0.1343, 0.8255, 25, 0.1626892792247123
DataValue, -1.3E-06, 14.000100000000002, 0.14880000000000002, 0.9365, 25, 0.15888948211425522
DataValue, -2.0000000000000003E-06, 14.000020000000001, 0.1655, 1.0230000000000001, 25, 0.16177908113391984
DataValue, -1.9000000000000002E-06, 13.999460000000001, 0.17800000000000002, 1.1055, 25, 0.16101311623699685
DataValue, -2.2E-06, 14.00004, 0.194, 1.2055, 25, 0.160929075072584
DataValue, -1.6000000000000001E-06, 13.99984, 0.2078, 1.29, 25, 0.16108527131782946
DataValue, -1.0000000000000002E-06, 14.000420000000002, 0.2235, 1.3915, 25, 0.16061803808839384
DataValue, -1.3E-06, 13.999900000000002, 0.2388, 1.491, 25, 0.1601609657947686
DataValue, -1.4000000000000002E-06, 13.999480000000002, 0.2529, 1.5945, 25, 0.15860771401693322
DataValue, -1.8000000000000001E-06, 14.000100000000002, 0.2686, 1.681, 25, 0.15978584176085664
DataValue, -1.9000000000000002E-06, 14.00008, 0.28350000000000003, 1.7945, 25, 0.15798272499303429
DataValue, -1.8000000000000001E-06, 13.999600000000001, 0.299, 1.8765, 25, 0.15933919531041832
DataValue, -1.8000000000000001E-06, 14.00012, 0.31320000000000003, 1.968, 25, 0.15914634146341466
DataValue, -3.3E-06, 13.99956, 0.33030000000000004, 2.075, 25, 0.15918072289156626
DataValue, 1.0000000000000001E-07, 14.000440000000001, 0.3441, 2.156, 25, 0.15960111317254175
DataValue, -1.1E-06, 13.99998, 0.3593, 2.2445, 25, 0.16008019603475163
DataValue, -1.6000000000000001E-06, 14.000440000000001, 0.3739, 2.3535, 25, 0.15886976842999789
DataValue, -1.2000000000000002E-06, 14.000900000000002, 0.387, 2.4515000000000002, 25, 0.15786253314297369
DataValue, -2.5E-06, 13.999400000000001, 0.40390000000000004, 2.5435, 25, 0.15879693335954395
DataValue, -2.1000000000000002E-06, 14.00012, 0.4181, 2.6135, 25, 0.1599770422804668
DataValue, -2.0000000000000003E-06, 14.000580000000001, 0.4333, 2.719, 25, 0.15936005884516369
DataValue, -1.3E-06, 14.000060000000001, 0.4491, 2.825, 25, 0.15897345132743362
DataValue, -3E-06, 14.000000000000002, 0.4635, 2.9115, 25, 0.15919629057187018
DataValue, -1.2000000000000002E-06, 14.0004, 0.47790000000000005, 3.0135, 25, 0.15858636137381782
DataValue, -1.8000000000000001E-06, 14.00064, 0.49100000000000005, 3.1, 25, 0.15838709677419355
DataValue, -2.9E-06, 14.00022, 0.509, 3.188, 25, 0.1596612296110414
DataValue, -2.2E-06, 13.999900000000002, 0.523, 3.285, 25, 0.15920852359208523
DataValue, -1.6000000000000001E-06, 13.999400000000001, 0.5392, 3.382, 25, 0.15943228858663514
DataValue, -1.6000000000000001E-06, 13.999540000000001, 0.5536, 3.4735, 25, 0.15937814884122642
DataValue, -1.7000000000000002E-06, 13.999780000000001, 0.5693, 3.568, 25, 0.1595571748878924
DataValue, -1.7000000000000002E-06, 13.999580000000002, 0.5815, 3.6630000000000003, 25, 0.15874965874965874
DataValue, -7.0000000000000007E-07, 14.000440000000001, 0.59710000000000008, 3.735, 25, 0.15986613119143242
DataValue, -2.4000000000000003E-06, 14.000160000000001, 0.611, 3.8360000000000003, 25, 0.15928050052137641
DataValue, -1.2000000000000002E-06, 14.00092, 0.62530000000000008, 3.9165, 25, 0.15965785778118219
DataValue, -1.2000000000000002E-06, 13.99994, 0.64050000000000007, 4.0120000000000005, 25, 0.15964606181455632
DataValue, -1.3E-06, 14.00018, 0.6551, 4.0985000000000005, 25, 0.15983896547517382
DataValue, -1.2000000000000002E-06, 13.999900000000002, 0.67070000000000007, 4.2155000000000005, 25, 0.15910330921598861
DataValue, -1.3E-06, 14.00102, 0.6865, 4.3085, 25, 0.1593361958918417
DataValue, -3E-06, 14.00018, 0.7006, 4.388, 25, 0.15966271649954422
DataValue, -2.5E-06, 13.999820000000002, 0.71500000000000008, 4.491, 25, 0.15920730349588069
DataValue, -2.9E-06, 13.999460000000001, 0.73, 4.591, 25, 0.15900675234153777
DataValue, -1.9000000000000002E-06, 13.998780000000002, 0.74620000000000009, 4.6905, 25, 0.1590875173222471
DataValue, -2.9E-06, 13.999640000000001, 0.7616, 4.787, 25, 0.15909755588050972
DataValue, -1.6000000000000001E-06, 14.000060000000001, 0.77540000000000009, 4.868, 25, 0.15928512736236647
DataValue, -3.9E-06, 13.99952, 0.79050000000000009, 4.961, 25, 0.15934287442047976
DataValue, -1.3E-06, 13.999920000000001, 0.8053, 5.0555, 25, 0.15929186035011372
DataValue, -2.7000000000000004E-06, 13.999620000000002, 0.82080000000000009, 5.1495, 25, 0.15939411593358582
DataValue, -2.2E-06, 13.999900000000002, 0.8366, 5.243, 25, 0.15956513446500095
DataValue, -1.5E-06, 14.00046, 0.8505, 5.3275, 25, 0.15964335992491791
