
SetupTitle, Rds-Id
ApplicationTest, Rds-Id, Public
TestParameter, Name, Memo, Scale, HoldTime, PulseBase, PulseAvgCnt, Gate, VgStart, VgStop, VgStep, IgLimit, Source, MeasurementTime, Drain, IdStart, IdStop, IdLinearStep, VdLimit, VdStop, PulsePeriodMode, ManualPulsePeriod, PulseWidth
TestParameter, Value, , LINEAR, 0, 0, 1, SMU2:MC	MCSMU, 20, 5, 1, 0.1, GNDU:GND	GNDU, 1E-05, SMU3:UHC500	UHCU500A, 0.5, 5, 0.2, 2, 0, 0, 0.05, 0.0002
DutParameter, Name, Polarity, Temp, YAxisRdsMin, YAxisRdsMax
DutParameter, Value, 1, 25, 0.001, 1
MetaData, TestRecord.EntryPoint, true
MetaData, TestRecord.RecordTime, 04/20/2021 09:14:18
MetaData, TestRecord.TestTarget, 
MetaData, TestRecord.IterationIndex, 1
MetaData, TestRecord.Preservation, true
MetaData, TestRecord.Flag, 
MetaData, TestRecord.Remarks, 
MetaData, TestRecord.LinkKey, bb9c8a6a-5401-4b61-bc37-58e29514ee6f
Dimension1, 23, 23, 23, 23, 23, 23
Dimension2, 16, 16, 16, 16, 16, 16
DataName, Igate, Vgate, Vdrain, Idrain, Ta, Rds
DataValue, -3.0000000000000004E-07, 20.00006, 0.0767, 0.061, 25, 1.257377049180328
DataValue, -1.5E-06, 20.000480000000003, 0.1545, 0.1615, 25, 0.956656346749226
DataValue, -7.0000000000000007E-07, 20.00008, 0.2561, 0.217, 25, 1.1801843317972349
DataValue, -1.5E-06, 19.999640000000003, 0.3682, 0.3645, 25, 1.0101508916323732
DataValue, -2.5E-06, 19.99962, 0.4778, 0.437, 25, 1.0933638443935927
DataValue, -1.0000000000000002E-06, 20.00054, 0.58200000000000007, 0.5505, 25, 1.0572207084468666
DataValue, -1.5E-06, 20.000220000000002, 0.7012, 0.641, 25, 1.0939157566302653
DataValue, -1.4000000000000002E-06, 20.000100000000003, 0.81870000000000009, 0.76150000000000007, 25, 1.0751149047931714
DataValue, -1.1E-06, 20.00018, 0.934, 0.887, 25, 1.0529875986471251
DataValue, -1.2000000000000002E-06, 20.000320000000002, 1.0488, 0.95900000000000007, 25, 1.0936392075078205
DataValue, -1.1E-06, 20, 1.1601000000000001, 1.095, 25, 1.0594520547945208
DataValue, -2.1000000000000002E-06, 19.999640000000003, 1.284, 1.2155, 25, 1.0563554092965857
DataValue, -7.0000000000000007E-07, 19.99932, 1.391, 1.274, 25, 1.0918367346938775
DataValue, -2.2E-06, 19.99988, 1.4969000000000001, 1.4025, 25, 1.0673083778966133
DataValue, -1.7000000000000002E-06, 19.999480000000002, 1.5631000000000002, 1.4525000000000001, 25, 1.0761445783132531
DataValue, -1.6000000000000001E-06, 20.000140000000002, 1.5912000000000002, 1.462, 25, 1.0883720930232559
DataValue, -1.2000000000000002E-06, 19.9998, 1.6016000000000001, 1.4895, 25, 1.0752601544142331
DataValue, -1.5E-06, 19.9993, 1.6092000000000002, 1.5, 25, 1.0728000000000002
DataValue, -9.0000000000000007E-07, 20.000600000000002, 1.6102, 1.4865, 25, 1.0832156071308443
DataValue, -1.1E-06, 19.999380000000002, 1.6147, 1.493, 25, 1.0815137307434695
DataValue, -1.9000000000000002E-06, 19.999920000000003, 1.6143, 1.489, 25, 1.0841504365345869
DataValue, -1.6000000000000001E-06, 20.00072, 1.6138000000000001, 1.4905, 25, 1.0827239181482726
DataValue, -7.0000000000000007E-07, 20.000120000000003, 1.6146, 1.508, 25, 1.0706896551724139
DataValue, -1.3E-06, 19.00084, 0.0779, 0.0815, 25, 0.95582822085889563
DataValue, -1.0000000000000002E-06, 18.999640000000003, 0.1681, 0.136, 25, 1.2360294117647057
DataValue, -8.0000000000000007E-07, 18.999540000000003, 0.257, 0.23600000000000002, 25, 1.0889830508474576
DataValue, -1.2000000000000002E-06, 18.99968, 0.3694, 0.34950000000000003, 25, 1.0569384835479256
DataValue, -4.0000000000000003E-07, 19.000760000000003, 0.4853, 0.4505, 25, 1.0772475027746948
DataValue, -1.0000000000000002E-06, 18.999840000000003, 0.5895, 0.5735, 25, 1.027898866608544
DataValue, -1.3E-06, 18.99986, 0.7075, 0.62950000000000006, 25, 1.1239078633836377
DataValue, -1.6000000000000001E-06, 18.999920000000003, 0.82700000000000007, 0.751, 25, 1.1011984021304928
DataValue, -1.3E-06, 18.999920000000003, 0.94070000000000009, 0.87, 25, 1.081264367816092
DataValue, -1.6000000000000001E-06, 19.00056, 1.0565, 0.9555, 25, 1.1057038199895342
DataValue, -9.0000000000000007E-07, 19.00024, 1.1767, 1.078, 25, 1.0915584415584416
DataValue, -1.7000000000000002E-06, 19.000020000000003, 1.2957, 1.181, 25, 1.0971210838272651
DataValue, -1.0000000000000002E-06, 19.00006, 1.4045, 1.247, 25, 1.1263031275060145
DataValue, -1.9000000000000002E-06, 19.000020000000003, 1.5103, 1.3665, 25, 1.1052323454079764
DataValue, 0, 18.99952, 1.5786, 1.4275, 25, 1.1058493870402801
DataValue, -5.0000000000000008E-07, 19.00044, 1.5991, 1.428, 25, 1.1198179271708684
DataValue, -1.1E-06, 19.000220000000002, 1.6113000000000002, 1.461, 25, 1.1028747433264887
DataValue, -1.0000000000000001E-07, 19.000040000000002, 1.6155000000000002, 1.4525000000000001, 25, 1.1122203098106713
DataValue, -8.0000000000000007E-07, 19.000140000000002, 1.6199000000000001, 1.4565000000000001, 25, 1.1121867490559561
DataValue, -3.0000000000000004E-07, 19.000140000000002, 1.6206, 1.4725, 25, 1.1005772495755519
DataValue, 6.0000000000000008E-07, 18.99998, 1.6216000000000002, 1.4835, 25, 1.0930906639703404
DataValue, -7.0000000000000007E-07, 19.00018, 1.6231, 1.468, 25, 1.1056539509536785
DataValue, -1.9000000000000002E-06, 18.99968, 1.623, 1.4475, 25, 1.1212435233160623
DataValue, -1.0000000000000002E-06, 17.999840000000003, 0.0796, 0.072000000000000008, 25, 1.1055555555555554
DataValue, -1.2000000000000002E-06, 17.99958, 0.1694, 0.1675, 25, 1.0113432835820895
DataValue, -9.0000000000000007E-07, 17.99952, 0.2641, 0.20350000000000001, 25, 1.2977886977886977
DataValue, -7.0000000000000007E-07, 17.999560000000002, 0.3748, 0.332, 25, 1.1289156626506025
DataValue, -5.0000000000000008E-07, 18.000140000000002, 0.4791, 0.444, 25, 1.0790540540540541
DataValue, 1.1E-06, 17.999560000000002, 0.5989, 0.526, 25, 1.1385931558935361
DataValue, -1.7000000000000002E-06, 17.999460000000003, 0.7148, 0.65, 25, 1.0996923076923078
DataValue, -3.0000000000000004E-07, 18, 0.84020000000000006, 0.7315, 25, 1.1485987696514013
DataValue, -1.1E-06, 17.99924, 0.9517, 0.8485, 25, 1.1216263995285798
DataValue, -1.0000000000000002E-06, 17.999760000000002, 1.0729, 0.9795, 25, 1.0953547728432873
DataValue, -1.5E-06, 17.999480000000002, 1.1774, 1.0170000000000001, 25, 1.1577187807276301
DataValue, 3.0000000000000004E-07, 18.00034, 1.2998, 1.1460000000000001, 25, 1.1342059336823733
DataValue, -6.0000000000000008E-07, 18.000040000000002, 1.4205, 1.2475, 25, 1.1386773547094189
DataValue, -1.4000000000000002E-06, 18.000580000000003, 1.5262, 1.3275000000000001, 25, 1.1496798493408662
DataValue, -1.2000000000000002E-06, 17.99916, 1.5884, 1.3865, 25, 1.1456184637576632
DataValue, -1.6000000000000001E-06, 17.99962, 1.6104, 1.41, 25, 1.1421276595744683
DataValue, 3.0000000000000004E-07, 18.00006, 1.6222, 1.4125, 25, 1.1484601769911504
DataValue, -9.0000000000000007E-07, 18.000040000000002, 1.6269, 1.4175, 25, 1.1477248677248677
DataValue, -5.0000000000000008E-07, 17.99972, 1.6304, 1.442, 25, 1.1306518723994452
DataValue, -8.0000000000000007E-07, 18.00028, 1.6299000000000001, 1.408, 25, 1.1575994318181819
DataValue, -1.2000000000000002E-06, 17.99978, 1.6306, 1.4265, 25, 1.1430774623203646
DataValue, -8.0000000000000007E-07, 18.000320000000002, 1.6309, 1.419, 25, 1.1493305144467936
DataValue, -1.2000000000000002E-06, 17.999260000000003, 1.6303, 1.4045, 25, 1.1607689569241724
DataValue, -2.0000000000000003E-06, 16.9995, 0.0756, 0.0505, 25, 1.497029702970297
DataValue, -8.0000000000000007E-07, 17.00008, 0.1645, 0.1265, 25, 1.3003952569169961
DataValue, 0, 17.0001, 0.2721, 0.2265, 25, 1.2013245033112583
DataValue, 2.0000000000000002E-07, 17.000400000000003, 0.386, 0.34450000000000003, 25, 1.1204644412191582
DataValue, -2.0000000000000002E-07, 16.99986, 0.4924, 0.4285, 25, 1.1491248541423571
DataValue, -9.0000000000000007E-07, 17.00076, 0.6157, 0.526, 25, 1.1705323193916351
DataValue, -5.0000000000000008E-07, 16.9996, 0.7258, 0.6245, 25, 1.1622097678142513
DataValue, -1.2000000000000002E-06, 17.000020000000003, 0.8459, 0.7285, 25, 1.161153054221002
DataValue, 0, 16.9996, 0.96390000000000009, 0.82600000000000007, 25, 1.166949152542373
DataValue, -3.0000000000000004E-07, 17.00036, 1.076, 0.9125, 25, 1.179178082191781
DataValue, -1.8000000000000001E-06, 16.9997, 1.2002000000000002, 1.0395, 25, 1.1545935545935546
DataValue, -6.0000000000000008E-07, 17.00024, 1.3256000000000001, 1.1435, 25, 1.1592479230432884
DataValue, -7.0000000000000007E-07, 16.999460000000003, 1.4484000000000001, 1.2285, 25, 1.1789987789987793
DataValue, -4.0000000000000003E-07, 16.99968, 1.5483, 1.3015, 25, 1.1896273530541681
DataValue, -1.0000000000000002E-06, 16.99986, 1.6005, 1.3515, 25, 1.1842397336293009
DataValue, -2.2E-06, 16.9994, 1.6249, 1.3935, 25, 1.1660566917832795
DataValue, -8.0000000000000007E-07, 16.999560000000002, 1.6316000000000002, 1.389, 25, 1.1746580273578116
DataValue, -6.0000000000000008E-07, 16.9998, 1.6377000000000002, 1.3675, 25, 1.1975868372943328
DataValue, -1.4000000000000002E-06, 16.99998, 1.6377000000000002, 1.366, 25, 1.1989019033674964
DataValue, -8.0000000000000007E-07, 17.000040000000002, 1.6396000000000002, 1.395, 25, 1.1753405017921148
DataValue, -4.0000000000000003E-07, 16.999840000000003, 1.6404, 1.399, 25, 1.1725518227305218
DataValue, -1.2000000000000002E-06, 17.000120000000003, 1.6409, 1.3855, 25, 1.1843377841934319
DataValue, -9.0000000000000007E-07, 17.00006, 1.6429, 1.379, 25, 1.1913705583756344
DataValue, -5.0000000000000008E-07, 15.999520000000002, 0.0752, 0.0685, 25, 1.0978102189781021
DataValue, -2.0000000000000002E-07, 15.999860000000002, 0.16790000000000002, 0.1445, 25, 1.161937716262976
DataValue, -1.3E-06, 15.999920000000001, 0.27590000000000003, 0.2215, 25, 1.2455981941309255
DataValue, -4.0000000000000003E-07, 15.999200000000002, 0.377, 0.3175, 25, 1.1874015748031497
DataValue, -2.0000000000000002E-07, 16.000300000000003, 0.509, 0.444, 25, 1.1463963963963963
DataValue, 2.0000000000000002E-07, 16.0001, 0.618, 0.508, 25, 1.2165354330708662
DataValue, -8.0000000000000007E-07, 16.000120000000003, 0.7411, 0.613, 25, 1.2089722675367047
DataValue, -1.1E-06, 16.000020000000003, 0.8638, 0.733, 25, 1.1784447476125513
DataValue, -1.1E-06, 16.00034, 0.9733, 0.802, 25, 1.2135910224438902
DataValue, -1.7000000000000002E-06, 15.999540000000001, 1.0995000000000001, 0.893, 25, 1.231243001119821
DataValue, -1.3E-06, 15.999860000000002, 1.2274, 0.983, 25, 1.2486266531027468
DataValue, -8.0000000000000007E-07, 16.000320000000002, 1.3466, 1.1185, 25, 1.2039338399642379
DataValue, -7.0000000000000007E-07, 16.000120000000003, 1.4715, 1.2125000000000001, 25, 1.2136082474226804
DataValue, -1.1E-06, 16.000420000000002, 1.5682, 1.2765, 25, 1.228515471993733
DataValue, 6.0000000000000008E-07, 15.999060000000002, 1.6186, 1.305, 25, 1.2403065134099618
DataValue, -8.0000000000000007E-07, 15.999820000000002, 1.6392, 1.3185, 25, 1.2432309442548351
DataValue, -4.0000000000000003E-07, 15.999900000000002, 1.6456000000000002, 1.3155000000000001, 25, 1.2509312048650703
DataValue, -1.0000000000000002E-06, 15.999460000000001, 1.6479000000000001, 1.356, 25, 1.2152654867256638
DataValue, -7.0000000000000007E-07, 15.999920000000001, 1.6517000000000002, 1.3465, 25, 1.2266617155588564
DataValue, 4.0000000000000003E-07, 15.99966, 1.6535, 1.3495, 25, 1.2252686180066692
DataValue, -1.1E-06, 15.99998, 1.6531, 1.335, 25, 1.2382771535580526
DataValue, 3.0000000000000004E-07, 16.000320000000002, 1.6531, 1.339, 25, 1.2345780433159075
DataValue, -1.1E-06, 16.000420000000002, 1.6533, 1.349, 25, 1.2255744996293552
DataValue, -1.1E-06, 15.00008, 0.084200000000000011, 0.054, 25, 1.5592592592592596
DataValue, -1.1E-06, 14.999820000000002, 0.16840000000000002, 0.128, 25, 1.315625
DataValue, -6.0000000000000008E-07, 15.000520000000002, 0.27540000000000003, 0.20700000000000002, 25, 1.3304347826086957
DataValue, -1.3E-06, 15.000980000000002, 0.3932, 0.3165, 25, 1.2423380726698261
DataValue, -2.1000000000000002E-06, 14.999820000000002, 0.5148, 0.41300000000000003, 25, 1.2464891041162227
DataValue, -6.0000000000000008E-07, 15.000340000000001, 0.63230000000000008, 0.494, 25, 1.2799595141700406
DataValue, -1.2000000000000002E-06, 14.999880000000001, 0.7546, 0.599, 25, 1.2597662771285476
DataValue, -1.3E-06, 15.000320000000002, 0.86930000000000007, 0.687, 25, 1.2653566229985445
DataValue, -8.0000000000000007E-07, 15.000320000000002, 1.0010000000000001, 0.797, 25, 1.2559598494353828
DataValue, 4.0000000000000003E-07, 15.000760000000001, 1.122, 0.89250000000000007, 25, 1.2571428571428571
DataValue, -1.0000000000000002E-06, 15.000140000000002, 1.2507000000000001, 0.9795, 25, 1.2768759571209802
DataValue, -1.8000000000000001E-06, 15.00008, 1.3724, 1.067, 25, 1.2862230552952203
DataValue, -2.0000000000000002E-07, 15.000140000000002, 1.4946000000000002, 1.17, 25, 1.2774358974358977
DataValue, -7.0000000000000007E-07, 14.999900000000002, 1.5906, 1.226, 25, 1.2973898858075041
DataValue, -4.0000000000000003E-07, 14.999780000000001, 1.6382, 1.2815, 25, 1.2783456886461178
DataValue, -9.0000000000000007E-07, 15.000320000000002, 1.6535, 1.2670000000000001, 25, 1.3050513022888712
DataValue, -7.0000000000000007E-07, 15.000420000000002, 1.661, 1.2705, 25, 1.3073593073593075
DataValue, -1.0000000000000001E-07, 15.000040000000002, 1.6634, 1.2725, 25, 1.3071905697445974
DataValue, -5.0000000000000008E-07, 14.999600000000001, 1.6656, 1.2735, 25, 1.3078916372202589
DataValue, 5.0000000000000008E-07, 15.000480000000001, 1.6652, 1.28, 25, 1.3009375
DataValue, -6.0000000000000008E-07, 15.000140000000002, 1.6684, 1.292, 25, 1.2913312693498453
DataValue, -4.0000000000000003E-07, 14.99956, 1.6694, 1.303, 25, 1.28119723714505
DataValue, -2.0000000000000002E-07, 14.999900000000002, 1.669, 1.2775, 25, 1.3064579256360078
DataValue, -9.0000000000000007E-07, 13.9997, 0.0782, 0.0675, 25, 1.1585185185185185
DataValue, 7.0000000000000007E-07, 14.00026, 0.1738, 0.1475, 25, 1.1783050847457628
DataValue, -5.0000000000000008E-07, 14.000680000000001, 0.2887, 0.229, 25, 1.2606986899563319
DataValue, -5.0000000000000008E-07, 13.99984, 0.39890000000000003, 0.3255, 25, 1.2254992319508449
DataValue, -1.2000000000000002E-06, 13.999600000000001, 0.52060000000000006, 0.41300000000000003, 25, 1.2605326876513319
DataValue, 4.0000000000000003E-07, 14.000240000000002, 0.6372, 0.494, 25, 1.2898785425101214
DataValue, -1.2000000000000002E-06, 13.999080000000001, 0.7639, 0.5805, 25, 1.3159345391903532
DataValue, -1.5E-06, 14.000000000000002, 0.89440000000000008, 0.6635, 25, 1.3480030143180106
DataValue, -6.0000000000000008E-07, 13.999900000000002, 1.0253, 0.7445, 25, 1.3771658831430491
DataValue, -1.0000000000000002E-06, 13.999900000000002, 1.1372, 0.8325, 25, 1.366006006006006
DataValue, -1.0000000000000002E-06, 13.999960000000002, 1.2706, 0.9325, 25, 1.362573726541555
DataValue, -2.3E-06, 13.99998, 1.4038000000000002, 1.0095, 25, 1.3905894006934128
DataValue, -2.0000000000000002E-07, 14.000480000000001, 1.5290000000000001, 1.109, 25, 1.3787195671776376
DataValue, -1.9000000000000002E-06, 13.999820000000002, 1.6225, 1.1695, 25, 1.3873450192389911
DataValue, -1.2000000000000002E-06, 14.00012, 1.6577000000000002, 1.1925000000000001, 25, 1.390104821802935
DataValue, 2.0000000000000002E-07, 13.999920000000001, 1.6741000000000001, 1.2215, 25, 1.3705280392959478
DataValue, 4.0000000000000003E-07, 13.999620000000002, 1.6794, 1.202, 25, 1.397171381031614
DataValue, -5.0000000000000008E-07, 13.999680000000002, 1.6819000000000002, 1.218, 25, 1.3808702791461414
DataValue, -8.0000000000000007E-07, 14.000280000000002, 1.6849, 1.2175, 25, 1.3839014373716632
DataValue, -1.1E-06, 14.0004, 1.687, 1.211, 25, 1.3930635838150289
DataValue, 0, 13.999900000000002, 1.6853, 1.1965000000000001, 25, 1.4085248641872126
DataValue, -1.6000000000000001E-06, 14.000100000000002, 1.6845, 1.1995, 25, 1.4043351396415174
DataValue, -1.5E-06, 13.999900000000002, 1.6871, 1.2155, 25, 1.3879884821061292
DataValue, -1.0000000000000001E-07, 13.000480000000001, 0.084, 0.0525, 25, 1.6
DataValue, -1.5E-06, 13.0004, 0.182, 0.1205, 25, 1.5103734439834025
DataValue, -5.0000000000000008E-07, 13.000560000000002, 0.29410000000000003, 0.203, 25, 1.4487684729064039
DataValue, 7.0000000000000007E-07, 12.999920000000001, 0.4033, 0.28350000000000003, 25, 1.422574955908289
DataValue, 1.0000000000000001E-07, 13.00054, 0.5368, 0.3895, 25, 1.3781771501925546
DataValue, -6.0000000000000008E-07, 12.99956, 0.6533, 0.467, 25, 1.3989293361884367
DataValue, -1.0000000000000002E-06, 12.99976, 0.78350000000000009, 0.528, 25, 1.4839015151515151
DataValue, 0, 12.999920000000001, 0.9195000000000001, 0.63650000000000007, 25, 1.4446190102120975
DataValue, -1.1E-06, 13.000300000000001, 1.0561, 0.7215, 25, 1.4637560637560638
DataValue, -8.0000000000000007E-07, 12.999580000000002, 1.1842000000000001, 0.8125, 25, 1.4574769230769233
DataValue, -1.6000000000000001E-06, 13.00012, 1.306, 0.89050000000000007, 25, 1.4665918023582256
DataValue, -1.7000000000000002E-06, 12.99994, 1.4455, 0.9735, 25, 1.4848484848484849
DataValue, -1.5E-06, 12.9998, 1.5696, 1.0495, 25, 1.4955693187232015
DataValue, -5.0000000000000008E-07, 13.00064, 1.6535, 1.0965, 25, 1.5079799361605106
DataValue, -1.7000000000000002E-06, 12.999680000000002, 1.6843000000000001, 1.124, 25, 1.4984875444839858
DataValue, 4.0000000000000003E-07, 13.000020000000001, 1.6969, 1.1295, 25, 1.5023461708720673
DataValue, -7.0000000000000007E-07, 13.00004, 1.7001000000000002, 1.1285, 25, 1.5065130704474967
DataValue, -1.3E-06, 12.99984, 1.7040000000000002, 1.137, 25, 1.4986807387862797
DataValue, 1.0000000000000001E-07, 12.99998, 1.705, 1.1415, 25, 1.4936487078405607
DataValue, -1.0000000000000002E-06, 13.000240000000002, 1.7057, 1.1460000000000001, 25, 1.488394415357766
DataValue, -7.0000000000000007E-07, 12.99942, 1.7073, 1.1380000000000001, 25, 1.5002636203866431
DataValue, 0, 13.000580000000001, 1.7072, 1.1225, 25, 1.5208908685968818
DataValue, -3.0000000000000004E-07, 13.000140000000002, 1.7071, 1.1185, 25, 1.5262405006705408
DataValue, -1.0000000000000002E-06, 12.000000000000002, 0.091400000000000009, 0.063, 25, 1.450793650793651
DataValue, 2.0000000000000002E-07, 11.99948, 0.1812, 0.1275, 25, 1.4211764705882353
DataValue, -4.0000000000000003E-07, 11.999580000000002, 0.3017, 0.211, 25, 1.4298578199052134
DataValue, -1.5E-06, 11.99998, 0.4277, 0.2925, 25, 1.4622222222222223
DataValue, -7.0000000000000007E-07, 12.00018, 0.5584, 0.3885, 25, 1.4373230373230372
DataValue, -1.8000000000000001E-06, 11.999300000000002, 0.67770000000000008, 0.4505, 25, 1.5043285238623754
DataValue, -4.0000000000000003E-07, 11.999440000000002, 0.82380000000000009, 0.5435, 25, 1.5157313707451705
DataValue, -8.0000000000000007E-07, 12.00012, 0.94500000000000006, 0.605, 25, 1.5619834710743803
DataValue, -5.0000000000000008E-07, 12.00074, 1.0858, 0.6765, 25, 1.6050258684405028
DataValue, -1.0000000000000002E-06, 12.000140000000002, 1.2187000000000001, 0.7755, 25, 1.5715022566086399
DataValue, -2.2E-06, 11.99984, 1.363, 0.8535, 25, 1.5969537199765671
DataValue, -1.2000000000000002E-06, 11.999860000000002, 1.4891, 0.9195, 25, 1.619467101685699
DataValue, -2.4000000000000003E-06, 12.000060000000001, 1.6171, 0.9755, 25, 1.6577139928241926
DataValue, 2.0000000000000002E-07, 12.0005, 1.6900000000000002, 1.0075, 25, 1.6774193548387097
DataValue, 5.0000000000000008E-07, 12.000140000000002, 1.7149, 1.008, 25, 1.7012896825396826
DataValue, -1.7000000000000002E-06, 11.9999, 1.724, 1.0225, 25, 1.6860635696821515
DataValue, -1.2000000000000002E-06, 12.000000000000002, 1.7273, 1.0195, 25, 1.6942618930848454
DataValue, -4.0000000000000003E-07, 12.000760000000001, 1.731, 1.025, 25, 1.6887804878048782
DataValue, -1.9000000000000002E-06, 11.9997, 1.7312, 1.028, 25, 1.6840466926070039
DataValue, -5.0000000000000008E-07, 11.99984, 1.7327000000000001, 1.0255, 25, 1.6896148220380303
