
SetupTitle, ID-VGS
PrimitiveTest, Multi Channel I/V Sweep
TestParameter, Channel.UnitType, SMU, SMU
TestParameter, Channel.Unit, SMU2:MC, SMU3:UHC500
TestParameter, Channel.IName, IG, ID
TestParameter, Channel.VName, VGS, VDS
TestParameter, Channel.Mode, VPULSE, VPULSE
TestParameter, Channel.Func, VAR1, CONST
TestParameter, Channel.Index, 
TestParameter, Channel.Time, 
TestParameter, Measurement.Port.Unit, SMU2:MC, SMU3:UHC500
TestParameter, Measurement.Port.SeriesResistor, NONE, NONE
TestParameter, Measurement.Port.Filter, OFF, OFF
TestParameter, Measurement.Port.OutputVoltageComparison, 0, 0
TestParameter, Measurement.Primary.Start, 0
TestParameter, Measurement.Primary.Stop, 10
TestParameter, Measurement.Primary.Compliance, 0.099999999999999992
TestParameter, Measurement.Primary.PowerCompliance, 0
TestParameter, Measurement.Primary.Locus, Single
TestParameter, Measurement.Primary.Scale, LINEAR
TestParameter, Measurement.Primary.Count, 2001
TestParameter, Measurement.Aborting.Condition, CONTINUE AT ANY
TestParameter, Measurement.PostOutput.Value, START
TestParameter, Measurement.PostOutput.Retention, OFF
TestParameter, Measurement.Bias.Source, 0, 3
TestParameter, Measurement.Bias.Compliance, 0.099999999999999992, 5
TestParameter, Measurement.Pulse.Delay, 0, 9.9999999999999991E-05
TestParameter, Measurement.Pulse.Duration, 0.001, 4.9999999999999996E-05
TestParameter, Measurement.Pulse.Base, 0, 0
TestParameter, Measurement.Pulse.Period, 0
TestParameter, Measurement.Pulse.MeasurementDelay, 0
TestParameter, Measurement.Pulse.AveragingCount, 1
TestParameter, Measurement.Monitor.Unit, SMU2:MC, SMU3:UHC500
TestParameter, Measurement.Monitor.Adc, HS ADC, HS ADC
TestParameter, Measurement.Monitor.Measurement, Force and Compliance Sides, Force and Compliance Sides
TestParameter, Measurement.Timing.Hold, 0
TestParameter, Measurement.Timing.Delay, 0
TestParameter, Measurement.Adc.HighSpeed.Mode, TIME
TestParameter, Measurement.Adc.HighSpeed.Coeff, 9.9999999999999991E-06
TestParameter, Measurement.Adc.HighResolution.AutoZero, OFF
TestParameter, Measurement.Adc.HighResolution.Mode, AUTO
TestParameter, Measurement.Adc.HighResolution.Coeff, 6
TestParameter, Measurement.WaitTime.Source.Coeff, 1
TestParameter, Measurement.WaitTime.Source.Offset, 0
TestParameter, Measurement.WaitTime.Monitor.Coeff, 1
TestParameter, Measurement.WaitTime.Monitor.Offset, 0
TestParameter, Output.Graph.Enabled, true
TestParameter, Output.Graph.AutoScaling, false
TestParameter, Output.Graph.XAxis.Data, VGS
TestParameter, Output.Graph.XAxis.Scale, Linear
TestParameter, Output.Graph.XAxis.Left, -5.4
TestParameter, Output.Graph.XAxis.Right, 12.6
TestParameter, Output.Graph.XAxis.RunTimeAutoScale, false
TestParameter, Output.Graph.YAxis.Data, ID
TestParameter, Output.Graph.YAxis.Scale, Linear
TestParameter, Output.Graph.YAxis.Bottom, 0
TestParameter, Output.Graph.YAxis.Top, 10
TestParameter, Output.Graph.YAxis.Group, 
TestParameter, Output.Graph.YAxis.RunTimeAutoScale, false
TestParameter, Output.List.Data, VGS, ID
TestParameter, AutoAnalysis.Interpolation, false
TestParameter, AutoAnalysis.Line1.Enabled, false
TestParameter, AutoAnalysis.Line1.Type, 1
TestParameter, AutoAnalysis.Line1.Fix, True
TestParameter, AutoAnalysis.Line1.YAxis, 0
TestParameter, AutoAnalysis.Line1.Point1.Type, 0
TestParameter, AutoAnalysis.Line1.Point1.XY.X, 
TestParameter, AutoAnalysis.Line1.Point1.XY.Y, 
TestParameter, AutoAnalysis.Line1.Point1.Data.Var, 
TestParameter, AutoAnalysis.Line1.Point1.Data.Condition, 
TestParameter, AutoAnalysis.Line1.Point1.Data.Start, false
TestParameter, AutoAnalysis.Line1.Point1.Data.StartVar, 
TestParameter, AutoAnalysis.Line1.Point1.Data.StartCondition, 
TestParameter, AutoAnalysis.Line1.Point2.Type, 0
TestParameter, AutoAnalysis.Line1.Point2.XY.X, 
TestParameter, AutoAnalysis.Line1.Point2.XY.Y, 
TestParameter, AutoAnalysis.Line1.Point2.Data.Var, 
TestParameter, AutoAnalysis.Line1.Point2.Data.Condition, 
TestParameter, AutoAnalysis.Line1.Point2.Data.Start, false
TestParameter, AutoAnalysis.Line1.Point2.Data.StartVar, 
TestParameter, AutoAnalysis.Line1.Point2.Data.StartCondition, 
TestParameter, AutoAnalysis.Line1.GradientExpr, 0
TestParameter, AutoAnalysis.Line2.Enabled, false
TestParameter, AutoAnalysis.Line2.Type, 1
TestParameter, AutoAnalysis.Line2.Fix, True
TestParameter, AutoAnalysis.Line2.YAxis, 0
TestParameter, AutoAnalysis.Line2.Point1.Type, 0
TestParameter, AutoAnalysis.Line2.Point1.XY.X, 
TestParameter, AutoAnalysis.Line2.Point1.XY.Y, 
TestParameter, AutoAnalysis.Line2.Point1.Data.Var, 
TestParameter, AutoAnalysis.Line2.Point1.Data.Condition, 
TestParameter, AutoAnalysis.Line2.Point1.Data.Start, false
TestParameter, AutoAnalysis.Line2.Point1.Data.StartVar, 
TestParameter, AutoAnalysis.Line2.Point1.Data.StartCondition, 
TestParameter, AutoAnalysis.Line2.Point2.Type, 0
TestParameter, AutoAnalysis.Line2.Point2.XY.X, 
TestParameter, AutoAnalysis.Line2.Point2.XY.Y, 
TestParameter, AutoAnalysis.Line2.Point2.Data.Var, 
TestParameter, AutoAnalysis.Line2.Point2.Data.Condition, 
TestParameter, AutoAnalysis.Line2.Point2.Data.Start, false
TestParameter, AutoAnalysis.Line2.Point2.Data.StartVar, 
TestParameter, AutoAnalysis.Line2.Point2.Data.StartCondition, 
TestParameter, AutoAnalysis.Line2.GradientExpr, 0
TestParameter, AutoAnalysis.Marker.Enabled, false
TestParameter, AutoAnalysis.Marker.Data.Var, 
TestParameter, AutoAnalysis.Marker.Data.Condition, 
TestParameter, AutoAnalysis.Marker.Data.Start, false
TestParameter, AutoAnalysis.Marker.Data.StartVar, 
TestParameter, AutoAnalysis.Marker.Data.StartCondition, 
MetaData, TestRecord.EntryPoint, true
MetaData, TestRecord.RecordTime, 04/30/2021 10:29:40
MetaData, TestRecord.TestTarget, 
MetaData, TestRecord.IterationIndex, 1
MetaData, TestRecord.Preservation, true
MetaData, TestRecord.Flag, 
MetaData, TestRecord.Remarks, 
MetaData, TestRecord.LinkKey, 732e8962-fc8f-4b52-85d2-c762927448ab
Dimension1, 2001, 2001
Dimension2, 1, 1
DataName, VGS, ID
DataValue, -0.0004, -0.018000000000000002
DataValue, 0.0052400000000000007, -0.026000000000000002
DataValue, 0.00978, -0.021500000000000002
DataValue, 0.015240000000000002, -0.04
DataValue, 0.020280000000000003, -0.0245
DataValue, 0.024900000000000002, -0.019
DataValue, 0.029720000000000003, 0
DataValue, 0.03506, -0.0145
DataValue, 0.04068, -0.0090000000000000011
DataValue, 0.045820000000000007, -0.0185
DataValue, 0.050080000000000006, -0.035500000000000004
DataValue, 0.055180000000000007, -0.0265
DataValue, 0.05954, -0.0165
DataValue, 0.0645, -0.011
DataValue, 0.06986, -0.004
DataValue, 0.075400000000000009, -0.0235
DataValue, 0.07986, -0.0245
DataValue, 0.08524000000000001, -0.026000000000000002
DataValue, 0.090760000000000007, -0.005
DataValue, 0.0951, 0.0035
DataValue, 0.09986, -0.0015
DataValue, 0.10508, -0.019
DataValue, 0.10956, -0.028
DataValue, 0.11524000000000001, -0.025
DataValue, 0.11974000000000001, 0.001
DataValue, 0.12530000000000002, -0.0115
DataValue, 0.12998, -0.021500000000000002
DataValue, 0.13490000000000002, -0.0205
DataValue, 0.13994, -0.0235
DataValue, 0.14502, -0.0315
DataValue, 0.15038, -0.0175
DataValue, 0.15534, -0.002
DataValue, 0.15994000000000003, -0.0090000000000000011
DataValue, 0.16442, -0.029
DataValue, 0.16990000000000002, -0.045
DataValue, 0.17490000000000003, -0.028
DataValue, 0.1789, -0.024
DataValue, 0.18484, -0.0025
DataValue, 0.18958000000000003, -0.0045000000000000005
DataValue, 0.19560000000000002, -0.0095
DataValue, 0.19986, -0.036000000000000004
DataValue, 0.20516, -0.0155
DataValue, 0.21014000000000002, -0.0145
DataValue, 0.21494000000000002, -0.007
DataValue, 0.21938000000000002, -0.004
DataValue, 0.22542, -0.0325
DataValue, 0.22994, -0.0385
DataValue, 0.23512000000000002, -0.0235
DataValue, 0.23972000000000002, -0.006
DataValue, 0.24548000000000003, -0.001
DataValue, 0.25006, -0.021
DataValue, 0.25462, -0.0315
DataValue, 0.25948000000000004, -0.027
DataValue, 0.26524000000000003, -0.018000000000000002
DataValue, 0.27082, -0.0305
DataValue, 0.27472, -0.004
DataValue, 0.27978000000000003, -0.002
DataValue, 0.28516, -0.002
DataValue, 0.29006000000000004, -0.029
DataValue, 0.29474, -0.02
DataValue, 0.2992, -0.017
DataValue, 0.30502, -0.012
DataValue, 0.31032000000000004, 0
DataValue, 0.31470000000000004, -0.019
DataValue, 0.32022, -0.019
DataValue, 0.32470000000000004, -0.033
DataValue, 0.33002000000000004, -0.0175
DataValue, 0.33484, 0.001
DataValue, 0.33986000000000005, -0.001
DataValue, 0.34506000000000003, -0.003
DataValue, 0.35022000000000003, -0.033
DataValue, 0.35504, -0.0275
DataValue, 0.36048, -0.0345
DataValue, 0.36550000000000005, -0.0075
DataValue, 0.3699, 0
DataValue, 0.37420000000000003, -0.0045000000000000005
DataValue, 0.38014000000000003, -0.0275
DataValue, 0.38528, -0.0345
DataValue, 0.38994, -0.0185
DataValue, 0.39508000000000004, -0.015
DataValue, 0.39992000000000005, 0
DataValue, 0.4055, 0.0055
DataValue, 0.4097, -0.0285
DataValue, 0.41518000000000005, -0.029500000000000002
DataValue, 0.42004, -0.026000000000000002
DataValue, 0.4257, -0.015
DataValue, 0.42976000000000003, -0.011
DataValue, 0.43526000000000004, 0.0005
DataValue, 0.4404, -0.0205
DataValue, 0.44488000000000005, -0.019
DataValue, 0.45, -0.029
DataValue, 0.455, -0.0135
DataValue, 0.45932000000000006, -0.007
DataValue, 0.46504000000000006, -0.0175
DataValue, 0.46986000000000006, -0.021500000000000002
DataValue, 0.47528000000000004, -0.021
DataValue, 0.47952000000000006, -0.0235
DataValue, 0.48462000000000005, -0.0105
DataValue, 0.49022000000000004, 0.0135
DataValue, 0.49552, -0.01
DataValue, 0.49960000000000004, -0.0085
DataValue, 0.50464000000000009, -0.0195
DataValue, 0.50950000000000006, -0.0235
DataValue, 0.51506000000000007, -0.008
DataValue, 0.51946, 0.0005
DataValue, 0.52546, -0.0155
DataValue, 0.52984000000000009, -0.021500000000000002
DataValue, 0.53496, -0.0225
DataValue, 0.54086, -0.0015
DataValue, 0.54484, -0.0135
DataValue, 0.55024000000000006, -0.012
DataValue, 0.5549400000000001, -0.032
DataValue, 0.55984, -0.0135
DataValue, 0.5648200000000001, -0.0045000000000000005
DataValue, 0.57022000000000006, -0.0015
DataValue, 0.57542, -0.023
DataValue, 0.58018, -0.038
DataValue, 0.58462, -0.0090000000000000011
DataValue, 0.58982, -0.0125
DataValue, 0.5958, -0.0005
DataValue, 0.60000000000000009, -0.0265
DataValue, 0.60506, -0.047
DataValue, 0.60952000000000006, -0.022
DataValue, 0.61494, -0.0105
DataValue, 0.6205, 0.0045000000000000005
DataValue, 0.62512, -0.0365
DataValue, 0.63078, -0.029500000000000002
DataValue, 0.6352000000000001, -0.014
DataValue, 0.64006000000000007, 0.002
DataValue, 0.6449, -0.002
DataValue, 0.64968, -0.016
DataValue, 0.65514000000000006, -0.038
DataValue, 0.66038000000000008, -0.0085
DataValue, 0.66522, 0.0090000000000000011
DataValue, 0.6700600000000001, -0.015
DataValue, 0.67496, -0.0275
DataValue, 0.68024000000000007, -0.0245
DataValue, 0.68514000000000008, -0.0125
DataValue, 0.68996, -0.0125
DataValue, 0.69542, -0.0045000000000000005
DataValue, 0.69966000000000006, -0.029
DataValue, 0.70524000000000009, -0.0335
DataValue, 0.7103600000000001, -0.025500000000000002
DataValue, 0.71476000000000006, -0.005
DataValue, 0.72010000000000007, -0.002
DataValue, 0.7255, -0.006
DataValue, 0.7294, -0.022
DataValue, 0.73482, -0.033
DataValue, 0.7396600000000001, -0.0085
DataValue, 0.74472, -0.0145
DataValue, 0.75030000000000008, -0.0175
DataValue, 0.75468, -0.019
DataValue, 0.75978, -0.01
DataValue, 0.76484000000000008, -0.015
DataValue, 0.7703000000000001, -0.0135
DataValue, 0.77498000000000011, -0.001
DataValue, 0.77992000000000006, -0.028
DataValue, 0.7852, -0.0225
DataValue, 0.7899, -0.036000000000000004
DataValue, 0.79422, -0.016
DataValue, 0.79968000000000006, -0.006
DataValue, 0.805, -0.006
DataValue, 0.81050000000000011, -0.0245
DataValue, 0.81544, -0.0155
DataValue, 0.82018, -0.002
DataValue, 0.82550000000000012, 0
DataValue, 0.82996, -0.0125
DataValue, 0.83454000000000006, -0.027
DataValue, 0.84042000000000006, -0.025
DataValue, 0.84512000000000009, -0.012
DataValue, 0.8504600000000001, 0.001
DataValue, 0.85492000000000012, -0.007
DataValue, 0.85996000000000006, -0.013000000000000001
DataValue, 0.86454000000000009, -0.0235
DataValue, 0.8706600000000001, -0.0345
DataValue, 0.87498000000000009, -0.0095
DataValue, 0.87994, -0.013000000000000001
DataValue, 0.88452000000000008, -0.0045000000000000005
DataValue, 0.89028000000000007, -0.02
DataValue, 0.8948, -0.0235
DataValue, 0.8998, -0.034
DataValue, 0.90524, -0.0115
DataValue, 0.90976000000000012, -0.001
DataValue, 0.915, -0.011
DataValue, 0.92040000000000011, -0.022
DataValue, 0.92458000000000007, -0.041
DataValue, 0.93004000000000009, -0.0275
DataValue, 0.93470000000000009, -0.0145
DataValue, 0.94064, -0.0115
DataValue, 0.94484000000000012, -0.023
DataValue, 0.94954, -0.0305
DataValue, 0.95416000000000012, -0.021
DataValue, 0.95974, -0.0315
DataValue, 0.96496, -0.025500000000000002
DataValue, 0.96960000000000013, -0.0115
DataValue, 0.9753400000000001, -0.0025
DataValue, 0.98036000000000012, -0.021500000000000002
DataValue, 0.98552000000000006, -0.032
DataValue, 0.99014000000000013, -0.034
DataValue, 0.99604, -0.0175
DataValue, 0.99974000000000007, -0.007
DataValue, 1.0047000000000002, -0.022
DataValue, 1.01044, -0.034
DataValue, 1.01442, -0.025500000000000002
DataValue, 1.0203600000000002, -0.03
DataValue, 1.02498, -0.0245
DataValue, 1.0298, 0.004
DataValue, 1.0353, -0.016
DataValue, 1.0401, -0.017
DataValue, 1.0449000000000002, -0.0345
DataValue, 1.0493000000000001, -0.0245
DataValue, 1.05414, -0.023
DataValue, 1.06004, -0.016
DataValue, 1.0650600000000001, 0.003
DataValue, 1.0696, -0.013000000000000001
DataValue, 1.0745, -0.0365
DataValue, 1.08024, -0.0275
DataValue, 1.0849600000000002, -0.0365
DataValue, 1.0901, -0.021500000000000002
DataValue, 1.0948, -0.004
DataValue, 1.09968, -0.0125
DataValue, 1.10456, -0.03
DataValue, 1.1099800000000002, -0.029
DataValue, 1.1147200000000002, -0.0335
DataValue, 1.1201400000000001, -0.013000000000000001
DataValue, 1.1244800000000002, -0.0005
DataValue, 1.1300000000000001, -0.0145
DataValue, 1.1344, -0.0175
DataValue, 1.1398000000000002, -0.036000000000000004
DataValue, 1.1446200000000002, -0.0145
DataValue, 1.15022, -0.0035
DataValue, 1.1548200000000002, -0.0135
DataValue, 1.1599400000000002, -0.004
DataValue, 1.1654600000000002, -0.021
DataValue, 1.1703000000000001, -0.031
DataValue, 1.1750800000000001, -0.025500000000000002
DataValue, 1.1801400000000002, -0.0090000000000000011
DataValue, 1.1848800000000002, -0.011
DataValue, 1.19018, -0.006
DataValue, 1.1956, -0.021
DataValue, 1.20022, -0.0265
DataValue, 1.20496, -0.0085
DataValue, 1.20964, -0.004
DataValue, 1.21506, -0.005
DataValue, 1.22082, -0.019
DataValue, 1.2249400000000001, -0.0205
DataValue, 1.2303000000000002, -0.035
DataValue, 1.23536, -0.008
DataValue, 1.24052, -0.0135
DataValue, 1.2444600000000001, -0.026000000000000002
DataValue, 1.25008, -0.024
DataValue, 1.2549800000000002, -0.016
DataValue, 1.2603000000000002, -0.0115
DataValue, 1.2644000000000002, 0.0035
DataValue, 1.27042, -0.005
DataValue, 1.2751000000000001, -0.017
DataValue, 1.28018, -0.022
DataValue, 1.2854, -0.024
DataValue, 1.2896800000000002, -0.018000000000000002
DataValue, 1.2957400000000001, -0.0090000000000000011
DataValue, 1.3003600000000002, -0.0205
DataValue, 1.3052000000000001, -0.007
DataValue, 1.31054, 0.007
DataValue, 1.3150400000000002, 0.0045000000000000005
DataValue, 1.3199, -0.02
DataValue, 1.32404, -0.0125
DataValue, 1.32928, -0.0375
DataValue, 1.3339, 0.006
DataValue, 1.34054, -0.001
DataValue, 1.3449600000000002, -0.0165
DataValue, 1.3501, -0.0265
DataValue, 1.3549200000000001, -0.0035
DataValue, 1.3606, -0.0065000000000000006
DataValue, 1.3653600000000001, -0.016
DataValue, 1.3693000000000002, -0.0165
DataValue, 1.37534, -0.033
DataValue, 1.38016, -0.0245
DataValue, 1.3849200000000002, -0.007
DataValue, 1.3898000000000002, -0.012
DataValue, 1.39524, -0.023
DataValue, 1.3996600000000001, -0.037
DataValue, 1.4048800000000001, -0.0090000000000000011
DataValue, 1.4094600000000002, -0.0145
DataValue, 1.4152600000000002, -0.0090000000000000011
DataValue, 1.4199000000000002, -0.021500000000000002
DataValue, 1.4248, -0.025
DataValue, 1.4300000000000002, -0.015
DataValue, 1.4346400000000001, -0.0115
DataValue, 1.4401000000000002, -0.0090000000000000011
DataValue, 1.44558, -0.0165
DataValue, 1.44964, -0.029500000000000002
DataValue, 1.45462, -0.0265
DataValue, 1.4600000000000002, -0.0125
DataValue, 1.4648, -0.022
DataValue, 1.4695600000000002, -0.02
DataValue, 1.4748800000000002, -0.0335
DataValue, 1.4803000000000002, -0.026000000000000002
DataValue, 1.4848000000000001, -0.0095
DataValue, 1.48984, -0.0055
DataValue, 1.49502, 0.003
DataValue, 1.4993800000000002, -0.008
DataValue, 1.5049800000000002, -0.045
DataValue, 1.51068, -0.021
DataValue, 1.51472, -0.007
DataValue, 1.5199, -0.0090000000000000011
DataValue, 1.52478, -0.038
DataValue, 1.5301200000000002, -0.0185
DataValue, 1.5351000000000001, -0.023
DataValue, 1.53984, -0.0205
DataValue, 1.5453800000000002, -0.001
DataValue, 1.5501600000000002, -0.021500000000000002
DataValue, 1.55454, -0.033
DataValue, 1.5597800000000002, -0.024
DataValue, 1.56464, -0.016
DataValue, 1.5701600000000002, -0.0015
DataValue, 1.5746200000000001, -0.0045000000000000005
DataValue, 1.58006, -0.028
DataValue, 1.5852400000000002, -0.0245
DataValue, 1.5900400000000001, -0.0135
DataValue, 1.5951600000000001, -0.0065000000000000006
DataValue, 1.60016, 0
DataValue, 1.6047200000000002, -0.007
DataValue, 1.6097800000000002, -0.0165
DataValue, 1.6144, -0.015
DataValue, 1.61996, 0
DataValue, 1.6256800000000002, -0.002
DataValue, 1.6303, -0.003
DataValue, 1.63576, -0.026000000000000002
DataValue, 1.64006, -0.0395
DataValue, 1.6442800000000002, -0.0345
DataValue, 1.6500400000000002, 0.007
DataValue, 1.6551600000000002, -0.0045000000000000005
DataValue, 1.65972, -0.0135
DataValue, 1.6650600000000002, -0.032
DataValue, 1.6704200000000002, -0.032
DataValue, 1.6750800000000001, -0.0115
DataValue, 1.68002, -0.003
DataValue, 1.6851, -0.0125
DataValue, 1.68988, -0.015
DataValue, 1.6943000000000001, -0.0245
DataValue, 1.70026, 0
DataValue, 1.7052, -0.0035
DataValue, 1.7098400000000003, -0.0125
DataValue, 1.71496, -0.018000000000000002
DataValue, 1.7203000000000002, -0.022
DataValue, 1.7251600000000003, -0.02
DataValue, 1.73032, -0.008
DataValue, 1.7348800000000002, -0.004
DataValue, 1.7400200000000001, -0.0205
DataValue, 1.7449000000000001, -0.021500000000000002
DataValue, 1.7499200000000001, -0.027
DataValue, 1.7552, -0.0155
DataValue, 1.7604400000000002, -0.0015
DataValue, 1.7646400000000002, -0.01
DataValue, 1.76998, -0.025
DataValue, 1.7751200000000003, -0.027
DataValue, 1.7802000000000002, -0.021500000000000002
DataValue, 1.7850800000000002, -0.0090000000000000011
DataValue, 1.7904200000000001, -0.0145
DataValue, 1.7948000000000002, -0.018000000000000002
DataValue, 1.8007400000000002, -0.0265
DataValue, 1.80448, -0.0095
DataValue, 1.8101800000000001, 0.0005
DataValue, 1.8150000000000002, -0.012
DataValue, 1.8196800000000002, -0.0075
DataValue, 1.82522, -0.0090000000000000011
DataValue, 1.82976, -0.0005
DataValue, 1.83448, 0.003
DataValue, 1.8401600000000002, -0.004
DataValue, 1.8448000000000002, -0.0135
DataValue, 1.8498400000000002, -0.0095
DataValue, 1.8550600000000002, -0.027
DataValue, 1.86064, -0.0065000000000000006
DataValue, 1.8652600000000001, 0.001
DataValue, 1.8700400000000002, -0.0090000000000000011
DataValue, 1.8750200000000001, -0.0115
DataValue, 1.87982, -0.02
