
SetupTitle, IG-VGS-VDS_0
PrimitiveTest, Multi Channel I/V Sweep
TestParameter, Channel.UnitType, SMU, SMU
TestParameter, Channel.Unit, SMU2:MC, SMU5:HC
TestParameter, Channel.IName, IG, ID
TestParameter, Channel.VName, VGS, VDS
TestParameter, Channel.Mode, VPULSE, VPULSE
TestParameter, Channel.Func, VAR1, CONST
TestParameter, Channel.Index, 
TestParameter, Channel.Time, 
TestParameter, Measurement.Port.Unit, SMU2:MC, SMU5:HC
TestParameter, Measurement.Port.SeriesResistor, NONE, NONE
TestParameter, Measurement.Port.Filter, OFF, OFF
TestParameter, Measurement.Port.OutputVoltageComparison, 0, 0
TestParameter, Measurement.Primary.Start, 0
TestParameter, Measurement.Primary.Stop, 15.000000000000002
TestParameter, Measurement.Primary.Compliance, 0.099999999999999992
TestParameter, Measurement.Primary.PowerCompliance, 0
TestParameter, Measurement.Primary.Locus, Single
TestParameter, Measurement.Primary.Scale, LINEAR
TestParameter, Measurement.Primary.Count, 101
TestParameter, Measurement.Aborting.Condition, CONTINUE AT ANY
TestParameter, Measurement.PostOutput.Value, START
TestParameter, Measurement.PostOutput.Retention, OFF
TestParameter, Measurement.Bias.Source, 0, 0
TestParameter, Measurement.Bias.Compliance, 0.099999999999999992, 20
TestParameter, Measurement.Pulse.Delay, 0, 0
TestParameter, Measurement.Pulse.Duration, 0.001, 0.00019999999999999998
TestParameter, Measurement.Pulse.Base, 0, 0
TestParameter, Measurement.Pulse.Period, 0
TestParameter, Measurement.Pulse.MeasurementDelay, 0
TestParameter, Measurement.Pulse.AveragingCount, 1
TestParameter, Measurement.Monitor.Unit, SMU2:MC, SMU5:HC
TestParameter, Measurement.Monitor.Adc, HS ADC, HS ADC
TestParameter, Measurement.Monitor.Measurement, Force and Compliance Sides, Force and Compliance Sides
TestParameter, Measurement.Timing.Hold, 0
TestParameter, Measurement.Timing.Delay, 0
TestParameter, Measurement.Adc.HighSpeed.Mode, TIME
TestParameter, Measurement.Adc.HighSpeed.Coeff, 4.9999999999999996E-05
TestParameter, Measurement.Adc.HighResolution.AutoZero, OFF
TestParameter, Measurement.Adc.HighResolution.Mode, AUTO
TestParameter, Measurement.Adc.HighResolution.Coeff, 6
TestParameter, Measurement.WaitTime.Source.Coeff, 1
TestParameter, Measurement.WaitTime.Source.Offset, 0
TestParameter, Measurement.WaitTime.Monitor.Coeff, 1
TestParameter, Measurement.WaitTime.Monitor.Offset, 0
TestParameter, Output.Graph.Enabled, true
TestParameter, Output.Graph.AutoScaling, false
TestParameter, Output.Graph.XAxis.Data, VGS
TestParameter, Output.Graph.XAxis.Scale, Linear
TestParameter, Output.Graph.XAxis.Left, -5
TestParameter, Output.Graph.XAxis.Right, 20
TestParameter, Output.Graph.XAxis.RunTimeAutoScale, false
TestParameter, Output.Graph.YAxis.Data, IG
TestParameter, Output.Graph.YAxis.Scale, Linear
TestParameter, Output.Graph.YAxis.Bottom, -2E-06
TestParameter, Output.Graph.YAxis.Top, 2E-06
TestParameter, Output.Graph.YAxis.Group, 
TestParameter, Output.Graph.YAxis.RunTimeAutoScale, false
TestParameter, Output.List.Data, VGS, IG
TestParameter, AutoAnalysis.Interpolation, false
TestParameter, AutoAnalysis.Line1.Enabled, false
TestParameter, AutoAnalysis.Line1.Type, 1
TestParameter, AutoAnalysis.Line1.Fix, True
TestParameter, AutoAnalysis.Line1.YAxis, 0
TestParameter, AutoAnalysis.Line1.Point1.Type, 0
TestParameter, AutoAnalysis.Line1.Point1.XY.X, 
TestParameter, AutoAnalysis.Line1.Point1.XY.Y, 
TestParameter, AutoAnalysis.Line1.Point1.Data.Var, 
TestParameter, AutoAnalysis.Line1.Point1.Data.Condition, 
TestParameter, AutoAnalysis.Line1.Point1.Data.Start, false
TestParameter, AutoAnalysis.Line1.Point1.Data.StartVar, 
TestParameter, AutoAnalysis.Line1.Point1.Data.StartCondition, 
TestParameter, AutoAnalysis.Line1.Point2.Type, 0
TestParameter, AutoAnalysis.Line1.Point2.XY.X, 
TestParameter, AutoAnalysis.Line1.Point2.XY.Y, 
TestParameter, AutoAnalysis.Line1.Point2.Data.Var, 
TestParameter, AutoAnalysis.Line1.Point2.Data.Condition, 
TestParameter, AutoAnalysis.Line1.Point2.Data.Start, false
TestParameter, AutoAnalysis.Line1.Point2.Data.StartVar, 
TestParameter, AutoAnalysis.Line1.Point2.Data.StartCondition, 
TestParameter, AutoAnalysis.Line1.GradientExpr, 0
TestParameter, AutoAnalysis.Line2.Enabled, false
TestParameter, AutoAnalysis.Line2.Type, 1
TestParameter, AutoAnalysis.Line2.Fix, True
TestParameter, AutoAnalysis.Line2.YAxis, 0
TestParameter, AutoAnalysis.Line2.Point1.Type, 0
TestParameter, AutoAnalysis.Line2.Point1.XY.X, 
TestParameter, AutoAnalysis.Line2.Point1.XY.Y, 
TestParameter, AutoAnalysis.Line2.Point1.Data.Var, 
TestParameter, AutoAnalysis.Line2.Point1.Data.Condition, 
TestParameter, AutoAnalysis.Line2.Point1.Data.Start, false
TestParameter, AutoAnalysis.Line2.Point1.Data.StartVar, 
TestParameter, AutoAnalysis.Line2.Point1.Data.StartCondition, 
TestParameter, AutoAnalysis.Line2.Point2.Type, 0
TestParameter, AutoAnalysis.Line2.Point2.XY.X, 
TestParameter, AutoAnalysis.Line2.Point2.XY.Y, 
TestParameter, AutoAnalysis.Line2.Point2.Data.Var, 
TestParameter, AutoAnalysis.Line2.Point2.Data.Condition, 
TestParameter, AutoAnalysis.Line2.Point2.Data.Start, false
TestParameter, AutoAnalysis.Line2.Point2.Data.StartVar, 
TestParameter, AutoAnalysis.Line2.Point2.Data.StartCondition, 
TestParameter, AutoAnalysis.Line2.GradientExpr, 0
TestParameter, AutoAnalysis.Marker.Enabled, false
TestParameter, AutoAnalysis.Marker.Data.Var, 
TestParameter, AutoAnalysis.Marker.Data.Condition, 
TestParameter, AutoAnalysis.Marker.Data.Start, false
TestParameter, AutoAnalysis.Marker.Data.StartVar, 
TestParameter, AutoAnalysis.Marker.Data.StartCondition, 
MetaData, TestRecord.EntryPoint, true
MetaData, TestRecord.RecordTime, 04/30/2021 10:29:55
MetaData, TestRecord.TestTarget, 
MetaData, TestRecord.IterationIndex, 1
MetaData, TestRecord.Preservation, true
MetaData, TestRecord.Flag, 
MetaData, TestRecord.Remarks, 
MetaData, TestRecord.LinkKey, 7bf081f2-328d-4bed-9f6a-ec5a6d689f8f
Dimension1, 101, 101
Dimension2, 1, 1
DataName, IG, VGS
DataValue, 1.0000000000000002E-06, -0.0001
DataValue, 3.0000000000000004E-07, 0.14996
DataValue, 1.0000000000000002E-06, 0.30000000000000004
DataValue, 1.0000000000000002E-06, 0.45002000000000003
DataValue, 5.0000000000000008E-07, 0.60002
DataValue, 4.0000000000000003E-07, 0.75008000000000008
DataValue, 4.0000000000000003E-07, 0.90012
DataValue, 8.0000000000000007E-07, 1.05004
DataValue, 9.0000000000000007E-07, 1.2000600000000001
DataValue, 1.3E-06, 1.3501
DataValue, 5.0000000000000008E-07, 1.5000200000000001
DataValue, 5.0000000000000008E-07, 1.6500400000000002
DataValue, 5.0000000000000008E-07, 1.8001000000000003
DataValue, 3.0000000000000004E-07, 1.9500800000000003
DataValue, 2.0000000000000002E-07, 2.09998
DataValue, 3.0000000000000004E-07, 2.25002
DataValue, 6.0000000000000008E-07, 2.39996
DataValue, 1.0000000000000001E-07, 2.55004
DataValue, 4.0000000000000003E-07, 2.69986
DataValue, 6.0000000000000008E-07, 2.8499600000000003
DataValue, 9.0000000000000007E-07, 2.9999800000000003
DataValue, 4.0000000000000003E-07, 3.1499800000000002
DataValue, 4.0000000000000003E-07, 3.3001000000000005
DataValue, 1.0000000000000001E-07, 3.4498
DataValue, 6.0000000000000008E-07, 3.6000600000000005
DataValue, 8.0000000000000007E-07, 3.7499800000000003
DataValue, 2.0000000000000002E-07, 3.8999200000000003
DataValue, 0, 4.0500000000000007
DataValue, 5.0000000000000008E-07, 4.20002
DataValue, 3.0000000000000004E-07, 4.34996
DataValue, 3.0000000000000004E-07, 4.4999
DataValue, 7.0000000000000007E-07, 4.6500600000000007
DataValue, 1.0000000000000001E-07, 4.7999800000000006
DataValue, 7.0000000000000007E-07, 4.9499400000000007
DataValue, 2.0000000000000002E-07, 5.1000000000000005
DataValue, 6.0000000000000008E-07, 5.2499
DataValue, 6.0000000000000008E-07, 5.4000200000000005
DataValue, 3.0000000000000004E-07, 5.55004
DataValue, 6.0000000000000008E-07, 5.7
DataValue, 3.0000000000000004E-07, 5.8500200000000007
DataValue, 3.0000000000000004E-07, 5.9999800000000008
DataValue, 5.0000000000000008E-07, 6.14998
DataValue, 5.0000000000000008E-07, 6.29994
DataValue, 5.0000000000000008E-07, 6.4499400000000007
DataValue, -2.0000000000000002E-07, 6.6001
DataValue, 4.0000000000000003E-07, 6.7499800000000008
DataValue, 5.0000000000000008E-07, 6.9000800000000009
DataValue, 0, 7.0501200000000006
DataValue, 2.0000000000000002E-07, 7.1999400000000007
DataValue, -2.0000000000000002E-07, 7.3498800000000006
DataValue, 5.0000000000000008E-07, 7.50018
DataValue, -4.0000000000000003E-07, 7.649960000000001
DataValue, 0, 7.7999000000000009
DataValue, 2.0000000000000002E-07, 7.950120000000001
DataValue, 0, 8.10004
DataValue, 4.0000000000000003E-07, 8.2499200000000013
DataValue, 1.0000000000000001E-07, 8.39994
DataValue, -1.0000000000000001E-07, 8.55
DataValue, 6.0000000000000008E-07, 8.7000400000000013
DataValue, -1.0000000000000001E-07, 8.85004
DataValue, 0, 8.99998
DataValue, 3.0000000000000004E-07, 9.15004
DataValue, -3.0000000000000004E-07, 9.300040000000001
DataValue, 1.0000000000000001E-07, 9.44992
DataValue, -2.0000000000000002E-07, 9.59998
DataValue, -6.0000000000000008E-07, 9.74984
DataValue, -3.0000000000000004E-07, 9.9
DataValue, 5.0000000000000008E-07, 10.049900000000001
DataValue, -4.0000000000000003E-07, 10.19992
DataValue, 1.0000000000000001E-07, 10.34994
DataValue, 0, 10.50008
DataValue, 3.0000000000000004E-07, 10.649920000000002
DataValue, -4.0000000000000003E-07, 10.80006
DataValue, -5.0000000000000008E-07, 10.94992
DataValue, -2.0000000000000002E-07, 11.100060000000001
DataValue, -4.0000000000000003E-07, 11.250020000000001
DataValue, 1.0000000000000001E-07, 11.400020000000001
DataValue, -1.0000000000000001E-07, 11.549980000000002
DataValue, -2.0000000000000002E-07, 11.69992
DataValue, -1.0000000000000001E-07, 11.850040000000002
DataValue, -1.0000000000000001E-07, 11.99998
DataValue, -2.0000000000000002E-07, 12.15
DataValue, 0, 12.300040000000001
DataValue, -2.0000000000000002E-07, 12.449980000000002
DataValue, -1.0000000000000001E-07, 12.600060000000001
DataValue, 1.0000000000000001E-07, 12.749960000000002
DataValue, -1.0000000000000001E-07, 12.90004
DataValue, -5.0000000000000008E-07, 13.050020000000002
DataValue, -7.0000000000000007E-07, 13.200120000000002
DataValue, -3.0000000000000004E-07, 13.350080000000002
DataValue, 6.0000000000000008E-07, 13.500020000000001
DataValue, 5.0000000000000008E-07, 13.650240000000002
DataValue, -3.0000000000000004E-07, 13.800020000000002
DataValue, 0, 13.950080000000002
DataValue, 0, 14.100000000000001
DataValue, 2.0000000000000002E-07, 14.250060000000001
DataValue, 4.0000000000000003E-07, 14.40004
DataValue, 7.0000000000000007E-07, 14.550080000000001
DataValue, -3.0000000000000004E-07, 14.700020000000002
DataValue, 5.0000000000000008E-07, 14.849920000000001
DataValue, 2.0000000000000002E-07, 14.999820000000002