
SetupTitle, Rds-Id
ApplicationTest, Rds-Id, Public
TestParameter, Name, Memo, Scale, HoldTime, PulseBase, PulseAvgCnt, Gate, VgStart, VgStop, VgStep, IgLimit, Source, MeasurementTime, Drain, IdStart, IdStop, IdLinearStep, VdLimit, VdStop, PulsePeriodMode, ManualPulsePeriod, PulseWidth
TestParameter, Value, , LINEAR, 0, 0, 1, SMU2:MC	MCSMU, 20, 5, 1, 0.1, GNDU:GND	GNDU, 1E-05, SMU3:UHC500	UHCU500A, 0.5, 30, 0.2, 2, 0, 0, 0.05, 0.0002
DutParameter, Name, Polarity, Temp, YAxisRdsMin, YAxisRdsMax
DutParameter, Value, 1, 25, 0.001, 1
MetaData, TestRecord.EntryPoint, true
MetaData, TestRecord.RecordTime, 04/17/2021 14:06:44
MetaData, TestRecord.TestTarget, 
MetaData, TestRecord.IterationIndex, 1
MetaData, TestRecord.Preservation, true
MetaData, TestRecord.Flag, 
MetaData, TestRecord.Remarks, 
MetaData, TestRecord.LinkKey, ef71ae30-88d9-45c6-95e6-eba049ce5f21
Dimension1, 148, 148, 148, 148, 148, 148
Dimension2, 16, 16, 16, 16, 16, 16
DataName, Igate, Vgate, Vdrain, Idrain, Ta, Rds
DataValue, -2.4000000000000003E-06, 20.000500000000002, 0.0041, 0.094, 25, 0.043617021276595745
DataValue, -3.2000000000000003E-06, 20, 0.0142, 0.302, 25, 0.04701986754966888
DataValue, -7.0000000000000007E-07, 20.000400000000003, 0.0234, 0.50350000000000006, 25, 0.046474677259185693
DataValue, -1.8000000000000001E-06, 20.000140000000002, 0.0324, 0.727, 25, 0.044566712517193949
DataValue, -9.0000000000000007E-07, 20, 0.042800000000000005, 0.9525, 25, 0.044934383202099741
DataValue, -3.6000000000000003E-06, 19.999480000000002, 0.0522, 1.1765, 25, 0.044368890777730555
DataValue, -6.4000000000000006E-06, 20.00026, 0.0639, 1.412, 25, 0.045254957507082152
DataValue, -2.7000000000000004E-06, 19.99996, 0.0718, 1.5975000000000001, 25, 0.0449452269170579
DataValue, -2.8000000000000003E-06, 19.999940000000002, 0.081200000000000008, 1.817, 25, 0.044689047881122733
DataValue, -4.2000000000000004E-06, 19.99932, 0.0896, 2.0275, 25, 0.044192355117139336
DataValue, -2.2E-06, 19.999200000000002, 0.0979, 2.2265, 25, 0.04397035706265439
DataValue, -4.9000000000000005E-06, 20.00016, 0.1077, 2.447, 25, 0.044013077237433591
DataValue, -1.1E-06, 20.000220000000002, 0.1159, 2.656, 25, 0.043637048192771082
DataValue, -5.5000000000000007E-06, 20.000600000000002, 0.1255, 2.8715, 25, 0.043705380463172558
DataValue, -3.2000000000000003E-06, 19.99978, 0.1333, 3.0485, 25, 0.04372642283090044
DataValue, -2.1000000000000002E-06, 20.000600000000002, 0.14250000000000002, 3.247, 25, 0.043886664613489383
DataValue, -1.6000000000000001E-06, 19.9996, 0.1512, 3.4495, 25, 0.043832439483983188
DataValue, -3.8000000000000005E-06, 19.999480000000002, 0.16090000000000002, 3.6645, 25, 0.043907763678537326
DataValue, -2.2E-06, 20.000320000000002, 0.1704, 3.8705000000000003, 25, 0.04402531972613357
DataValue, -4.0000000000000007E-06, 19.99934, 0.17830000000000001, 4.053, 25, 0.043992104613866274
DataValue, -2.7000000000000004E-06, 19.99972, 0.18860000000000002, 4.244, 25, 0.044439208294062213
DataValue, -3.6000000000000003E-06, 20.000300000000003, 0.1957, 4.458, 25, 0.043898609241812471
DataValue, -1.1E-06, 20.00006, 0.2041, 4.657, 25, 0.04382649774532961
DataValue, -2.7000000000000004E-06, 19.999940000000002, 0.21300000000000002, 4.861, 25, 0.043818144414729483
DataValue, -4.3E-06, 19.99996, 0.22310000000000002, 5.046, 25, 0.04421323820848197
DataValue, -2.3E-06, 19.99962, 0.2315, 5.2540000000000004, 25, 0.044061667301103918
DataValue, -2.8000000000000003E-06, 19.9997, 0.2411, 5.474, 25, 0.044044574351479723
DataValue, -2.0000000000000003E-06, 19.999840000000003, 0.2501, 5.664, 25, 0.044156073446327687
DataValue, -2.8000000000000003E-06, 19.9999, 0.2566, 5.846, 25, 0.043893260348956548
DataValue, -3.6000000000000003E-06, 19.999560000000002, 0.265, 6.033, 25, 0.043925078733631689
DataValue, -1.6000000000000001E-06, 20.000400000000003, 0.2723, 6.2205, 25, 0.04377461618840929
DataValue, -1.2000000000000002E-06, 20.00018, 0.2827, 6.4115, 25, 0.044092646026670824
DataValue, -3.3E-06, 19.99944, 0.2882, 6.57, 25, 0.043866057838660578
DataValue, -1.5E-06, 20.00018, 0.2933, 6.68, 25, 0.043907185628742518
DataValue, -8.0000000000000007E-07, 20.00056, 0.29910000000000003, 6.7735, 25, 0.0441573780172732
DataValue, 8.0000000000000007E-07, 20.00054, 0.3004, 6.847, 25, 0.04387322915145319
DataValue, -2.9E-06, 19.99978, 0.30210000000000004, 6.9165, 25, 0.043678160919540236
DataValue, -3.7E-06, 20.000020000000003, 0.3047, 6.938, 25, 0.043917555491496112
DataValue, -3.1000000000000004E-06, 20.000100000000003, 0.3065, 6.9555, 25, 0.044065847171303282
DataValue, -2.0000000000000003E-06, 20.000780000000002, 0.3054, 6.9685000000000006, 25, 0.043825787472196308
DataValue, -1.4000000000000002E-06, 20.000040000000002, 0.305, 7.003, 25, 0.043552763101527912
DataValue, -5.2E-06, 19.99996, 0.30560000000000004, 7.019, 25, 0.0435389656646246
DataValue, -5E-06, 19.99998, 0.30670000000000003, 7.021, 25, 0.043683236006266918
DataValue, -4.8000000000000006E-06, 19.99986, 0.3057, 7.0275, 25, 0.04350053361792957
DataValue, -6.0000000000000008E-07, 20.000320000000002, 0.3058, 7.0360000000000005, 25, 0.043462194428652644
DataValue, -3.7E-06, 20.000600000000002, 0.3078, 7.0455000000000005, 25, 0.043687460080902706
DataValue, -2.7000000000000004E-06, 19.99988, 0.30760000000000004, 7.0385, 25, 0.043702493428997659
DataValue, -5.7000000000000005E-06, 19.99996, 0.3062, 7.03, 25, 0.043556187766714084
DataValue, -1.3E-06, 20.00082, 0.3085, 7.051, 25, 0.043752659197276979
DataValue, -3E-06, 20.00018, 0.3062, 7.046, 25, 0.043457280726653426
DataValue, -3.7E-06, 19.999840000000003, 0.30670000000000003, 7.038, 25, 0.043577720943449846
DataValue, -5.9E-06, 19.99914, 0.30760000000000004, 7.0325, 25, 0.043739779594738723
DataValue, -3.8000000000000005E-06, 19.9998, 0.31, 7.0395, 25, 0.044037218552454009
DataValue, -4.2000000000000004E-06, 19.9998, 0.3074, 7.0310000000000006, 25, 0.043720665623666617
DataValue, -2.7000000000000004E-06, 19.99986, 0.306, 7.0235, 25, 0.043568021641631663
DataValue, -3.7E-06, 20.000140000000002, 0.3075, 7.024, 25, 0.043778473804100229
DataValue, -1.7000000000000002E-06, 20.000780000000002, 0.3073, 7.0365, 25, 0.043672280252966676
DataValue, -3E-06, 20.00064, 0.3085, 7.0425, 25, 0.043805466808661694
DataValue, -1.8000000000000001E-06, 19.99986, 0.30770000000000003, 7.0305, 25, 0.043766446198705643
DataValue, -1.0000000000000001E-07, 20.000600000000002, 0.3062, 7.049, 25, 0.04343878564335367
DataValue, -2.5E-06, 19.9997, 0.309, 7.0555, 25, 0.0437956204379562
DataValue, -2.5E-06, 20.000140000000002, 0.30870000000000003, 7.0595, 25, 0.043728309370352013
DataValue, -1.3E-06, 19.999920000000003, 0.3089, 7.043, 25, 0.043859150930001423
DataValue, -2.1000000000000002E-06, 19.99972, 0.30770000000000003, 7.0595, 25, 0.043586656278773291
DataValue, -1.3E-06, 19.9996, 0.30870000000000003, 7.0675, 25, 0.043678811460912632
DataValue, 2.0000000000000002E-07, 19.99988, 0.308, 7.0435, 25, 0.043728260097962664
DataValue, -3.6000000000000003E-06, 20.00064, 0.308, 7.0365, 25, 0.043771761529169333
DataValue, -1.5E-06, 20.0009, 0.3073, 7.0485, 25, 0.043597928637298722
DataValue, -5.1E-06, 19.999820000000003, 0.3079, 7.025, 25, 0.043829181494661917
DataValue, -2.2E-06, 19.999540000000003, 0.30670000000000003, 7.04, 25, 0.043565340909090915
DataValue, -1.7000000000000002E-06, 20.00102, 0.308, 7.0390000000000006, 25, 0.043756215371501629
DataValue, -1.0000000000000002E-06, 20, 0.30760000000000004, 7.0440000000000005, 25, 0.043668370244179446
DataValue, -1.7000000000000002E-06, 19.999840000000003, 0.3075, 7.0435, 25, 0.043657272662738694
DataValue, -2.9E-06, 19.99996, 0.3074, 7.0365, 25, 0.043686491863852768
DataValue, -3.4000000000000005E-06, 19.999480000000002, 0.30720000000000003, 7.067, 25, 0.043469647658129336
DataValue, 2.0000000000000002E-07, 20.00066, 0.30710000000000004, 7.048, 25, 0.043572644721906931
DataValue, -6.9000000000000009E-06, 20.000120000000003, 0.30810000000000004, 7.055, 25, 0.04367115520907159
DataValue, -2.1000000000000002E-06, 20.00026, 0.3073, 7.0415, 25, 0.043641269615848896
DataValue, -2.0000000000000003E-06, 19.999640000000003, 0.30820000000000003, 7.055, 25, 0.043685329553508158
DataValue, -4.9000000000000005E-06, 19.99958, 0.30810000000000004, 7.0455000000000005, 25, 0.043730040451351926
DataValue, -3E-06, 19.99978, 0.30810000000000004, 7.0665000000000004, 25, 0.043600084907662921
DataValue, -3.6000000000000003E-06, 19.999360000000003, 0.3058, 7.0575, 25, 0.043329791002479634
DataValue, -1.7000000000000002E-06, 19.999940000000002, 0.30670000000000003, 7.0435, 25, 0.043543692766380357
DataValue, -3.0000000000000004E-07, 20.000500000000002, 0.3068, 7.037, 25, 0.04359812420065369
DataValue, -2.3E-06, 20.00052, 0.30910000000000004, 7.0385, 25, 0.043915607018540886
DataValue, 2.0000000000000002E-07, 19.99988, 0.30670000000000003, 7.034, 25, 0.0436025021324993
DataValue, -3.5000000000000004E-06, 19.999200000000002, 0.3065, 7.0385, 25, 0.043546210129999291
DataValue, -2.9E-06, 19.99988, 0.30720000000000003, 7.0355, 25, 0.04366427403880322
DataValue, -1.7000000000000002E-06, 19.99962, 0.3064, 7.0455000000000005, 25, 0.043488751685473
DataValue, -5.1E-06, 19.999920000000003, 0.30820000000000003, 7.041, 25, 0.043772191450078116
DataValue, -2.7000000000000004E-06, 19.99978, 0.30920000000000003, 7.0575, 25, 0.04381154799858307
DataValue, -1.2000000000000002E-06, 20.00026, 0.30770000000000003, 7.071, 25, 0.043515768632442373
DataValue, -3.8000000000000005E-06, 19.999820000000003, 0.30810000000000004, 7.069, 25, 0.043584665440656395
DataValue, -2.4000000000000003E-06, 20.000300000000003, 0.3083, 7.0555, 25, 0.0436964070583233
DataValue, -4.9000000000000005E-06, 19.999740000000003, 0.309, 7.038, 25, 0.043904518329070753
DataValue, -2.0000000000000003E-06, 19.99958, 0.30860000000000004, 7.0390000000000006, 25, 0.043841454752095471
DataValue, -1.7000000000000002E-06, 20.00084, 0.3074, 7.059, 25, 0.043547244652217029
DataValue, -1.6000000000000001E-06, 19.99986, 0.3068, 7.05, 25, 0.0435177304964539
DataValue, -3.7E-06, 20.000040000000002, 0.3079, 7.0475, 25, 0.043689251507626814
DataValue, -2.6E-06, 20.000020000000003, 0.30770000000000003, 7.038, 25, 0.043719806763285025
DataValue, -1.7000000000000002E-06, 20.000020000000003, 0.30820000000000003, 7.057, 25, 0.043672948845118326
DataValue, -1.8000000000000001E-06, 20.00016, 0.30710000000000004, 7.0495, 25, 0.043563373288885744
DataValue, -2.9E-06, 19.999740000000003, 0.3075, 7.038, 25, 0.043691389599317988
DataValue, -2.0000000000000003E-06, 20.000600000000002, 0.3065, 7.0395, 25, 0.043540024149442427
DataValue, -1.9000000000000002E-06, 20.000700000000002, 0.30820000000000003, 7.0520000000000005, 25, 0.043703913783323882
DataValue, -2.2E-06, 20.00034, 0.3075, 7.059, 25, 0.043561410964725877
DataValue, -2.5E-06, 20.00008, 0.3078, 7.0695000000000006, 25, 0.043539147040101846
DataValue, -5.1E-06, 19.99988, 0.3042, 7.0360000000000005, 25, 0.043234792495736217
DataValue, -5.0000000000000008E-07, 19.9994, 0.30660000000000004, 7.0475, 25, 0.043504788932245478
DataValue, -2.7000000000000004E-06, 19.9998, 0.3078, 7.0525, 25, 0.043644097837646223
DataValue, -3.8000000000000005E-06, 19.99986, 0.30910000000000004, 7.061, 25, 0.043775669168672995
DataValue, -2.4000000000000003E-06, 19.999460000000003, 0.3078, 7.0675, 25, 0.043551467987265655
DataValue, -5.1E-06, 20.00034, 0.3083, 7.065, 25, 0.043637650389242749
DataValue, -1.5E-06, 20.000120000000003, 0.308, 7.0475, 25, 0.0437034409365023
DataValue, 1.0000000000000001E-07, 19.999940000000002, 0.3078, 7.0395, 25, 0.0437246963562753
DataValue, -5.3E-06, 20.000400000000003, 0.30770000000000003, 7.0455000000000005, 25, 0.0436732666240863
DataValue, -3.6000000000000003E-06, 19.999820000000003, 0.3083, 7.0310000000000006, 25, 0.043848670174939555
DataValue, -4.2000000000000004E-06, 20.00026, 0.3073, 7.04, 25, 0.043650568181818186
DataValue, -2.5E-06, 20.00026, 0.30810000000000004, 7.0495, 25, 0.043705227321086608
DataValue, -4.0000000000000007E-06, 19.99942, 0.3094, 7.0615000000000006, 25, 0.04381505345889683
DataValue, -2.8000000000000003E-06, 19.999380000000002, 0.3057, 7.0585, 25, 0.04330948501806333
DataValue, -2.8000000000000003E-06, 20, 0.3078, 7.0605, 25, 0.043594646271510516
DataValue, -3.7E-06, 19.999820000000003, 0.30720000000000003, 7.0575, 25, 0.043528161530286935
DataValue, -2.3E-06, 20.00016, 0.30820000000000003, 7.0445, 25, 0.0437504436084889
DataValue, -4.0000000000000003E-07, 20.000120000000003, 0.3068, 7.034, 25, 0.043616718794427072
DataValue, -1.1E-06, 20.000220000000002, 0.3073, 7.0335, 25, 0.043690907798393408
DataValue, 1.0000000000000001E-07, 20.000320000000002, 0.307, 7.0425, 25, 0.043592474263400779
DataValue, -4.9000000000000005E-06, 20.000020000000003, 0.30810000000000004, 7.048, 25, 0.043714528944381388
DataValue, -4.8000000000000006E-06, 19.9995, 0.30860000000000004, 7.0495, 25, 0.04377615433718704
DataValue, -2.0000000000000003E-06, 19.999660000000002, 0.3074, 7.054, 25, 0.043578111709668271
DataValue, -8.0000000000000007E-07, 20.000040000000002, 0.3088, 7.0625, 25, 0.043723893805309735
DataValue, -2.2E-06, 19.999660000000002, 0.30810000000000004, 7.0485, 25, 0.043711427963396478
DataValue, -3.2000000000000003E-06, 20.00066, 0.309, 7.0295000000000005, 25, 0.043957607226687526
DataValue, -7.0000000000000007E-07, 20.000500000000002, 0.3075, 7.0475, 25, 0.043632493792124867
DataValue, -1.6000000000000001E-06, 20.00016, 0.3063, 7.0555, 25, 0.043412940259372118
DataValue, -3E-06, 20.00036, 0.30860000000000004, 7.0525, 25, 0.043757532789790859
DataValue, -1.1E-06, 19.9995, 0.308, 7.048, 25, 0.043700340522133937
DataValue, -3.7E-06, 19.999760000000002, 0.30660000000000004, 7.048, 25, 0.0435017026106697
DataValue, -1.4000000000000002E-06, 19.99958, 0.3079, 7.064, 25, 0.0435872027180068
DataValue, -1.4000000000000002E-06, 20.000400000000003, 0.30820000000000003, 7.045, 25, 0.043747338537970193
DataValue, -3.1000000000000004E-06, 19.999940000000002, 0.3083, 7.0345, 25, 0.043826853365555474
DataValue, -2.9E-06, 19.999840000000003, 0.3074, 7.0435, 25, 0.043643075175693907
DataValue, -1.9000000000000002E-06, 19.99968, 0.3075, 7.0535000000000005, 25, 0.043595378181044871
DataValue, -3.8000000000000005E-06, 19.9998, 0.30820000000000003, 7.061, 25, 0.043648208469055379
DataValue, -6.0000000000000008E-07, 20.00028, 0.30670000000000003, 7.049, 25, 0.043509717690452546
DataValue, -2.8000000000000003E-06, 20.000320000000002, 0.3078, 7.0635, 25, 0.043576130813336167
DataValue, 6.0000000000000008E-07, 20.00082, 0.3094, 7.0555, 25, 0.043852313797746435
DataValue, -2.7000000000000004E-06, 19.999940000000002, 0.30760000000000004, 7.0445, 25, 0.043665270778621625
DataValue, -2.7000000000000004E-06, 19.000040000000002, 0.0037, 0.10250000000000001, 25, 0.036097560975609753
DataValue, 6.0000000000000008E-07, 19.00008, 0.012100000000000001, 0.28800000000000003, 25, 0.042013888888888885
DataValue, -8.0000000000000007E-07, 19.00008, 0.023, 0.50650000000000006, 25, 0.0454096742349457
DataValue, -4.5E-06, 19.00024, 0.0347, 0.7195, 25, 0.048227936066712995
DataValue, -1.3E-06, 19.000120000000003, 0.042100000000000005, 0.937, 25, 0.044930629669156889
DataValue, -3.2000000000000003E-06, 18.999640000000003, 0.053700000000000005, 1.198, 25, 0.04482470784641069
DataValue, -4.9000000000000005E-06, 18.999940000000002, 0.0632, 1.4075, 25, 0.044902309058614573
DataValue, -2.8000000000000003E-06, 18.9994, 0.0731, 1.5925, 25, 0.045902668759811617
DataValue, -2.6E-06, 18.9999, 0.0811, 1.8225, 25, 0.044499314128943764
DataValue, -2.8000000000000003E-06, 18.999280000000002, 0.0917, 2.039, 25, 0.044973025993133887
DataValue, -3.9E-06, 19.000040000000002, 0.0994, 2.212, 25, 0.04493670886075949
DataValue, -3.8000000000000005E-06, 18.999380000000002, 0.1086, 2.445, 25, 0.044417177914110435
DataValue, -1.2000000000000002E-06, 19.000100000000003, 0.1179, 2.665, 25, 0.044240150093808633
DataValue, -3.3E-06, 19.00026, 0.1274, 2.8335, 25, 0.044962061055232053
DataValue, -3.4000000000000005E-06, 18.9998, 0.1366, 3.0565, 25, 0.044691640765581547
DataValue, -1.5E-06, 18.999940000000002, 0.14600000000000002, 3.2680000000000002, 25, 0.044675642594859247
DataValue, -2.5E-06, 18.999820000000003, 0.1532, 3.4490000000000003, 25, 0.044418672078863436
DataValue, -3E-06, 18.999360000000003, 0.1622, 3.6495, 25, 0.044444444444444446
DataValue, -6.0000000000000008E-07, 19.00008, 0.1721, 3.8810000000000002, 25, 0.044344241174954904
DataValue, -4.2000000000000004E-06, 19.000220000000002, 0.1804, 4.0355, 25, 0.0447032585801016
DataValue, -5.9E-06, 19.000420000000002, 0.18910000000000002, 4.2565, 25, 0.044426171737342895
DataValue, -1.9000000000000002E-06, 18.999760000000002, 0.1975, 4.4785, 25, 0.044099586915261807
DataValue, -6.0000000000000008E-07, 19.00054, 0.2071, 4.6695, 25, 0.044351643644929863
DataValue, -1.1E-06, 19.000600000000002, 0.21610000000000001, 4.8435, 25, 0.044616496335294728
DataValue, -3.3E-06, 19.000320000000002, 0.2262, 5.0735, 25, 0.04458460628757268
DataValue, -3.8000000000000005E-06, 18.9999, 0.23440000000000003, 5.258, 25, 0.044579688094332451
DataValue, -2.5E-06, 18.99996, 0.24250000000000002, 5.457, 25, 0.044438336082096394
DataValue, -3E-06, 19.000420000000002, 0.2516, 5.66, 25, 0.044452296819787983
DataValue, -2.0000000000000003E-06, 19.000120000000003, 0.2597, 5.854, 25, 0.044362828834984623
DataValue, -3.7E-06, 18.999660000000002, 0.26780000000000004, 6.0200000000000005, 25, 0.044485049833887048
DataValue, -1.4000000000000002E-06, 19.00028, 0.2763, 6.2255, 25, 0.044381977351216767
DataValue, -2.1000000000000002E-06, 19.000140000000002, 0.28350000000000003, 6.3925, 25, 0.044348846304262814
DataValue, -2.4000000000000003E-06, 19.000140000000002, 0.2897, 6.5360000000000005, 25, 0.044323745410036718
DataValue, -3.7E-06, 19.00056, 0.2958, 6.692, 25, 0.044202032277346086
DataValue, -1.5E-06, 18.999820000000003, 0.3013, 6.7695, 25, 0.0445084570500037
DataValue, -5.5000000000000007E-06, 18.99986, 0.3028, 6.87, 25, 0.044075691411935958
DataValue, -2.1000000000000002E-06, 18.99988, 0.3055, 6.885, 25, 0.044371822803195356
DataValue, -8.0000000000000007E-07, 19.00038, 0.3058, 6.9475, 25, 0.044015833033465276
DataValue, -2.2E-06, 19.000320000000002, 0.30710000000000004, 6.9485, 25, 0.044196589191911925
DataValue, -2.4000000000000003E-06, 18.99972, 0.30710000000000004, 6.976, 25, 0.044022362385321104
DataValue, -1.2000000000000002E-06, 18.999920000000003, 0.3083, 7.008, 25, 0.043992579908675805
DataValue, -2.6E-06, 18.999940000000002, 0.31, 6.985, 25, 0.044380816034359338
DataValue, -3.4000000000000005E-06, 18.999560000000002, 0.31, 7.0165, 25, 0.044181572008836316
DataValue, -1.9000000000000002E-06, 19, 0.31070000000000003, 7.009, 25, 0.044328720216864036
DataValue, -3E-06, 19.000020000000003, 0.3099, 7.018, 25, 0.044157879737817048
DataValue, -2.1000000000000002E-06, 19.000300000000003, 0.3098, 7.0230000000000006, 25, 0.044112202762352268
DataValue, -5E-06, 18.999560000000002, 0.3105, 6.998, 25, 0.044369819948556731
DataValue, -1.3E-06, 19.000300000000003, 0.31120000000000003, 7.038, 25, 0.044217107132708156
DataValue, -2.5E-06, 18.99986, 0.3098, 7.022, 25, 0.044118484762176016
DataValue, -1.9000000000000002E-06, 18.999460000000003, 0.3095, 7.0315, 25, 0.044016212756879752
DataValue, -4.6E-06, 19.000040000000002, 0.3105, 7.0405, 25, 0.044101981393366949
DataValue, -2.5E-06, 19.00056, 0.30910000000000004, 7.0305, 25, 0.043965578550600959
DataValue, -2.2E-06, 19.000500000000002, 0.3113, 7.0465, 25, 0.044177960689704109
DataValue, 7.0000000000000007E-07, 19.000220000000002, 0.3089, 7.017, 25, 0.044021661678780105
DataValue, 0, 19.000220000000002, 0.30970000000000003, 7.0295000000000005, 25, 0.044057187566683267
DataValue, -1.3E-06, 19.00056, 0.31020000000000003, 7.0275, 25, 0.044140875133404485
