
SetupTitle, ID-VGS
PrimitiveTest, Multi Channel I/V Sweep
TestParameter, Channel.UnitType, SMU, SMU
TestParameter, Channel.Unit, SMU2:MC, SMU3:UHC500
TestParameter, Channel.IName, IG, ID
TestParameter, Channel.VName, VGS, VDS
TestParameter, Channel.Mode, VPULSE, VPULSE
TestParameter, Channel.Func, VAR1, CONST
TestParameter, Channel.Index, 
TestParameter, Channel.Time, 
TestParameter, Measurement.Port.Unit, SMU2:MC, SMU3:UHC500
TestParameter, Measurement.Port.SeriesResistor, NONE, NONE
TestParameter, Measurement.Port.Filter, OFF, OFF
TestParameter, Measurement.Port.OutputVoltageComparison, 0, 0
TestParameter, Measurement.Primary.Start, 0
TestParameter, Measurement.Primary.Stop, 10
TestParameter, Measurement.Primary.Compliance, 0.099999999999999992
TestParameter, Measurement.Primary.PowerCompliance, 0
TestParameter, Measurement.Primary.Locus, Single
TestParameter, Measurement.Primary.Scale, LINEAR
TestParameter, Measurement.Primary.Count, 2001
TestParameter, Measurement.Aborting.Condition, CONTINUE AT ANY
TestParameter, Measurement.PostOutput.Value, START
TestParameter, Measurement.PostOutput.Retention, OFF
TestParameter, Measurement.Bias.Source, 0, 3
TestParameter, Measurement.Bias.Compliance, 0.099999999999999992, 5
TestParameter, Measurement.Pulse.Delay, 0, 9.9999999999999991E-05
TestParameter, Measurement.Pulse.Duration, 0.001, 4.9999999999999996E-05
TestParameter, Measurement.Pulse.Base, 0, 0
TestParameter, Measurement.Pulse.Period, 0
TestParameter, Measurement.Pulse.MeasurementDelay, 0
TestParameter, Measurement.Pulse.AveragingCount, 1
TestParameter, Measurement.Monitor.Unit, SMU2:MC, SMU3:UHC500
TestParameter, Measurement.Monitor.Adc, HS ADC, HS ADC
TestParameter, Measurement.Monitor.Measurement, Force and Compliance Sides, Force and Compliance Sides
TestParameter, Measurement.Timing.Hold, 0
TestParameter, Measurement.Timing.Delay, 0
TestParameter, Measurement.Adc.HighSpeed.Mode, TIME
TestParameter, Measurement.Adc.HighSpeed.Coeff, 9.9999999999999991E-06
TestParameter, Measurement.Adc.HighResolution.AutoZero, OFF
TestParameter, Measurement.Adc.HighResolution.Mode, AUTO
TestParameter, Measurement.Adc.HighResolution.Coeff, 6
TestParameter, Measurement.WaitTime.Source.Coeff, 1
TestParameter, Measurement.WaitTime.Source.Offset, 0
TestParameter, Measurement.WaitTime.Monitor.Coeff, 1
TestParameter, Measurement.WaitTime.Monitor.Offset, 0
TestParameter, Output.Graph.Enabled, true
TestParameter, Output.Graph.AutoScaling, false
TestParameter, Output.Graph.XAxis.Data, VGS
TestParameter, Output.Graph.XAxis.Scale, Linear
TestParameter, Output.Graph.XAxis.Left, -5.4
TestParameter, Output.Graph.XAxis.Right, 12.6
TestParameter, Output.Graph.XAxis.RunTimeAutoScale, false
TestParameter, Output.Graph.YAxis.Data, ID
TestParameter, Output.Graph.YAxis.Scale, Linear
TestParameter, Output.Graph.YAxis.Bottom, 0
TestParameter, Output.Graph.YAxis.Top, 10
TestParameter, Output.Graph.YAxis.Group, 
TestParameter, Output.Graph.YAxis.RunTimeAutoScale, false
TestParameter, Output.List.Data, VGS, ID
TestParameter, AutoAnalysis.Interpolation, false
TestParameter, AutoAnalysis.Line1.Enabled, false
TestParameter, AutoAnalysis.Line1.Type, 1
TestParameter, AutoAnalysis.Line1.Fix, True
TestParameter, AutoAnalysis.Line1.YAxis, 0
TestParameter, AutoAnalysis.Line1.Point1.Type, 0
TestParameter, AutoAnalysis.Line1.Point1.XY.X, 
TestParameter, AutoAnalysis.Line1.Point1.XY.Y, 
TestParameter, AutoAnalysis.Line1.Point1.Data.Var, 
TestParameter, AutoAnalysis.Line1.Point1.Data.Condition, 
TestParameter, AutoAnalysis.Line1.Point1.Data.Start, false
TestParameter, AutoAnalysis.Line1.Point1.Data.StartVar, 
TestParameter, AutoAnalysis.Line1.Point1.Data.StartCondition, 
TestParameter, AutoAnalysis.Line1.Point2.Type, 0
TestParameter, AutoAnalysis.Line1.Point2.XY.X, 
TestParameter, AutoAnalysis.Line1.Point2.XY.Y, 
TestParameter, AutoAnalysis.Line1.Point2.Data.Var, 
TestParameter, AutoAnalysis.Line1.Point2.Data.Condition, 
TestParameter, AutoAnalysis.Line1.Point2.Data.Start, false
TestParameter, AutoAnalysis.Line1.Point2.Data.StartVar, 
TestParameter, AutoAnalysis.Line1.Point2.Data.StartCondition, 
TestParameter, AutoAnalysis.Line1.GradientExpr, 0
TestParameter, AutoAnalysis.Line2.Enabled, false
TestParameter, AutoAnalysis.Line2.Type, 1
TestParameter, AutoAnalysis.Line2.Fix, True
TestParameter, AutoAnalysis.Line2.YAxis, 0
TestParameter, AutoAnalysis.Line2.Point1.Type, 0
TestParameter, AutoAnalysis.Line2.Point1.XY.X, 
TestParameter, AutoAnalysis.Line2.Point1.XY.Y, 
TestParameter, AutoAnalysis.Line2.Point1.Data.Var, 
TestParameter, AutoAnalysis.Line2.Point1.Data.Condition, 
TestParameter, AutoAnalysis.Line2.Point1.Data.Start, false
TestParameter, AutoAnalysis.Line2.Point1.Data.StartVar, 
TestParameter, AutoAnalysis.Line2.Point1.Data.StartCondition, 
TestParameter, AutoAnalysis.Line2.Point2.Type, 0
TestParameter, AutoAnalysis.Line2.Point2.XY.X, 
TestParameter, AutoAnalysis.Line2.Point2.XY.Y, 
TestParameter, AutoAnalysis.Line2.Point2.Data.Var, 
TestParameter, AutoAnalysis.Line2.Point2.Data.Condition, 
TestParameter, AutoAnalysis.Line2.Point2.Data.Start, false
TestParameter, AutoAnalysis.Line2.Point2.Data.StartVar, 
TestParameter, AutoAnalysis.Line2.Point2.Data.StartCondition, 
TestParameter, AutoAnalysis.Line2.GradientExpr, 0
TestParameter, AutoAnalysis.Marker.Enabled, false
TestParameter, AutoAnalysis.Marker.Data.Var, 
TestParameter, AutoAnalysis.Marker.Data.Condition, 
TestParameter, AutoAnalysis.Marker.Data.Start, false
TestParameter, AutoAnalysis.Marker.Data.StartVar, 
TestParameter, AutoAnalysis.Marker.Data.StartCondition, 
MetaData, TestRecord.EntryPoint, true
MetaData, TestRecord.RecordTime, 04/17/2021 11:18:17
MetaData, TestRecord.TestTarget, 
MetaData, TestRecord.IterationIndex, 1
MetaData, TestRecord.Preservation, true
MetaData, TestRecord.Flag, 
MetaData, TestRecord.Remarks, 
MetaData, TestRecord.LinkKey, d0d4430b-3039-4185-acc2-b009127785ab
Dimension1, 2001, 2001
Dimension2, 1, 1
DataName, VGS, ID
DataValue, 0.00046, -0.051000000000000004
DataValue, 0.0048800000000000007, -0.0415
DataValue, 0.01042, -0.042
DataValue, 0.014300000000000002, -0.0635
DataValue, 0.0212, -0.0305
DataValue, 0.02576, -0.026000000000000002
DataValue, 0.03036, -0.017
DataValue, 0.034940000000000006, -0.0175
DataValue, 0.039920000000000004, -0.015
DataValue, 0.0451, -0.0305
DataValue, 0.05038, -0.0305
DataValue, 0.0558, -0.0385
DataValue, 0.060680000000000005, -0.0325
DataValue, 0.06496, -0.02
DataValue, 0.06974000000000001, -0.0165
DataValue, 0.07502, -0.0035
DataValue, 0.08032, -0.0135
DataValue, 0.08522, -0.0165
DataValue, 0.09038, -0.025500000000000002
DataValue, 0.095, -0.04
DataValue, 0.10042000000000001, -0.0375
DataValue, 0.10536000000000001, -0.051000000000000004
DataValue, 0.11066000000000001, -0.0385
DataValue, 0.11556000000000001, -0.0195
DataValue, 0.12010000000000001, -0.0135
DataValue, 0.12548, -0.029500000000000002
DataValue, 0.13014, -0.032
DataValue, 0.13492, -0.04
DataValue, 0.13962000000000002, -0.034
DataValue, 0.1453, -0.0365
DataValue, 0.14998, -0.037
DataValue, 0.15486000000000003, -0.029
DataValue, 0.15948, -0.0275
DataValue, 0.16576000000000002, -0.017
DataValue, 0.16958, -0.0305
DataValue, 0.17534000000000002, -0.046
DataValue, 0.17964000000000002, -0.054
DataValue, 0.18530000000000002, -0.0335
DataValue, 0.18978, -0.035
DataValue, 0.19474000000000002, -0.029
DataValue, 0.20022, -0.02
DataValue, 0.20478000000000002, -0.0345
DataValue, 0.21000000000000002, -0.029500000000000002
DataValue, 0.21488000000000002, -0.045
DataValue, 0.22012, -0.048
DataValue, 0.22510000000000002, -0.059500000000000004
DataValue, 0.22946000000000003, -0.0135
DataValue, 0.2353, -0.021500000000000002
DataValue, 0.24052, -0.0225
DataValue, 0.24570000000000003, -0.03
DataValue, 0.24994000000000002, -0.025500000000000002
DataValue, 0.25488, -0.052000000000000005
DataValue, 0.26026000000000005, -0.045
DataValue, 0.26526, -0.027
DataValue, 0.26996000000000003, -0.019
DataValue, 0.27526, -0.0325
DataValue, 0.2796, -0.021
DataValue, 0.28488, -0.042
DataValue, 0.29006000000000004, -0.029
DataValue, 0.29534000000000005, -0.029
DataValue, 0.30046, -0.0225
DataValue, 0.30446, -0.0235
DataValue, 0.3098, -0.001
DataValue, 0.31446, -0.04
DataValue, 0.32032000000000005, -0.043500000000000004
DataValue, 0.32556, -0.0385
DataValue, 0.3304, -0.035
DataValue, 0.33494, -0.0285
DataValue, 0.3397, -0.011
DataValue, 0.34482, -0.023
DataValue, 0.34984000000000004, -0.028
DataValue, 0.35508, -0.0455
DataValue, 0.35996, -0.0375
DataValue, 0.36534000000000005, -0.0265
DataValue, 0.37004000000000004, -0.027
DataValue, 0.37468, -0.026000000000000002
DataValue, 0.37958000000000003, -0.022
DataValue, 0.38512, -0.031
DataValue, 0.39042000000000004, -0.0445
DataValue, 0.39494, -0.045
DataValue, 0.39952000000000004, -0.0325
DataValue, 0.40562000000000004, -0.0285
DataValue, 0.40978000000000003, -0.0195
DataValue, 0.41530000000000006, -0.0185
DataValue, 0.41992, -0.013000000000000001
DataValue, 0.42518000000000006, -0.021500000000000002
DataValue, 0.43002, -0.0545
DataValue, 0.4348, -0.038
DataValue, 0.44018, -0.0455
DataValue, 0.44462, -0.006
DataValue, 0.45006, -0.015
DataValue, 0.45532000000000006, -0.0205
DataValue, 0.46008000000000004, -0.0415
DataValue, 0.46514000000000005, -0.0385
DataValue, 0.47020000000000006, -0.04
DataValue, 0.47526, -0.041
DataValue, 0.47992, -0.0315
DataValue, 0.48494000000000004, -0.015
DataValue, 0.49002000000000007, -0.0105
DataValue, 0.49488000000000004, -0.0245
DataValue, 0.5001, -0.0305
DataValue, 0.50514, -0.031
DataValue, 0.51004, -0.035500000000000004
DataValue, 0.51488, -0.031
DataValue, 0.5198, -0.0125
DataValue, 0.5249, -0.0135
DataValue, 0.5303, -0.016
DataValue, 0.53528000000000009, -0.0265
DataValue, 0.53986, -0.037
DataValue, 0.54536000000000007, -0.032
DataValue, 0.54988, -0.0305
DataValue, 0.55502000000000007, -0.0205
DataValue, 0.5601, -0.029500000000000002
DataValue, 0.56508, -0.036000000000000004
DataValue, 0.56976, -0.0395
DataValue, 0.57510000000000006, -0.041
DataValue, 0.5801400000000001, -0.0345
DataValue, 0.5852, -0.0115
DataValue, 0.58962, -0.032
DataValue, 0.59434000000000009, -0.0225
DataValue, 0.60030000000000006, -0.037
DataValue, 0.6049000000000001, -0.0405
DataValue, 0.61006, -0.0305
DataValue, 0.61512, -0.026000000000000002
DataValue, 0.6196, -0.014
DataValue, 0.6248, -0.03
DataValue, 0.62978, -0.028
DataValue, 0.63512, -0.025500000000000002
DataValue, 0.64028000000000007, -0.043500000000000004
DataValue, 0.64478, -0.026000000000000002
DataValue, 0.6503000000000001, -0.032
DataValue, 0.65422, -0.0275
DataValue, 0.66044, -0.026000000000000002
DataValue, 0.66514000000000006, -0.03
DataValue, 0.6703, -0.049
DataValue, 0.67546000000000006, -0.061
DataValue, 0.68018, -0.034
DataValue, 0.68458000000000008, -0.013000000000000001
DataValue, 0.69044, -0.031
DataValue, 0.69498, -0.0055
DataValue, 0.69960000000000011, -0.038
DataValue, 0.70476, -0.0335
DataValue, 0.70972, -0.045
DataValue, 0.71488000000000007, -0.036000000000000004
DataValue, 0.7202400000000001, -0.011
DataValue, 0.72502000000000011, -0.0235
DataValue, 0.7303400000000001, -0.025
DataValue, 0.7345600000000001, -0.043500000000000004
DataValue, 0.73962, -0.04
DataValue, 0.7454400000000001, -0.025
DataValue, 0.74978000000000011, -0.012
DataValue, 0.7549800000000001, -0.0265
DataValue, 0.76038000000000006, -0.0225
DataValue, 0.76502, -0.039
DataValue, 0.76984000000000008, -0.0275
DataValue, 0.77560000000000007, -0.0205
DataValue, 0.77954, -0.021500000000000002
DataValue, 0.7858, -0.015
DataValue, 0.78956, -0.038
DataValue, 0.79522, -0.025500000000000002
DataValue, 0.8005000000000001, -0.029
DataValue, 0.805, -0.018000000000000002
DataValue, 0.80926000000000009, -0.0275
DataValue, 0.81516000000000011, -0.0315
DataValue, 0.81960000000000011, -0.0425
DataValue, 0.82512000000000008, -0.043500000000000004
DataValue, 0.83088000000000006, -0.038
DataValue, 0.83588000000000007, -0.025500000000000002
DataValue, 0.84062, -0.0105
DataValue, 0.84510000000000007, -0.04
DataValue, 0.84984, -0.033
DataValue, 0.85474, -0.0345
DataValue, 0.8597800000000001, -0.019
DataValue, 0.86574000000000007, -0.016
DataValue, 0.8698800000000001, -0.025
DataValue, 0.87534000000000012, -0.037
DataValue, 0.88072000000000006, -0.019
DataValue, 0.88438, -0.0135
DataValue, 0.89002, -0.0115
DataValue, 0.89522000000000013, -0.031
DataValue, 0.90016000000000007, -0.033
DataValue, 0.90494000000000008, -0.023
DataValue, 0.91068, -0.017
DataValue, 0.91460000000000008, -0.0305
DataValue, 0.92026000000000008, -0.0405
DataValue, 0.9249, -0.04
DataValue, 0.9301600000000001, -0.0285
DataValue, 0.93602000000000007, -0.014
DataValue, 0.94034000000000006, -0.023
DataValue, 0.94536000000000009, -0.043000000000000003
DataValue, 0.9502, -0.035
DataValue, 0.9549200000000001, -0.0425
DataValue, 0.9592, -0.0205
DataValue, 0.96514000000000011, -0.023
DataValue, 0.96960000000000013, -0.021500000000000002
DataValue, 0.97444000000000008, -0.041
DataValue, 0.98006, -0.037
DataValue, 0.9854, -0.037
DataValue, 0.99008000000000007, -0.032
DataValue, 0.9947, -0.0145
DataValue, 0.99990000000000012, -0.027
DataValue, 1.0051, -0.033
DataValue, 1.0098200000000002, -0.0455
DataValue, 1.01486, -0.035
DataValue, 1.0203, -0.018000000000000002
DataValue, 1.02502, -0.016
DataValue, 1.0297200000000002, -0.034
DataValue, 1.0356400000000001, -0.0405
DataValue, 1.03946, -0.035
DataValue, 1.04594, -0.033
DataValue, 1.0502600000000002, -0.023
DataValue, 1.0551000000000002, -0.0135
DataValue, 1.06074, -0.0335
DataValue, 1.06464, -0.0335
DataValue, 1.06976, -0.0365
DataValue, 1.0741200000000002, -0.0145
DataValue, 1.07936, -0.036000000000000004
DataValue, 1.08532, -0.0165
DataValue, 1.09054, -0.039
DataValue, 1.09454, -0.0345
DataValue, 1.09946, -0.0395
DataValue, 1.10464, -0.015
DataValue, 1.11022, -0.002
DataValue, 1.11508, -0.021500000000000002
DataValue, 1.1200400000000002, -0.0225
DataValue, 1.12504, -0.0285
DataValue, 1.13006, -0.0315
DataValue, 1.13528, -0.022
DataValue, 1.1402400000000001, -0.016
DataValue, 1.1451600000000002, -0.0285
DataValue, 1.1497000000000002, -0.026000000000000002
DataValue, 1.15558, -0.0365
DataValue, 1.16016, -0.0385
DataValue, 1.1653600000000002, -0.031
DataValue, 1.16918, -0.0075
DataValue, 1.17476, -0.0115
DataValue, 1.1802000000000001, -0.033
DataValue, 1.1848400000000001, -0.0415
DataValue, 1.1903400000000002, -0.046
DataValue, 1.1945000000000001, -0.0185
DataValue, 1.19992, -0.0225
DataValue, 1.20448, -0.016
DataValue, 1.2099000000000002, -0.016
DataValue, 1.21438, -0.0375
DataValue, 1.22008, -0.0415
DataValue, 1.2253, -0.0375
DataValue, 1.2299600000000002, -0.004
DataValue, 1.2352400000000001, -0.0275
DataValue, 1.2395200000000002, -0.014
DataValue, 1.2452, -0.022
DataValue, 1.2496800000000001, -0.0325
DataValue, 1.2547400000000002, -0.0265
DataValue, 1.2595, -0.0265
DataValue, 1.26496, -0.0235
DataValue, 1.27038, -0.013000000000000001
DataValue, 1.27546, -0.0415
DataValue, 1.27984, -0.0405
DataValue, 1.28526, -0.03
DataValue, 1.28974, -0.0165
DataValue, 1.29556, -0.019
DataValue, 1.3007000000000002, -0.0185
DataValue, 1.30526, -0.0225
DataValue, 1.3102600000000002, -0.023
DataValue, 1.3155800000000002, -0.024
DataValue, 1.31986, -0.0345
DataValue, 1.32508, -0.0265
DataValue, 1.3297, -0.0345
DataValue, 1.33498, -0.0405
DataValue, 1.34054, -0.029
DataValue, 1.3446600000000002, -0.0195
DataValue, 1.34996, -0.002
DataValue, 1.35508, -0.029500000000000002
DataValue, 1.35982, -0.037
DataValue, 1.3651200000000001, -0.051500000000000004
DataValue, 1.3701, -0.0315
DataValue, 1.3744800000000002, -0.0235
DataValue, 1.38036, -0.0115
DataValue, 1.38532, -0.031
DataValue, 1.3905800000000002, -0.031
DataValue, 1.3953000000000002, -0.042
DataValue, 1.3997400000000002, -0.0465
DataValue, 1.4044800000000002, -0.028
DataValue, 1.4102400000000002, -0.0345
DataValue, 1.4148, -0.032
DataValue, 1.4203000000000001, -0.0375
DataValue, 1.4254000000000002, -0.0385
DataValue, 1.42964, -0.043000000000000003
DataValue, 1.4347, -0.032
DataValue, 1.4404400000000002, -0.0185
DataValue, 1.4448, -0.034
DataValue, 1.4507, -0.0305
DataValue, 1.4545000000000001, -0.035
DataValue, 1.4601400000000002, -0.04
DataValue, 1.4654800000000001, -0.0325
DataValue, 1.47032, -0.024
DataValue, 1.4751200000000002, -0.018000000000000002
DataValue, 1.48018, -0.0395
DataValue, 1.4854200000000002, -0.0475
DataValue, 1.4902600000000001, -0.033
DataValue, 1.49526, -0.044
DataValue, 1.4997200000000002, -0.0245
DataValue, 1.5057, -0.0175
DataValue, 1.51008, -0.013000000000000001
DataValue, 1.5146400000000002, -0.021500000000000002
DataValue, 1.52014, -0.0225
DataValue, 1.5257800000000001, -0.033
DataValue, 1.5298200000000002, -0.0585
DataValue, 1.5353800000000002, -0.0395
DataValue, 1.5406400000000002, -0.0205
DataValue, 1.5445600000000002, -0.0135
DataValue, 1.5509000000000002, -0.02
DataValue, 1.55512, -0.018000000000000002
DataValue, 1.5600800000000001, -0.029500000000000002
DataValue, 1.56512, -0.0405
DataValue, 1.5703, -0.04
DataValue, 1.5759400000000001, -0.0285
DataValue, 1.5801, -0.024
DataValue, 1.58508, -0.019
DataValue, 1.5896400000000002, -0.021500000000000002
DataValue, 1.5952000000000002, -0.03
DataValue, 1.6002, -0.035
DataValue, 1.6051400000000002, -0.04
DataValue, 1.6099800000000002, -0.032
DataValue, 1.61488, -0.031
DataValue, 1.6201, -0.0235
DataValue, 1.62542, -0.0225
DataValue, 1.6305, -0.036000000000000004
DataValue, 1.63532, -0.044
DataValue, 1.6395600000000001, -0.027
DataValue, 1.6446, -0.0205
DataValue, 1.6497400000000002, -0.022
DataValue, 1.65524, -0.029
DataValue, 1.6598600000000001, -0.033
DataValue, 1.6649, -0.037
DataValue, 1.6705800000000002, -0.0225
DataValue, 1.67524, -0.0175
DataValue, 1.6794600000000002, -0.0125
DataValue, 1.6851800000000001, -0.0175
DataValue, 1.6902000000000002, -0.031
DataValue, 1.6947400000000001, -0.046
DataValue, 1.70046, -0.0365
DataValue, 1.7046000000000001, -0.0225
DataValue, 1.7099400000000002, -0.0245
DataValue, 1.7145400000000002, -0.028
DataValue, 1.7200000000000002, -0.0275
DataValue, 1.7247000000000001, -0.0455
DataValue, 1.73028, -0.045
DataValue, 1.7351400000000001, -0.037
DataValue, 1.7397600000000002, -0.026000000000000002
DataValue, 1.74516, -0.034
DataValue, 1.74998, -0.022
DataValue, 1.7548400000000002, -0.043500000000000004
DataValue, 1.7599200000000002, -0.048
DataValue, 1.7653, -0.039
DataValue, 1.7700200000000002, -0.043500000000000004
DataValue, 1.77604, -0.0145
DataValue, 1.7791800000000002, -0.0325
DataValue, 1.7856, -0.0485
DataValue, 1.7904000000000002, -0.0405
DataValue, 1.79516, -0.0455
DataValue, 1.7999600000000002, -0.033
DataValue, 1.80468, -0.008
DataValue, 1.8099200000000002, -0.0245
DataValue, 1.8145000000000002, -0.026000000000000002
DataValue, 1.8196, -0.038
DataValue, 1.8250800000000003, -0.032
DataValue, 1.8301600000000002, -0.02
DataValue, 1.8347600000000002, -0.02
DataValue, 1.8393400000000002, -0.024
DataValue, 1.8452000000000002, -0.026000000000000002
DataValue, 1.8503, -0.0535
DataValue, 1.8547000000000002, -0.036000000000000004
DataValue, 1.8600800000000002, -0.0235
DataValue, 1.8648200000000001, -0.012
DataValue, 1.8702800000000002, -0.0305
DataValue, 1.8749200000000001, -0.039
DataValue, 1.88006, -0.0415
DataValue, 1.88538, -0.037
DataValue, 1.8901800000000002, -0.027
DataValue, 1.8953400000000003, -0.0325
DataValue, 1.9001400000000002, -0.035500000000000004
DataValue, 1.9051600000000002, -0.0315
DataValue, 1.9103200000000002, -0.031
DataValue, 1.9155400000000002, -0.021500000000000002
