
SetupTitle, IG-VGS-VDS_0
PrimitiveTest, Multi Channel I/V Sweep
TestParameter, Channel.UnitType, SMU, SMU
TestParameter, Channel.Unit, SMU2:MC, SMU5:HC
TestParameter, Channel.IName, IG, ID
TestParameter, Channel.VName, VGS, VDS
TestParameter, Channel.Mode, VPULSE, VPULSE
TestParameter, Channel.Func, VAR1, CONST
TestParameter, Channel.Index, 
TestParameter, Channel.Time, 
TestParameter, Measurement.Port.Unit, SMU2:MC, SMU5:HC
TestParameter, Measurement.Port.SeriesResistor, NONE, NONE
TestParameter, Measurement.Port.Filter, OFF, OFF
TestParameter, Measurement.Port.OutputVoltageComparison, 0, 0
TestParameter, Measurement.Primary.Start, 0
TestParameter, Measurement.Primary.Stop, 15.000000000000002
TestParameter, Measurement.Primary.Compliance, 0.099999999999999992
TestParameter, Measurement.Primary.PowerCompliance, 0
TestParameter, Measurement.Primary.Locus, Single
TestParameter, Measurement.Primary.Scale, LINEAR
TestParameter, Measurement.Primary.Count, 101
TestParameter, Measurement.Aborting.Condition, CONTINUE AT ANY
TestParameter, Measurement.PostOutput.Value, START
TestParameter, Measurement.PostOutput.Retention, OFF
TestParameter, Measurement.Bias.Source, 0, 0
TestParameter, Measurement.Bias.Compliance, 0.099999999999999992, 20
TestParameter, Measurement.Pulse.Delay, 0, 0
TestParameter, Measurement.Pulse.Duration, 0.001, 0.00019999999999999998
TestParameter, Measurement.Pulse.Base, 0, 0
TestParameter, Measurement.Pulse.Period, 0
TestParameter, Measurement.Pulse.MeasurementDelay, 0
TestParameter, Measurement.Pulse.AveragingCount, 1
TestParameter, Measurement.Monitor.Unit, SMU2:MC, SMU5:HC
TestParameter, Measurement.Monitor.Adc, HS ADC, HS ADC
TestParameter, Measurement.Monitor.Measurement, Force and Compliance Sides, Force and Compliance Sides
TestParameter, Measurement.Timing.Hold, 0
TestParameter, Measurement.Timing.Delay, 0
TestParameter, Measurement.Adc.HighSpeed.Mode, TIME
TestParameter, Measurement.Adc.HighSpeed.Coeff, 4.9999999999999996E-05
TestParameter, Measurement.Adc.HighResolution.AutoZero, OFF
TestParameter, Measurement.Adc.HighResolution.Mode, AUTO
TestParameter, Measurement.Adc.HighResolution.Coeff, 6
TestParameter, Measurement.WaitTime.Source.Coeff, 1
TestParameter, Measurement.WaitTime.Source.Offset, 0
TestParameter, Measurement.WaitTime.Monitor.Coeff, 1
TestParameter, Measurement.WaitTime.Monitor.Offset, 0
TestParameter, Output.Graph.Enabled, true
TestParameter, Output.Graph.AutoScaling, false
TestParameter, Output.Graph.XAxis.Data, VGS
TestParameter, Output.Graph.XAxis.Scale, Linear
TestParameter, Output.Graph.XAxis.Left, -5
TestParameter, Output.Graph.XAxis.Right, 20
TestParameter, Output.Graph.XAxis.RunTimeAutoScale, false
TestParameter, Output.Graph.YAxis.Data, IG
TestParameter, Output.Graph.YAxis.Scale, Linear
TestParameter, Output.Graph.YAxis.Bottom, -2E-06
TestParameter, Output.Graph.YAxis.Top, 2E-06
TestParameter, Output.Graph.YAxis.Group, 
TestParameter, Output.Graph.YAxis.RunTimeAutoScale, false
TestParameter, Output.List.Data, VGS, IG
TestParameter, AutoAnalysis.Interpolation, false
TestParameter, AutoAnalysis.Line1.Enabled, false
TestParameter, AutoAnalysis.Line1.Type, 1
TestParameter, AutoAnalysis.Line1.Fix, True
TestParameter, AutoAnalysis.Line1.YAxis, 0
TestParameter, AutoAnalysis.Line1.Point1.Type, 0
TestParameter, AutoAnalysis.Line1.Point1.XY.X, 
TestParameter, AutoAnalysis.Line1.Point1.XY.Y, 
TestParameter, AutoAnalysis.Line1.Point1.Data.Var, 
TestParameter, AutoAnalysis.Line1.Point1.Data.Condition, 
TestParameter, AutoAnalysis.Line1.Point1.Data.Start, false
TestParameter, AutoAnalysis.Line1.Point1.Data.StartVar, 
TestParameter, AutoAnalysis.Line1.Point1.Data.StartCondition, 
TestParameter, AutoAnalysis.Line1.Point2.Type, 0
TestParameter, AutoAnalysis.Line1.Point2.XY.X, 
TestParameter, AutoAnalysis.Line1.Point2.XY.Y, 
TestParameter, AutoAnalysis.Line1.Point2.Data.Var, 
TestParameter, AutoAnalysis.Line1.Point2.Data.Condition, 
TestParameter, AutoAnalysis.Line1.Point2.Data.Start, false
TestParameter, AutoAnalysis.Line1.Point2.Data.StartVar, 
TestParameter, AutoAnalysis.Line1.Point2.Data.StartCondition, 
TestParameter, AutoAnalysis.Line1.GradientExpr, 0
TestParameter, AutoAnalysis.Line2.Enabled, false
TestParameter, AutoAnalysis.Line2.Type, 1
TestParameter, AutoAnalysis.Line2.Fix, True
TestParameter, AutoAnalysis.Line2.YAxis, 0
TestParameter, AutoAnalysis.Line2.Point1.Type, 0
TestParameter, AutoAnalysis.Line2.Point1.XY.X, 
TestParameter, AutoAnalysis.Line2.Point1.XY.Y, 
TestParameter, AutoAnalysis.Line2.Point1.Data.Var, 
TestParameter, AutoAnalysis.Line2.Point1.Data.Condition, 
TestParameter, AutoAnalysis.Line2.Point1.Data.Start, false
TestParameter, AutoAnalysis.Line2.Point1.Data.StartVar, 
TestParameter, AutoAnalysis.Line2.Point1.Data.StartCondition, 
TestParameter, AutoAnalysis.Line2.Point2.Type, 0
TestParameter, AutoAnalysis.Line2.Point2.XY.X, 
TestParameter, AutoAnalysis.Line2.Point2.XY.Y, 
TestParameter, AutoAnalysis.Line2.Point2.Data.Var, 
TestParameter, AutoAnalysis.Line2.Point2.Data.Condition, 
TestParameter, AutoAnalysis.Line2.Point2.Data.Start, false
TestParameter, AutoAnalysis.Line2.Point2.Data.StartVar, 
TestParameter, AutoAnalysis.Line2.Point2.Data.StartCondition, 
TestParameter, AutoAnalysis.Line2.GradientExpr, 0
TestParameter, AutoAnalysis.Marker.Enabled, false
TestParameter, AutoAnalysis.Marker.Data.Var, 
TestParameter, AutoAnalysis.Marker.Data.Condition, 
TestParameter, AutoAnalysis.Marker.Data.Start, false
TestParameter, AutoAnalysis.Marker.Data.StartVar, 
TestParameter, AutoAnalysis.Marker.Data.StartCondition, 
MetaData, TestRecord.EntryPoint, true
MetaData, TestRecord.RecordTime, 04/30/2021 09:36:16
MetaData, TestRecord.TestTarget, 
MetaData, TestRecord.IterationIndex, 1
MetaData, TestRecord.Preservation, true
MetaData, TestRecord.Flag, 
MetaData, TestRecord.Remarks, 
MetaData, TestRecord.LinkKey, 2f793860-3658-410f-8f9b-102ca2d2e43e
Dimension1, 101, 101
Dimension2, 1, 1
DataName, IG, VGS
DataValue, 1.4000000000000002E-06, -2E-05
DataValue, 9.0000000000000007E-07, 0.15000000000000002
DataValue, 7.0000000000000007E-07, 0.29988000000000004
DataValue, 6.0000000000000008E-07, 0.44998000000000005
DataValue, 1.4000000000000002E-06, 0.60004
DataValue, 7.0000000000000007E-07, 0.74996000000000007
DataValue, 1.3E-06, 0.90010000000000012
DataValue, 8.0000000000000007E-07, 1.05014
DataValue, 1.2000000000000002E-06, 1.19998
DataValue, 1.6000000000000001E-06, 1.3499
DataValue, 4.0000000000000003E-07, 1.49998
DataValue, 1.0000000000000002E-06, 1.6499800000000002
DataValue, 7.0000000000000007E-07, 1.8000600000000002
DataValue, 1.2000000000000002E-06, 1.9500600000000001
DataValue, 8.0000000000000007E-07, 2.10008
DataValue, 9.0000000000000007E-07, 2.2500600000000004
DataValue, 1.6000000000000001E-06, 2.40002
DataValue, 1.0000000000000002E-06, 2.54996
DataValue, 1.2000000000000002E-06, 2.7000400000000004
DataValue, 1.6000000000000001E-06, 2.8501600000000002
DataValue, 8.0000000000000007E-07, 3.0001
DataValue, 4.0000000000000003E-07, 3.15004
DataValue, 7.0000000000000007E-07, 3.3000000000000003
DataValue, 4.0000000000000003E-07, 3.44986
DataValue, 7.0000000000000007E-07, 3.6000400000000004
DataValue, 9.0000000000000007E-07, 3.7500800000000005
DataValue, 4.0000000000000003E-07, 3.8999800000000002
DataValue, 5.0000000000000008E-07, 4.04994
DataValue, 9.0000000000000007E-07, 4.2000800000000007
DataValue, 5.0000000000000008E-07, 4.3499000000000008
DataValue, 4.0000000000000003E-07, 4.4999400000000005
DataValue, 6.0000000000000008E-07, 4.64984
DataValue, -1.0000000000000001E-07, 4.79994
DataValue, 7.0000000000000007E-07, 4.95002
DataValue, 6.0000000000000008E-07, 5.1000000000000005
DataValue, 5.0000000000000008E-07, 5.25002
DataValue, 2.0000000000000002E-07, 5.4000600000000007
DataValue, 0, 5.5499800000000006
DataValue, 7.0000000000000007E-07, 5.69998
DataValue, 4.0000000000000003E-07, 5.8500000000000005
DataValue, 3.0000000000000004E-07, 5.99992
DataValue, 3.0000000000000004E-07, 6.14984
DataValue, 3.0000000000000004E-07, 6.2999800000000006
DataValue, 4.0000000000000003E-07, 6.45
DataValue, 2.0000000000000002E-07, 6.6000600000000009
DataValue, 1.0000000000000001E-07, 6.7500000000000009
DataValue, 1.0000000000000001E-07, 6.9000800000000009
DataValue, 2.0000000000000002E-07, 7.0499600000000004
DataValue, 4.0000000000000003E-07, 7.2000800000000007
DataValue, 4.0000000000000003E-07, 7.3500400000000008
DataValue, 6.0000000000000008E-07, 7.4999800000000008
DataValue, 2.0000000000000002E-07, 7.649960000000001
DataValue, 2.0000000000000002E-07, 7.80008
DataValue, -1.0000000000000001E-07, 7.9499600000000008
DataValue, 0, 8.1000000000000014
DataValue, -2.0000000000000002E-07, 8.24994
DataValue, -3.0000000000000004E-07, 8.40004
DataValue, 2.0000000000000002E-07, 8.55002
DataValue, -1.0000000000000001E-07, 8.6999000000000013
DataValue, 4.0000000000000003E-07, 8.85002
DataValue, 5.0000000000000008E-07, 9.00004
DataValue, 1.0000000000000001E-07, 9.1500200000000014
DataValue, -4.0000000000000003E-07, 9.30006
DataValue, 3.0000000000000004E-07, 9.4501400000000011
DataValue, -1.0000000000000001E-07, 9.59998
DataValue, 0, 9.74994
DataValue, 2.0000000000000002E-07, 9.9000600000000016
DataValue, -3.0000000000000004E-07, 10.04996
DataValue, 2.0000000000000002E-07, 10.199900000000001
DataValue, -3.0000000000000004E-07, 10.349860000000001
DataValue, 0, 10.50008
DataValue, -3.0000000000000004E-07, 10.649880000000001
DataValue, 2.0000000000000002E-07, 10.79992
DataValue, -5.0000000000000008E-07, 10.950000000000001
DataValue, -7.0000000000000007E-07, 11.100060000000001
DataValue, -4.0000000000000003E-07, 11.2499
DataValue, -1.0000000000000001E-07, 11.40004
DataValue, -1.0000000000000001E-07, 11.550040000000001
DataValue, 4.0000000000000003E-07, 11.699980000000002
DataValue, -5.0000000000000008E-07, 11.85008
DataValue, 0, 11.99998
DataValue, 2.0000000000000002E-07, 12.149980000000001
DataValue, 1.0000000000000001E-07, 12.3
DataValue, -2.0000000000000002E-07, 12.450140000000001
DataValue, -4.0000000000000003E-07, 12.59998
DataValue, -4.0000000000000003E-07, 12.750000000000002
DataValue, -9.0000000000000007E-07, 12.899980000000001
DataValue, -3.0000000000000004E-07, 13.050040000000001
DataValue, -5.0000000000000008E-07, 13.200000000000001
DataValue, -2.0000000000000002E-07, 13.349940000000002
DataValue, -8.0000000000000007E-07, 13.49994
DataValue, -1.0000000000000001E-07, 13.649980000000001
DataValue, -3.0000000000000004E-07, 13.800020000000002
DataValue, -4.0000000000000003E-07, 13.950080000000002
DataValue, -5.0000000000000008E-07, 14.099900000000002
DataValue, -2.0000000000000002E-07, 14.24998
DataValue, 2.0000000000000002E-07, 14.399960000000002
DataValue, -3.0000000000000004E-07, 14.550060000000002
DataValue, -2.0000000000000002E-07, 14.70006
DataValue, 2.0000000000000002E-07, 14.850000000000001
DataValue, 0, 14.999820000000002