
SetupTitle, ID-VGS
PrimitiveTest, Multi Channel I/V Sweep
TestParameter, Channel.UnitType, SMU, SMU
TestParameter, Channel.Unit, SMU2:MC, SMU3:UHC500
TestParameter, Channel.IName, IG, ID
TestParameter, Channel.VName, VGS, VDS
TestParameter, Channel.Mode, VPULSE, VPULSE
TestParameter, Channel.Func, VAR1, CONST
TestParameter, Channel.Index, 
TestParameter, Channel.Time, 
TestParameter, Measurement.Port.Unit, SMU2:MC, SMU3:UHC500
TestParameter, Measurement.Port.SeriesResistor, NONE, NONE
TestParameter, Measurement.Port.Filter, OFF, OFF
TestParameter, Measurement.Port.OutputVoltageComparison, 0, 0
TestParameter, Measurement.Primary.Start, 0
TestParameter, Measurement.Primary.Stop, 10
TestParameter, Measurement.Primary.Compliance, 0.099999999999999992
TestParameter, Measurement.Primary.PowerCompliance, 0
TestParameter, Measurement.Primary.Locus, Single
TestParameter, Measurement.Primary.Scale, LINEAR
TestParameter, Measurement.Primary.Count, 2001
TestParameter, Measurement.Aborting.Condition, CONTINUE AT ANY
TestParameter, Measurement.PostOutput.Value, START
TestParameter, Measurement.PostOutput.Retention, OFF
TestParameter, Measurement.Bias.Source, 0, 3
TestParameter, Measurement.Bias.Compliance, 0.099999999999999992, 5
TestParameter, Measurement.Pulse.Delay, 0, 9.9999999999999991E-05
TestParameter, Measurement.Pulse.Duration, 0.001, 4.9999999999999996E-05
TestParameter, Measurement.Pulse.Base, 0, 0
TestParameter, Measurement.Pulse.Period, 0
TestParameter, Measurement.Pulse.MeasurementDelay, 0
TestParameter, Measurement.Pulse.AveragingCount, 1
TestParameter, Measurement.Monitor.Unit, SMU2:MC, SMU3:UHC500
TestParameter, Measurement.Monitor.Adc, HS ADC, HS ADC
TestParameter, Measurement.Monitor.Measurement, Force and Compliance Sides, Force and Compliance Sides
TestParameter, Measurement.Timing.Hold, 0
TestParameter, Measurement.Timing.Delay, 0
TestParameter, Measurement.Adc.HighSpeed.Mode, TIME
TestParameter, Measurement.Adc.HighSpeed.Coeff, 9.9999999999999991E-06
TestParameter, Measurement.Adc.HighResolution.AutoZero, OFF
TestParameter, Measurement.Adc.HighResolution.Mode, AUTO
TestParameter, Measurement.Adc.HighResolution.Coeff, 6
TestParameter, Measurement.WaitTime.Source.Coeff, 1
TestParameter, Measurement.WaitTime.Source.Offset, 0
TestParameter, Measurement.WaitTime.Monitor.Coeff, 1
TestParameter, Measurement.WaitTime.Monitor.Offset, 0
TestParameter, Output.Graph.Enabled, true
TestParameter, Output.Graph.AutoScaling, false
TestParameter, Output.Graph.XAxis.Data, VGS
TestParameter, Output.Graph.XAxis.Scale, Linear
TestParameter, Output.Graph.XAxis.Left, -5.4
TestParameter, Output.Graph.XAxis.Right, 12.6
TestParameter, Output.Graph.XAxis.RunTimeAutoScale, false
TestParameter, Output.Graph.YAxis.Data, ID
TestParameter, Output.Graph.YAxis.Scale, Linear
TestParameter, Output.Graph.YAxis.Bottom, 0
TestParameter, Output.Graph.YAxis.Top, 10
TestParameter, Output.Graph.YAxis.Group, 
TestParameter, Output.Graph.YAxis.RunTimeAutoScale, false
TestParameter, Output.List.Data, VGS, ID
TestParameter, AutoAnalysis.Interpolation, false
TestParameter, AutoAnalysis.Line1.Enabled, false
TestParameter, AutoAnalysis.Line1.Type, 1
TestParameter, AutoAnalysis.Line1.Fix, True
TestParameter, AutoAnalysis.Line1.YAxis, 0
TestParameter, AutoAnalysis.Line1.Point1.Type, 0
TestParameter, AutoAnalysis.Line1.Point1.XY.X, 
TestParameter, AutoAnalysis.Line1.Point1.XY.Y, 
TestParameter, AutoAnalysis.Line1.Point1.Data.Var, 
TestParameter, AutoAnalysis.Line1.Point1.Data.Condition, 
TestParameter, AutoAnalysis.Line1.Point1.Data.Start, false
TestParameter, AutoAnalysis.Line1.Point1.Data.StartVar, 
TestParameter, AutoAnalysis.Line1.Point1.Data.StartCondition, 
TestParameter, AutoAnalysis.Line1.Point2.Type, 0
TestParameter, AutoAnalysis.Line1.Point2.XY.X, 
TestParameter, AutoAnalysis.Line1.Point2.XY.Y, 
TestParameter, AutoAnalysis.Line1.Point2.Data.Var, 
TestParameter, AutoAnalysis.Line1.Point2.Data.Condition, 
TestParameter, AutoAnalysis.Line1.Point2.Data.Start, false
TestParameter, AutoAnalysis.Line1.Point2.Data.StartVar, 
TestParameter, AutoAnalysis.Line1.Point2.Data.StartCondition, 
TestParameter, AutoAnalysis.Line1.GradientExpr, 0
TestParameter, AutoAnalysis.Line2.Enabled, false
TestParameter, AutoAnalysis.Line2.Type, 1
TestParameter, AutoAnalysis.Line2.Fix, True
TestParameter, AutoAnalysis.Line2.YAxis, 0
TestParameter, AutoAnalysis.Line2.Point1.Type, 0
TestParameter, AutoAnalysis.Line2.Point1.XY.X, 
TestParameter, AutoAnalysis.Line2.Point1.XY.Y, 
TestParameter, AutoAnalysis.Line2.Point1.Data.Var, 
TestParameter, AutoAnalysis.Line2.Point1.Data.Condition, 
TestParameter, AutoAnalysis.Line2.Point1.Data.Start, false
TestParameter, AutoAnalysis.Line2.Point1.Data.StartVar, 
TestParameter, AutoAnalysis.Line2.Point1.Data.StartCondition, 
TestParameter, AutoAnalysis.Line2.Point2.Type, 0
TestParameter, AutoAnalysis.Line2.Point2.XY.X, 
TestParameter, AutoAnalysis.Line2.Point2.XY.Y, 
TestParameter, AutoAnalysis.Line2.Point2.Data.Var, 
TestParameter, AutoAnalysis.Line2.Point2.Data.Condition, 
TestParameter, AutoAnalysis.Line2.Point2.Data.Start, false
TestParameter, AutoAnalysis.Line2.Point2.Data.StartVar, 
TestParameter, AutoAnalysis.Line2.Point2.Data.StartCondition, 
TestParameter, AutoAnalysis.Line2.GradientExpr, 0
TestParameter, AutoAnalysis.Marker.Enabled, false
TestParameter, AutoAnalysis.Marker.Data.Var, 
TestParameter, AutoAnalysis.Marker.Data.Condition, 
TestParameter, AutoAnalysis.Marker.Data.Start, false
TestParameter, AutoAnalysis.Marker.Data.StartVar, 
TestParameter, AutoAnalysis.Marker.Data.StartCondition, 
MetaData, TestRecord.EntryPoint, true
MetaData, TestRecord.RecordTime, 04/20/2021 10:10:20
MetaData, TestRecord.TestTarget, 
MetaData, TestRecord.IterationIndex, 1
MetaData, TestRecord.Preservation, true
MetaData, TestRecord.Flag, 
MetaData, TestRecord.Remarks, 
MetaData, TestRecord.LinkKey, e7c9228a-b002-445c-8250-66d62814d3b3
Dimension1, 2001, 2001
Dimension2, 1, 1
DataName, VGS, ID
DataValue, 0.00046, 0.0005
DataValue, 0.0045000000000000005, -0.0065000000000000006
DataValue, 0.00966, -0.0155
DataValue, 0.01476, -0.003
DataValue, 0.01966, 0.0075
DataValue, 0.024960000000000003, -0.0105
DataValue, 0.02994, -0.018000000000000002
DataValue, 0.03484, 0.001
DataValue, 0.039900000000000005, 0.0085
DataValue, 0.04438, -0.0095
DataValue, 0.049940000000000005, -0.003
DataValue, 0.054840000000000007, 0.0095
DataValue, 0.059760000000000008, -0.006
DataValue, 0.06454, -0.01
DataValue, 0.07042000000000001, 0.0085
DataValue, 0.07542, -0.0075
DataValue, 0.08018, -0.0145
DataValue, 0.08418, 0.006
DataValue, 0.08994, 0.0095
DataValue, 0.09442, -0.007
DataValue, 0.099700000000000011, 0.0045000000000000005
DataValue, 0.10478000000000001, 0.003
DataValue, 0.11062000000000001, -0.0045000000000000005
DataValue, 0.11524000000000001, -0.0145
DataValue, 0.11984000000000002, 0.013000000000000001
DataValue, 0.12490000000000001, -0.002
DataValue, 0.12978, -0.0045000000000000005
DataValue, 0.1351, 0.0065000000000000006
DataValue, 0.14012000000000002, -0.003
DataValue, 0.14468, -0.002
DataValue, 0.15018, -0.002
DataValue, 0.15544000000000002, 0.008
DataValue, 0.15982000000000002, -0.0075
DataValue, 0.16532000000000002, -0.0095
DataValue, 0.17004000000000002, 0.013000000000000001
DataValue, 0.17502, -0.012
DataValue, 0.18032, -0.0145
DataValue, 0.18562, 0.012
DataValue, 0.18958000000000003, 0.006
DataValue, 0.19486, -0.0135
DataValue, 0.20022, -0.0005
DataValue, 0.20536000000000002, -0.007
DataValue, 0.20920000000000003, -0.0235
DataValue, 0.2151, -0.001
DataValue, 0.22034, 0.0035
DataValue, 0.22508000000000003, -0.006
DataValue, 0.23010000000000003, -0.024
DataValue, 0.23456000000000002, -0.003
DataValue, 0.23970000000000002, 0.0055
DataValue, 0.2451, -0.0205
DataValue, 0.2503, 0.0115
DataValue, 0.25444, 0.0035
DataValue, 0.25980000000000003, 0.008
DataValue, 0.26446000000000003, -0.003
DataValue, 0.27008000000000004, 0.01
DataValue, 0.27456, -0.0095
DataValue, 0.28062000000000004, -0.021
DataValue, 0.28444, 0.007
DataValue, 0.29052, 0.0065000000000000006
DataValue, 0.29506000000000004, -0.0195
DataValue, 0.3002, -0.004
DataValue, 0.3053, 0.006
DataValue, 0.31020000000000003, -0.017
DataValue, 0.3144, -0.013000000000000001
DataValue, 0.32008000000000003, 0.0005
DataValue, 0.325, 0.0055
DataValue, 0.33, -0.0035
DataValue, 0.33504, -0.0005
DataValue, 0.34014000000000005, 0.003
DataValue, 0.34506000000000003, 0.0045000000000000005
DataValue, 0.35016, -0.0090000000000000011
DataValue, 0.35524000000000006, 0.0185
DataValue, 0.35982000000000003, 0.018000000000000002
DataValue, 0.36556000000000005, -0.004
DataValue, 0.37012, -0.0005
DataValue, 0.37458, 0.001
DataValue, 0.37976000000000004, -0.004
DataValue, 0.38416000000000006, -0.016
DataValue, 0.3894, -0.001
DataValue, 0.39516, 0.002
DataValue, 0.4, -0.003
DataValue, 0.405, 0.0035
DataValue, 0.41022000000000003, 0.021500000000000002
DataValue, 0.41474000000000005, 0.002
DataValue, 0.42052000000000006, -0.018000000000000002
DataValue, 0.42476, -0.0025
DataValue, 0.42998000000000003, -0.001
DataValue, 0.43586, -0.016
DataValue, 0.4394, -0.003
DataValue, 0.44452, 0.017
DataValue, 0.44998000000000005, -0.021
DataValue, 0.45512, -0.0235
DataValue, 0.45974000000000004, 0.01
DataValue, 0.46530000000000005, 0.0145
DataValue, 0.47024000000000005, -0.016
DataValue, 0.47498, -0.015
DataValue, 0.47962000000000005, 0.01
DataValue, 0.48542, 0.0145
DataValue, 0.49032000000000003, -0.0035
DataValue, 0.49486, -0.004
DataValue, 0.50078, 0.0075
DataValue, 0.50518000000000007, 0.0035
DataValue, 0.50976, -0.0005
DataValue, 0.51504, -0.005
DataValue, 0.52006000000000008, -0.0015
DataValue, 0.52478, -0.0015
DataValue, 0.52988, -0.0075
DataValue, 0.53460000000000008, -0.003
DataValue, 0.53974, 0.005
DataValue, 0.54494000000000009, 0.005
DataValue, 0.5497200000000001, -0.015
DataValue, 0.55572, 0.006
DataValue, 0.5603, 0.01
DataValue, 0.56506, -0.0175
DataValue, 0.57078000000000007, -0.0005
DataValue, 0.57474, 0.0145
DataValue, 0.57974, -0.002
DataValue, 0.5846, -0.0135
DataValue, 0.59020000000000006, -0.0085
DataValue, 0.5954, 0.001
DataValue, 0.6006, -0.0045000000000000005
DataValue, 0.60486000000000006, -0.0090000000000000011
DataValue, 0.60964000000000007, 0.0155
DataValue, 0.6147800000000001, -0.0035
DataValue, 0.61920000000000008, -0.014
DataValue, 0.62484000000000006, -0.0025
DataValue, 0.63086000000000009, 0.0105
DataValue, 0.63512, 0.006
DataValue, 0.64016000000000006, -0.013000000000000001
DataValue, 0.64498, -0.0075
DataValue, 0.64968, 0.0175
DataValue, 0.6548, 0.0055
DataValue, 0.65968, -0.008
DataValue, 0.66504000000000008, 0.0035
DataValue, 0.66972000000000009, 0.012
DataValue, 0.67544, -0.0045000000000000005
DataValue, 0.67984000000000011, -0.006
DataValue, 0.68464, 0.016
DataValue, 0.6902600000000001, 0.0145
DataValue, 0.69458000000000009, -0.0145
DataValue, 0.69956000000000007, -0.005
DataValue, 0.70478000000000007, 0.0115
DataValue, 0.70946000000000009, 0.013000000000000001
DataValue, 0.7145, -0.03
DataValue, 0.72038, -0.01
DataValue, 0.72472, 0.0145
DataValue, 0.73022000000000009, 0.005
DataValue, 0.73464000000000007, -0.0155
DataValue, 0.74048, 0.008
DataValue, 0.74474000000000007, 0.0055
DataValue, 0.74996000000000007, 0
DataValue, 0.75522000000000011, -0.0135
DataValue, 0.76052000000000008, 0.0015
DataValue, 0.7649, 0.007
DataValue, 0.76982000000000006, -0.012
DataValue, 0.7748, 0.0015
DataValue, 0.77994000000000008, 0.0135
DataValue, 0.78438000000000008, 0.012
DataValue, 0.79048000000000007, -0.015
DataValue, 0.79468, -0.0135
DataValue, 0.80008, 0.0065000000000000006
DataValue, 0.80570000000000008, -0.0105
DataValue, 0.80990000000000006, -0.002
DataValue, 0.81542, -0.003
DataValue, 0.81974, 0.005
DataValue, 0.8249200000000001, -0.025500000000000002
DataValue, 0.82974, -0.002
DataValue, 0.83548000000000011, 0.015
DataValue, 0.84084, -0.0090000000000000011
DataValue, 0.8454, -0.0145
DataValue, 0.8501200000000001, 0.005
DataValue, 0.85464000000000007, 0.008
DataValue, 0.8605600000000001, -0.0045000000000000005
DataValue, 0.86532000000000009, -0.013000000000000001
DataValue, 0.87026, -0.0035
DataValue, 0.8751000000000001, 0.012
DataValue, 0.88026, -0.008
DataValue, 0.88552000000000008, -0.0205
DataValue, 0.88926, 0.0075
DataValue, 0.89516000000000007, 0.0005
DataValue, 0.90004000000000006, -0.006
DataValue, 0.90492000000000006, -0.0025
DataValue, 0.90952000000000011, 0.004
DataValue, 0.91436000000000006, -0.011
DataValue, 0.9201, -0.003
DataValue, 0.92522, 0.008
DataValue, 0.93030000000000013, 0.0115
DataValue, 0.93498, -0.0095
DataValue, 0.94024000000000008, 0.004
DataValue, 0.9450400000000001, 0.027
DataValue, 0.94966000000000006, -0.0025
DataValue, 0.95504000000000011, -0.017
DataValue, 0.96012000000000008, 0.004
DataValue, 0.96486, -0.0035
DataValue, 0.97056000000000009, -0.0065000000000000006
DataValue, 0.97478000000000009, -0.017
DataValue, 0.9799000000000001, 0.0055
DataValue, 0.98468000000000011, 0.001
DataValue, 0.99012000000000011, -0.0175
DataValue, 0.99506000000000006, -0.0095
DataValue, 1, 0.003
DataValue, 1.00526, -0.005
DataValue, 1.00966, -0.0155
DataValue, 1.01462, -0.021500000000000002
DataValue, 1.01994, 0.0085
DataValue, 1.0250400000000002, 0.003
DataValue, 1.0298, -0.0035
DataValue, 1.0348600000000001, -0.0045000000000000005
DataValue, 1.0400800000000001, 0.0145
DataValue, 1.04496, 0.013000000000000001
DataValue, 1.05064, -0.013000000000000001
DataValue, 1.05482, 0.004
DataValue, 1.05996, 0.016
DataValue, 1.06512, -0.0125
DataValue, 1.06976, 0.001
DataValue, 1.07494, 0.0095
DataValue, 1.0805, 0.004
DataValue, 1.0850000000000002, 0.003
DataValue, 1.09054, -0.007
DataValue, 1.09478, -0.0090000000000000011
DataValue, 1.1, 0
DataValue, 1.1045800000000001, 0.0105
DataValue, 1.1104800000000001, -0.001
DataValue, 1.1143200000000002, -0.003
DataValue, 1.11996, 0.002
DataValue, 1.12494, 0.0085
DataValue, 1.13032, 0
DataValue, 1.13508, -0.003
DataValue, 1.13944, -0.0045000000000000005
DataValue, 1.14508, 0.008
DataValue, 1.14996, 0.0090000000000000011
DataValue, 1.15496, -0.0035
DataValue, 1.15978, -0.001
DataValue, 1.16518, 0.0175
DataValue, 1.1702400000000002, 0.025
DataValue, 1.17476, -0.01
DataValue, 1.18028, -0.007
DataValue, 1.1849800000000001, -0.004
DataValue, 1.18974, 0.0105
DataValue, 1.19564, -0.0045000000000000005
DataValue, 1.20076, -0.012
DataValue, 1.20486, 0.0135
DataValue, 1.21022, 0.0135
DataValue, 1.2152200000000002, 0.02
DataValue, 1.2195600000000002, -0.0135
DataValue, 1.22496, 0.0085
DataValue, 1.23028, 0.011
DataValue, 1.23506, 0.0095
DataValue, 1.24056, -0.0045000000000000005
DataValue, 1.245, -0.004
DataValue, 1.25022, -0.005
DataValue, 1.2543600000000001, 0.0165
DataValue, 1.2600200000000001, 0.019
DataValue, 1.2645600000000001, 0.0035
DataValue, 1.2702200000000001, -0.016
DataValue, 1.2750400000000002, 0.006
DataValue, 1.2795400000000001, -0.0035
DataValue, 1.2848400000000002, 0.002
DataValue, 1.2900800000000001, 0.0005
DataValue, 1.29518, 0.0135
DataValue, 1.3003200000000001, 0.0015
DataValue, 1.3048000000000002, -0.0055
DataValue, 1.3100200000000002, 0.003
DataValue, 1.31516, 0.004
DataValue, 1.31952, -0.001
DataValue, 1.32482, 0.003
DataValue, 1.32982, -0.0185
DataValue, 1.3347000000000002, -0.0045000000000000005
DataValue, 1.3396000000000001, 0.02
DataValue, 1.3444200000000002, 0.0185
DataValue, 1.3493000000000002, -0.0015
DataValue, 1.35524, -0.0095
DataValue, 1.3607200000000002, -0.0015
DataValue, 1.3646600000000002, 0.002
DataValue, 1.3698800000000002, -0.01
DataValue, 1.3750000000000002, -0.006
DataValue, 1.3802, 0.004
DataValue, 1.3854600000000001, 0.0265
DataValue, 1.3899000000000001, 0.007
DataValue, 1.3951600000000002, -0.003
DataValue, 1.4001800000000002, 0.014
DataValue, 1.4046200000000002, 0.016
DataValue, 1.40996, -0.004
DataValue, 1.4152600000000002, -0.007
DataValue, 1.4201000000000001, 0.0115
DataValue, 1.4254000000000002, 0.019
DataValue, 1.4303000000000001, 0.0125
DataValue, 1.43548, 0.0125
DataValue, 1.4402000000000002, -0.012
DataValue, 1.4444800000000002, 0.005
DataValue, 1.45046, 0.0165
DataValue, 1.4553, 0.029
DataValue, 1.4599600000000002, -0.004
DataValue, 1.4645800000000002, 0.005
DataValue, 1.47022, 0.025500000000000002
DataValue, 1.4750200000000002, 0.0165
DataValue, 1.47988, 0.018000000000000002
DataValue, 1.48492, -0.001
DataValue, 1.4899600000000002, 0.0175
DataValue, 1.49462, 0.014
DataValue, 1.50038, 0.018000000000000002
DataValue, 1.50476, 0.0065000000000000006
DataValue, 1.5103000000000002, 0.0175
DataValue, 1.5152800000000002, 0.016
DataValue, 1.51936, 0.034
DataValue, 1.5246000000000002, 0.0195
DataValue, 1.5298800000000001, 0.015
DataValue, 1.53506, 0.0175
DataValue, 1.54, 0.0135
DataValue, 1.5452800000000002, 0.0135
DataValue, 1.5507400000000002, 0.0095
DataValue, 1.5549400000000002, 0.0090000000000000011
DataValue, 1.5601200000000002, -0.005
DataValue, 1.5649400000000002, 0.025500000000000002
DataValue, 1.57, 0.041
DataValue, 1.5747000000000002, 0.012
DataValue, 1.5796400000000002, 0.016
DataValue, 1.5845600000000002, 0.0125
DataValue, 1.5898800000000002, 0.0235
DataValue, 1.5948000000000002, 0.022
DataValue, 1.59976, 0.024
DataValue, 1.6048000000000002, 0.0165
DataValue, 1.6103200000000002, 0.0095
DataValue, 1.6147600000000002, 0.0345
DataValue, 1.6195000000000002, 0.0365
DataValue, 1.6244800000000002, 0.0265
DataValue, 1.6298800000000002, 0.0055
DataValue, 1.63504, 0.007
DataValue, 1.6397800000000002, 0.0205
DataValue, 1.6446, 0.022
DataValue, 1.6494600000000002, 0.0265
DataValue, 1.6553600000000002, 0.029500000000000002
DataValue, 1.6603, 0.016
DataValue, 1.6645, 0.031
DataValue, 1.6700800000000002, 0.044
DataValue, 1.67538, 0.03
DataValue, 1.6796000000000002, 0.035
DataValue, 1.6850600000000002, 0.021
DataValue, 1.6906200000000002, 0.0305
DataValue, 1.6948400000000001, 0.0265
DataValue, 1.7003400000000002, 0.0485
DataValue, 1.70486, 0.0415
DataValue, 1.7099600000000002, 0.029500000000000002
DataValue, 1.7146400000000002, 0.0265
DataValue, 1.7199000000000002, 0.0395
DataValue, 1.7248, 0.0445
DataValue, 1.72994, 0.039
DataValue, 1.7346800000000002, 0.024
DataValue, 1.73984, 0.035500000000000004
DataValue, 1.7457600000000002, 0.0375
DataValue, 1.7504000000000002, 0.035500000000000004
DataValue, 1.7546400000000002, 0.046
DataValue, 1.7597200000000002, 0.0325
DataValue, 1.7649400000000002, 0.022
DataValue, 1.7698, 0.043000000000000003
DataValue, 1.7745600000000001, 0.054
DataValue, 1.7802000000000002, 0.043500000000000004
DataValue, 1.78458, 0.043500000000000004
DataValue, 1.7897600000000002, 0.035500000000000004
DataValue, 1.7949000000000002, 0.05
DataValue, 1.8006400000000002, 0.058
DataValue, 1.8049600000000001, 0.044
DataValue, 1.8104000000000002, 0.042
DataValue, 1.81488, 0.041
DataValue, 1.81976, 0.057
DataValue, 1.8246000000000002, 0.0685
DataValue, 1.83024, 0.0615
DataValue, 1.8348000000000002, 0.045
DataValue, 1.84024, 0.0745
DataValue, 1.84468, 0.0735
DataValue, 1.85054, 0.063
DataValue, 1.85444, 0.0525
DataValue, 1.86074, 0.055
DataValue, 1.8650400000000003, 0.0615
DataValue, 1.87016, 0.07
DataValue, 1.8747800000000001, 0.0685
DataValue, 1.87986, 0.058
DataValue, 1.8856000000000002, 0.0545
DataValue, 1.8900200000000003, 0.0575
DataValue, 1.8952600000000002, 0.0745
DataValue, 1.8995400000000002, 0.0605
DataValue, 1.90484, 0.0565
DataValue, 1.9103800000000002, 0.058
DataValue, 1.91524, 0.0765
DataValue, 1.9197800000000003, 0.065
DataValue, 1.9245200000000002, 0.0845
DataValue, 1.9297000000000002, 0.062
