
SetupTitle, ID-VDS-3rd
PrimitiveTest, Multi Channel I/V Sweep
TestParameter, Channel.UnitType, SMU, SMU
TestParameter, Channel.Unit, SMU2:MC, SMU3:UHC500
TestParameter, Channel.IName, IG, ID
TestParameter, Channel.VName, VGS, VDS
TestParameter, Channel.Mode, VPULSE, VPULSE
TestParameter, Channel.Func, VAR2, VAR1
TestParameter, Channel.Index, 
TestParameter, Channel.Time, 
TestParameter, Measurement.Port.Unit, SMU2:MC, SMU3:UHC500
TestParameter, Measurement.Port.SeriesResistor, NONE, NONE
TestParameter, Measurement.Port.Filter, OFF, OFF
TestParameter, Measurement.Port.OutputVoltageComparison, 0, 0
TestParameter, Measurement.Primary.Start, -5
TestParameter, Measurement.Primary.Stop, 0
TestParameter, Measurement.Primary.Compliance, 10
TestParameter, Measurement.Primary.PowerCompliance, 0
TestParameter, Measurement.Primary.Locus, Single
TestParameter, Measurement.Primary.Scale, LINEAR
TestParameter, Measurement.Primary.Count, 21
TestParameter, Measurement.Aborting.Condition, CONTINUE AT ANY
TestParameter, Measurement.PostOutput.Value, START
TestParameter, Measurement.PostOutput.Retention, OFF
TestParameter, Measurement.Secondary.Start, 15.000000000000002
TestParameter, Measurement.Secondary.Count, 5
TestParameter, Measurement.Secondary.Step, 1.25
TestParameter, Measurement.Secondary.Compliance, 0.099999999999999992
TestParameter, Measurement.Secondary.PowerCompliance, 0
TestParameter, Measurement.Bias.Source, 0, 0
TestParameter, Measurement.Bias.Compliance, 0.099999999999999992, 0
TestParameter, Measurement.Pulse.Delay, 0, 9.9999999999999991E-05
TestParameter, Measurement.Pulse.Duration, 0.001, 0.00019999999999999998
TestParameter, Measurement.Pulse.Base, 0, 0
TestParameter, Measurement.Pulse.Period, 0
TestParameter, Measurement.Pulse.MeasurementDelay, 0
TestParameter, Measurement.Pulse.AveragingCount, 1
TestParameter, Measurement.Monitor.Unit, SMU2:MC, SMU3:UHC500
TestParameter, Measurement.Monitor.Adc, HS ADC, HS ADC
TestParameter, Measurement.Monitor.Measurement, Force and Compliance Sides, Force and Compliance Sides
TestParameter, Measurement.Timing.Hold, 0
TestParameter, Measurement.Timing.Delay, 0
TestParameter, Measurement.Adc.HighSpeed.Mode, TIME
TestParameter, Measurement.Adc.HighSpeed.Coeff, 9.9999999999999991E-06
TestParameter, Measurement.Adc.HighResolution.AutoZero, OFF
TestParameter, Measurement.Adc.HighResolution.Mode, AUTO
TestParameter, Measurement.Adc.HighResolution.Coeff, 6
TestParameter, Measurement.WaitTime.Source.Coeff, 1
TestParameter, Measurement.WaitTime.Source.Offset, 0
TestParameter, Measurement.WaitTime.Monitor.Coeff, 1
TestParameter, Measurement.WaitTime.Monitor.Offset, 0
TestParameter, Output.Graph.Enabled, true
TestParameter, Output.Graph.AutoScaling, false
TestParameter, Output.Graph.XAxis.Data, VDS
TestParameter, Output.Graph.XAxis.Scale, Linear
TestParameter, Output.Graph.XAxis.Left, -4.8
TestParameter, Output.Graph.XAxis.Right, 1.2
TestParameter, Output.Graph.XAxis.RunTimeAutoScale, false
TestParameter, Output.Graph.YAxis.Data, ID
TestParameter, Output.Graph.YAxis.Scale, Linear
TestParameter, Output.Graph.YAxis.Bottom, -15
TestParameter, Output.Graph.YAxis.Top, 1
TestParameter, Output.Graph.YAxis.Group, 
TestParameter, Output.Graph.YAxis.RunTimeAutoScale, false
TestParameter, Output.List.Data, VDS, ID
TestParameter, AutoAnalysis.Interpolation, false
TestParameter, AutoAnalysis.Line1.Enabled, false
TestParameter, AutoAnalysis.Line1.Type, 1
TestParameter, AutoAnalysis.Line1.Fix, True
TestParameter, AutoAnalysis.Line1.YAxis, 0
TestParameter, AutoAnalysis.Line1.Point1.Type, 0
TestParameter, AutoAnalysis.Line1.Point1.XY.X, 
TestParameter, AutoAnalysis.Line1.Point1.XY.Y, 
TestParameter, AutoAnalysis.Line1.Point1.Data.Var, 
TestParameter, AutoAnalysis.Line1.Point1.Data.Condition, 
TestParameter, AutoAnalysis.Line1.Point1.Data.Start, false
TestParameter, AutoAnalysis.Line1.Point1.Data.StartVar, 
TestParameter, AutoAnalysis.Line1.Point1.Data.StartCondition, 
TestParameter, AutoAnalysis.Line1.Point2.Type, 0
TestParameter, AutoAnalysis.Line1.Point2.XY.X, 
TestParameter, AutoAnalysis.Line1.Point2.XY.Y, 
TestParameter, AutoAnalysis.Line1.Point2.Data.Var, 
TestParameter, AutoAnalysis.Line1.Point2.Data.Condition, 
TestParameter, AutoAnalysis.Line1.Point2.Data.Start, false
TestParameter, AutoAnalysis.Line1.Point2.Data.StartVar, 
TestParameter, AutoAnalysis.Line1.Point2.Data.StartCondition, 
TestParameter, AutoAnalysis.Line1.GradientExpr, 0
TestParameter, AutoAnalysis.Line2.Enabled, false
TestParameter, AutoAnalysis.Line2.Type, 1
TestParameter, AutoAnalysis.Line2.Fix, True
TestParameter, AutoAnalysis.Line2.YAxis, 0
TestParameter, AutoAnalysis.Line2.Point1.Type, 0
TestParameter, AutoAnalysis.Line2.Point1.XY.X, 
TestParameter, AutoAnalysis.Line2.Point1.XY.Y, 
TestParameter, AutoAnalysis.Line2.Point1.Data.Var, 
TestParameter, AutoAnalysis.Line2.Point1.Data.Condition, 
TestParameter, AutoAnalysis.Line2.Point1.Data.Start, false
TestParameter, AutoAnalysis.Line2.Point1.Data.StartVar, 
TestParameter, AutoAnalysis.Line2.Point1.Data.StartCondition, 
TestParameter, AutoAnalysis.Line2.Point2.Type, 0
TestParameter, AutoAnalysis.Line2.Point2.XY.X, 
TestParameter, AutoAnalysis.Line2.Point2.XY.Y, 
TestParameter, AutoAnalysis.Line2.Point2.Data.Var, 
TestParameter, AutoAnalysis.Line2.Point2.Data.Condition, 
TestParameter, AutoAnalysis.Line2.Point2.Data.Start, false
TestParameter, AutoAnalysis.Line2.Point2.Data.StartVar, 
TestParameter, AutoAnalysis.Line2.Point2.Data.StartCondition, 
TestParameter, AutoAnalysis.Line2.GradientExpr, 0
TestParameter, AutoAnalysis.Marker.Enabled, false
TestParameter, AutoAnalysis.Marker.Data.Var, 
TestParameter, AutoAnalysis.Marker.Data.Condition, 
TestParameter, AutoAnalysis.Marker.Data.Start, false
TestParameter, AutoAnalysis.Marker.Data.StartVar, 
TestParameter, AutoAnalysis.Marker.Data.StartCondition, 
MetaData, TestRecord.EntryPoint, true
MetaData, TestRecord.RecordTime, 04/17/2021 12:11:10
MetaData, TestRecord.TestTarget, 
MetaData, TestRecord.IterationIndex, 1
MetaData, TestRecord.Preservation, true
MetaData, TestRecord.Flag, 
MetaData, TestRecord.Remarks, 
MetaData, TestRecord.LinkKey, 817af0f7-0c60-41d1-892f-bf4e90c7b281
Dimension1, 21, 21
Dimension2, 5, 5
DataName, ID, VDS
DataValue, -16.966, -1.0154
DataValue, -16.108, -0.96400000000000008
DataValue, -15.2695, -0.91570000000000007
DataValue, -14.4215, -0.86710000000000009
DataValue, -13.576500000000001, -0.8161
DataValue, -12.718, -0.7668
DataValue, -11.8565, -0.7166
DataValue, -11.002, -0.6673
DataValue, -10.1525, -0.616
DataValue, -9.3175, -0.5662
DataValue, -8.445, -0.51350000000000007
DataValue, -7.604, -0.4636
DataValue, -6.7565, -0.41240000000000004
DataValue, -5.9105, -0.36110000000000003
DataValue, -5.0495, -0.3094
DataValue, -4.182, -0.2591
DataValue, -3.3635, -0.2061
DataValue, -2.5020000000000002, -0.156
DataValue, -1.6465, -0.1023
DataValue, -0.8105, -0.0509
DataValue, 0.0090000000000000011, 0.0016
DataValue, -17.1205, -0.9878
DataValue, -16.2495, -0.9371
DataValue, -15.395, -0.8887
DataValue, -14.5325, -0.84010000000000007
DataValue, -13.6435, -0.79180000000000006
DataValue, -12.8015, -0.7427
DataValue, -11.932500000000001, -0.69180000000000008
DataValue, -11.093, -0.6453
DataValue, -10.237, -0.5967
DataValue, -9.3795, -0.5475
DataValue, -8.522, -0.49810000000000004
DataValue, -7.662, -0.44930000000000003
DataValue, -6.8085, -0.39990000000000003
DataValue, -5.968, -0.3496
DataValue, -5.0935, -0.3008
DataValue, -4.236, -0.24960000000000002
DataValue, -3.4050000000000002, -0.1993
DataValue, -2.5540000000000003, -0.1495
DataValue, -1.6875, -0.0979
DataValue, -0.839, -0.051000000000000004
DataValue, 0.0105, 0.0022
DataValue, -17.214, -0.96410000000000007
DataValue, -16.3375, -0.9161
DataValue, -15.5035, -0.8678
DataValue, -14.6335, -0.8224
DataValue, -13.756, -0.7749
DataValue, -12.893, -0.7246
DataValue, -12.0055, -0.6766
DataValue, -11.162, -0.6297
DataValue, -10.3135, -0.5815
DataValue, -9.4385, -0.5339
DataValue, -8.573500000000001, -0.4854
DataValue, -7.706, -0.4383
DataValue, -6.851, -0.3894
DataValue, -6.008, -0.3398
DataValue, -5.14, -0.2908
DataValue, -4.264, -0.2432
DataValue, -3.4005, -0.1942
DataValue, -2.559, -0.1459
DataValue, -1.709, -0.0961
DataValue, -0.803, -0.0459
DataValue, 0.0155, 0.0013000000000000002
DataValue, -17.286, -0.9426
DataValue, -16.4195, -0.899
DataValue, -15.5505, -0.8506
DataValue, -14.6905, -0.80370000000000008
DataValue, -13.817, -0.75830000000000009
DataValue, -12.977500000000001, -0.7087
DataValue, -12.082, -0.6639
DataValue, -11.2065, -0.617
DataValue, -10.367, -0.5696
DataValue, -9.4955, -0.522
DataValue, -8.6365, -0.4738
DataValue, -7.743, -0.4287
DataValue, -6.885, -0.3804
DataValue, -6.033, -0.3325
DataValue, -5.1705000000000005, -0.2847
DataValue, -4.2860000000000005, -0.2373
DataValue, -3.4395000000000002, -0.19060000000000002
DataValue, -2.571, -0.1418
DataValue, -1.677, -0.0946
DataValue, -0.846, -0.0459
DataValue, 0.017, 0.0026000000000000003
DataValue, -17.361, -0.9294
DataValue, -16.4955, -0.881
DataValue, -15.6135, -0.83700000000000008
DataValue, -14.759, -0.79050000000000009
DataValue, -13.884, -0.7437
DataValue, -13.028, -0.6985
DataValue, -12.1485, -0.6521
DataValue, -11.2655, -0.6058
DataValue, -10.3885, -0.5603
DataValue, -9.511000000000001, -0.5148
DataValue, -8.6355, -0.46680000000000005
DataValue, -7.7975, -0.41960000000000003
DataValue, -6.9350000000000005, -0.3739
DataValue, -6.0745000000000005, -0.3277
DataValue, -5.1755, -0.2807
DataValue, -4.3125, -0.2331
DataValue, -3.4290000000000003, -0.18660000000000002
DataValue, -2.5785, -0.13920000000000002
DataValue, -1.7195, -0.092
DataValue, -0.8545, -0.0458
DataValue, 0.052000000000000005, 0.0025