
SetupTitle, ID-VGS
PrimitiveTest, Multi Channel I/V Sweep
TestParameter, Channel.UnitType, SMU, SMU
TestParameter, Channel.Unit, SMU2:MC, SMU3:UHC500
TestParameter, Channel.IName, IG, ID
TestParameter, Channel.VName, VGS, VDS
TestParameter, Channel.Mode, VPULSE, VPULSE
TestParameter, Channel.Func, VAR1, CONST
TestParameter, Channel.Index, 
TestParameter, Channel.Time, 
TestParameter, Measurement.Port.Unit, SMU2:MC, SMU3:UHC500
TestParameter, Measurement.Port.SeriesResistor, NONE, NONE
TestParameter, Measurement.Port.Filter, OFF, OFF
TestParameter, Measurement.Port.OutputVoltageComparison, 0, 0
TestParameter, Measurement.Primary.Start, 0
TestParameter, Measurement.Primary.Stop, 10
TestParameter, Measurement.Primary.Compliance, 0.099999999999999992
TestParameter, Measurement.Primary.PowerCompliance, 0
TestParameter, Measurement.Primary.Locus, Single
TestParameter, Measurement.Primary.Scale, LINEAR
TestParameter, Measurement.Primary.Count, 2001
TestParameter, Measurement.Aborting.Condition, CONTINUE AT ANY
TestParameter, Measurement.PostOutput.Value, START
TestParameter, Measurement.PostOutput.Retention, OFF
TestParameter, Measurement.Bias.Source, 0, 3
TestParameter, Measurement.Bias.Compliance, 0.099999999999999992, 5
TestParameter, Measurement.Pulse.Delay, 0, 9.9999999999999991E-05
TestParameter, Measurement.Pulse.Duration, 0.001, 4.9999999999999996E-05
TestParameter, Measurement.Pulse.Base, 0, 0
TestParameter, Measurement.Pulse.Period, 0
TestParameter, Measurement.Pulse.MeasurementDelay, 0
TestParameter, Measurement.Pulse.AveragingCount, 1
TestParameter, Measurement.Monitor.Unit, SMU2:MC, SMU3:UHC500
TestParameter, Measurement.Monitor.Adc, HS ADC, HS ADC
TestParameter, Measurement.Monitor.Measurement, Force and Compliance Sides, Force and Compliance Sides
TestParameter, Measurement.Timing.Hold, 0
TestParameter, Measurement.Timing.Delay, 0
TestParameter, Measurement.Adc.HighSpeed.Mode, TIME
TestParameter, Measurement.Adc.HighSpeed.Coeff, 9.9999999999999991E-06
TestParameter, Measurement.Adc.HighResolution.AutoZero, OFF
TestParameter, Measurement.Adc.HighResolution.Mode, AUTO
TestParameter, Measurement.Adc.HighResolution.Coeff, 6
TestParameter, Measurement.WaitTime.Source.Coeff, 1
TestParameter, Measurement.WaitTime.Source.Offset, 0
TestParameter, Measurement.WaitTime.Monitor.Coeff, 1
TestParameter, Measurement.WaitTime.Monitor.Offset, 0
TestParameter, Output.Graph.Enabled, true
TestParameter, Output.Graph.AutoScaling, false
TestParameter, Output.Graph.XAxis.Data, VGS
TestParameter, Output.Graph.XAxis.Scale, Linear
TestParameter, Output.Graph.XAxis.Left, -5.4
TestParameter, Output.Graph.XAxis.Right, 12.6
TestParameter, Output.Graph.XAxis.RunTimeAutoScale, false
TestParameter, Output.Graph.YAxis.Data, ID
TestParameter, Output.Graph.YAxis.Scale, Linear
TestParameter, Output.Graph.YAxis.Bottom, 0
TestParameter, Output.Graph.YAxis.Top, 10
TestParameter, Output.Graph.YAxis.Group, 
TestParameter, Output.Graph.YAxis.RunTimeAutoScale, false
TestParameter, Output.List.Data, VGS, ID
TestParameter, AutoAnalysis.Interpolation, false
TestParameter, AutoAnalysis.Line1.Enabled, false
TestParameter, AutoAnalysis.Line1.Type, 1
TestParameter, AutoAnalysis.Line1.Fix, True
TestParameter, AutoAnalysis.Line1.YAxis, 0
TestParameter, AutoAnalysis.Line1.Point1.Type, 0
TestParameter, AutoAnalysis.Line1.Point1.XY.X, 
TestParameter, AutoAnalysis.Line1.Point1.XY.Y, 
TestParameter, AutoAnalysis.Line1.Point1.Data.Var, 
TestParameter, AutoAnalysis.Line1.Point1.Data.Condition, 
TestParameter, AutoAnalysis.Line1.Point1.Data.Start, false
TestParameter, AutoAnalysis.Line1.Point1.Data.StartVar, 
TestParameter, AutoAnalysis.Line1.Point1.Data.StartCondition, 
TestParameter, AutoAnalysis.Line1.Point2.Type, 0
TestParameter, AutoAnalysis.Line1.Point2.XY.X, 
TestParameter, AutoAnalysis.Line1.Point2.XY.Y, 
TestParameter, AutoAnalysis.Line1.Point2.Data.Var, 
TestParameter, AutoAnalysis.Line1.Point2.Data.Condition, 
TestParameter, AutoAnalysis.Line1.Point2.Data.Start, false
TestParameter, AutoAnalysis.Line1.Point2.Data.StartVar, 
TestParameter, AutoAnalysis.Line1.Point2.Data.StartCondition, 
TestParameter, AutoAnalysis.Line1.GradientExpr, 0
TestParameter, AutoAnalysis.Line2.Enabled, false
TestParameter, AutoAnalysis.Line2.Type, 1
TestParameter, AutoAnalysis.Line2.Fix, True
TestParameter, AutoAnalysis.Line2.YAxis, 0
TestParameter, AutoAnalysis.Line2.Point1.Type, 0
TestParameter, AutoAnalysis.Line2.Point1.XY.X, 
TestParameter, AutoAnalysis.Line2.Point1.XY.Y, 
TestParameter, AutoAnalysis.Line2.Point1.Data.Var, 
TestParameter, AutoAnalysis.Line2.Point1.Data.Condition, 
TestParameter, AutoAnalysis.Line2.Point1.Data.Start, false
TestParameter, AutoAnalysis.Line2.Point1.Data.StartVar, 
TestParameter, AutoAnalysis.Line2.Point1.Data.StartCondition, 
TestParameter, AutoAnalysis.Line2.Point2.Type, 0
TestParameter, AutoAnalysis.Line2.Point2.XY.X, 
TestParameter, AutoAnalysis.Line2.Point2.XY.Y, 
TestParameter, AutoAnalysis.Line2.Point2.Data.Var, 
TestParameter, AutoAnalysis.Line2.Point2.Data.Condition, 
TestParameter, AutoAnalysis.Line2.Point2.Data.Start, false
TestParameter, AutoAnalysis.Line2.Point2.Data.StartVar, 
TestParameter, AutoAnalysis.Line2.Point2.Data.StartCondition, 
TestParameter, AutoAnalysis.Line2.GradientExpr, 0
TestParameter, AutoAnalysis.Marker.Enabled, false
TestParameter, AutoAnalysis.Marker.Data.Var, 
TestParameter, AutoAnalysis.Marker.Data.Condition, 
TestParameter, AutoAnalysis.Marker.Data.Start, false
TestParameter, AutoAnalysis.Marker.Data.StartVar, 
TestParameter, AutoAnalysis.Marker.Data.StartCondition, 
MetaData, TestRecord.EntryPoint, true
MetaData, TestRecord.RecordTime, 04/17/2021 12:08:48
MetaData, TestRecord.TestTarget, 
MetaData, TestRecord.IterationIndex, 1
MetaData, TestRecord.Preservation, true
MetaData, TestRecord.Flag, 
MetaData, TestRecord.Remarks, 
MetaData, TestRecord.LinkKey, a9c9772d-c98b-41ce-8360-81e68d58728f
Dimension1, 2001, 2001
Dimension2, 1, 1
DataName, VGS, ID
DataValue, 8E-05, -0.027
DataValue, 0.00532, -0.032
DataValue, 0.01038, -0.024
DataValue, 0.01476, -0.0315
DataValue, 0.020120000000000002, -0.043000000000000003
DataValue, 0.02536, -0.0115
DataValue, 0.030920000000000003, -0.0265
DataValue, 0.03484, -0.026000000000000002
DataValue, 0.04048, -0.025
DataValue, 0.045640000000000007, -0.0415
DataValue, 0.049920000000000006, -0.0195
DataValue, 0.055260000000000004, -0.01
DataValue, 0.06024, -0.0385
DataValue, 0.064520000000000008, -0.014
DataValue, 0.06992000000000001, -0.026000000000000002
DataValue, 0.075320000000000012, -0.029
DataValue, 0.08018, -0.0205
DataValue, 0.085600000000000009, -0.035
DataValue, 0.08984, -0.038
DataValue, 0.095, -0.0115
DataValue, 0.10016000000000001, -0.039
DataValue, 0.10494, -0.012
DataValue, 0.10976000000000001, -0.0195
DataValue, 0.11532, -0.051000000000000004
DataValue, 0.11948, -0.019
DataValue, 0.12528, -0.015
DataValue, 0.13064, -0.0335
DataValue, 0.13518000000000002, -0.0195
DataValue, 0.14028000000000002, -0.01
DataValue, 0.14412, -0.026000000000000002
DataValue, 0.15028000000000003, -0.0205
DataValue, 0.15502000000000002, -0.0315
DataValue, 0.1602, -0.0305
DataValue, 0.16538000000000003, -0.023
DataValue, 0.17014, -0.0245
DataValue, 0.17486000000000002, -0.033
DataValue, 0.18074, -0.019
DataValue, 0.18496, -0.0265
DataValue, 0.19014, -0.0325
DataValue, 0.19494, -0.0205
DataValue, 0.20028, -0.032
DataValue, 0.20522, -0.0285
DataValue, 0.21018, -0.025500000000000002
DataValue, 0.21518, -0.0445
DataValue, 0.21996000000000002, -0.0425
DataValue, 0.22528, -0.0315
DataValue, 0.22970000000000002, -0.0375
DataValue, 0.23528000000000002, -0.0155
DataValue, 0.24008000000000002, -0.029
DataValue, 0.24542000000000003, -0.0235
DataValue, 0.24882, -0.016
DataValue, 0.25458000000000003, -0.0275
DataValue, 0.25986000000000004, -0.04
DataValue, 0.26486000000000004, -0.013000000000000001
DataValue, 0.27006, -0.047
DataValue, 0.27476, -0.031
DataValue, 0.28014, -0.015
DataValue, 0.28432, -0.035500000000000004
DataValue, 0.29058, -0.0325
DataValue, 0.29532, -0.008
DataValue, 0.30032000000000003, -0.029
DataValue, 0.30492, -0.043000000000000003
DataValue, 0.30970000000000003, -0.019
DataValue, 0.31460000000000005, -0.041
DataValue, 0.32060000000000005, -0.036000000000000004
DataValue, 0.32536000000000004, -0.031
DataValue, 0.33028, -0.0395
DataValue, 0.33480000000000004, -0.0315
DataValue, 0.33982, -0.017
DataValue, 0.34532, -0.04
DataValue, 0.34988, -0.0195
DataValue, 0.35474000000000006, -0.039
DataValue, 0.35994000000000004, -0.047
DataValue, 0.36528000000000005, -0.022
DataValue, 0.37008, -0.046
DataValue, 0.37442000000000003, -0.0365
DataValue, 0.37982000000000005, -0.028
DataValue, 0.38510000000000005, -0.028
DataValue, 0.38982000000000006, -0.0265
DataValue, 0.39498000000000005, -0.029
DataValue, 0.40004, -0.039
DataValue, 0.405, -0.032
DataValue, 0.41068000000000004, -0.023
DataValue, 0.41496000000000005, -0.022
DataValue, 0.41980000000000006, -0.0305
DataValue, 0.42490000000000006, -0.018000000000000002
DataValue, 0.4298, -0.025
DataValue, 0.43524, -0.0505
DataValue, 0.44032000000000004, -0.019
DataValue, 0.44548000000000004, -0.022
DataValue, 0.45002000000000003, -0.042
DataValue, 0.45460000000000006, -0.021
DataValue, 0.45980000000000004, -0.0315
DataValue, 0.46478, -0.039
DataValue, 0.47004, -0.029500000000000002
DataValue, 0.47562000000000004, -0.02
DataValue, 0.47962000000000005, -0.0315
DataValue, 0.48518000000000006, -0.041
DataValue, 0.49038000000000004, -0.012
DataValue, 0.49538000000000004, -0.035500000000000004
DataValue, 0.50040000000000007, -0.016
DataValue, 0.50554, -0.002
DataValue, 0.51034, -0.0415
DataValue, 0.51518000000000008, -0.0445
DataValue, 0.51958, -0.016
DataValue, 0.52512, -0.0225
DataValue, 0.5298, -0.0285
DataValue, 0.53528000000000009, -0.02
DataValue, 0.5400600000000001, -0.026000000000000002
DataValue, 0.5451, -0.043500000000000004
DataValue, 0.55032, -0.0245
DataValue, 0.5551600000000001, -0.0245
DataValue, 0.55966, -0.032
DataValue, 0.56498, -0.0235
DataValue, 0.57024000000000008, -0.031
DataValue, 0.5745, -0.0395
DataValue, 0.58038, -0.023
DataValue, 0.58490000000000009, -0.0185
DataValue, 0.58948, -0.025500000000000002
DataValue, 0.59476000000000007, -0.049
DataValue, 0.59932000000000007, -0.0175
DataValue, 0.6048, -0.025500000000000002
DataValue, 0.60948, -0.031
DataValue, 0.61456, -0.0265
DataValue, 0.61996000000000007, -0.0105
DataValue, 0.62586000000000008, -0.0325
DataValue, 0.62992, -0.023
DataValue, 0.6351, -0.0145
DataValue, 0.6398, -0.0395
DataValue, 0.64538000000000006, -0.025500000000000002
DataValue, 0.64946, -0.0085
DataValue, 0.6552, -0.053
DataValue, 0.6599600000000001, -0.03
DataValue, 0.66538000000000008, -0.0225
DataValue, 0.66964, -0.0425
DataValue, 0.6749, -0.0235
DataValue, 0.67992000000000008, -0.042
DataValue, 0.68526000000000009, -0.0345
DataValue, 0.68988, -0.01
DataValue, 0.69474, -0.0315
DataValue, 0.7002, -0.046
DataValue, 0.70480000000000009, -0.025500000000000002
DataValue, 0.71010000000000006, -0.032
DataValue, 0.71494, -0.031
DataValue, 0.7194, -0.0175
DataValue, 0.72498000000000007, -0.033
DataValue, 0.73000000000000009, -0.0345
DataValue, 0.73510000000000009, -0.019
DataValue, 0.74026, -0.0335
DataValue, 0.74484000000000006, -0.0245
DataValue, 0.74978000000000011, -0.02
DataValue, 0.75524, -0.0335
DataValue, 0.75946, -0.0165
DataValue, 0.76510000000000011, -0.0225
DataValue, 0.7694200000000001, -0.043000000000000003
DataValue, 0.77440000000000009, -0.0335
DataValue, 0.77984000000000009, -0.017
DataValue, 0.78544, -0.035500000000000004
DataValue, 0.79002000000000006, -0.02
DataValue, 0.79478, -0.03
DataValue, 0.79986, -0.043500000000000004
DataValue, 0.80492000000000008, -0.0285
DataValue, 0.8101, -0.021
DataValue, 0.81468000000000007, -0.043000000000000003
DataValue, 0.81996, -0.0225
DataValue, 0.82494000000000012, -0.017
DataValue, 0.8297000000000001, -0.035
DataValue, 0.83422000000000007, -0.016
DataValue, 0.83968000000000009, -0.0185
DataValue, 0.84578000000000009, -0.035
DataValue, 0.84956000000000009, -0.0315
DataValue, 0.85496, -0.0265
DataValue, 0.85992, -0.051000000000000004
DataValue, 0.86492, -0.0395
DataValue, 0.87000000000000011, -0.0285
DataValue, 0.87544000000000011, -0.045
DataValue, 0.88022000000000011, -0.0365
DataValue, 0.88550000000000006, -0.029500000000000002
DataValue, 0.89014, -0.038
DataValue, 0.89526000000000006, -0.0485
DataValue, 0.90056, -0.023
DataValue, 0.90446, -0.0245
DataValue, 0.9099600000000001, -0.034
DataValue, 0.91492000000000007, -0.0265
DataValue, 0.91986000000000012, -0.0005
DataValue, 0.92466, -0.034
DataValue, 0.9301600000000001, -0.0455
DataValue, 0.93518000000000012, -0.021500000000000002
DataValue, 0.94074000000000013, -0.043000000000000003
DataValue, 0.94452, -0.043000000000000003
DataValue, 0.94988000000000006, -0.016
DataValue, 0.95496, -0.021500000000000002
DataValue, 0.95978000000000008, -0.0545
DataValue, 0.96514000000000011, -0.0175
DataValue, 0.96980000000000011, -0.041
DataValue, 0.97484, -0.039
DataValue, 0.9803400000000001, -0.02
DataValue, 0.98530000000000006, -0.034
DataValue, 0.99130000000000007, -0.048
DataValue, 0.99486000000000008, -0.0275
DataValue, 0.99924000000000013, -0.0315
DataValue, 1.00418, -0.0345
DataValue, 1.0104000000000002, -0.026000000000000002
DataValue, 1.0155, -0.042
DataValue, 1.0199, -0.0455
DataValue, 1.0247000000000002, -0.0235
DataValue, 1.03014, -0.026000000000000002
DataValue, 1.0353, -0.046
DataValue, 1.03994, -0.033
DataValue, 1.04498, -0.017
DataValue, 1.0505600000000002, -0.0285
DataValue, 1.0549600000000001, -0.041
DataValue, 1.0604, -0.0205
DataValue, 1.06482, -0.043000000000000003
DataValue, 1.0701200000000002, -0.0185
DataValue, 1.07502, -0.04
DataValue, 1.0805600000000002, -0.0375
DataValue, 1.08498, -0.019
DataValue, 1.0899400000000001, -0.043500000000000004
DataValue, 1.09484, -0.043000000000000003
DataValue, 1.0994000000000002, -0.0275
DataValue, 1.10548, -0.025500000000000002
DataValue, 1.1100800000000002, -0.028
DataValue, 1.1144800000000001, -0.02
DataValue, 1.12036, -0.032
DataValue, 1.1252600000000002, -0.0155
DataValue, 1.12958, -0.025500000000000002
DataValue, 1.13494, -0.0265
DataValue, 1.1404, -0.018000000000000002
DataValue, 1.1454000000000002, -0.0485
DataValue, 1.15022, -0.0165
DataValue, 1.1551600000000002, -0.052000000000000005
DataValue, 1.15972, -0.033
DataValue, 1.1647200000000002, -0.026000000000000002
DataValue, 1.17042, -0.051500000000000004
DataValue, 1.1752200000000002, -0.015
DataValue, 1.1800400000000002, -0.037
DataValue, 1.1850200000000002, -0.032
DataValue, 1.18958, -0.025500000000000002
DataValue, 1.19466, -0.042
DataValue, 1.20022, -0.013000000000000001
DataValue, 1.2049, -0.031
DataValue, 1.21002, -0.0205
DataValue, 1.2154, -0.043000000000000003
DataValue, 1.2198, -0.0325
DataValue, 1.2247800000000002, -0.024
DataValue, 1.2299200000000001, -0.0385
DataValue, 1.2352800000000002, -0.0315
DataValue, 1.2400600000000002, -0.0305
DataValue, 1.24522, -0.031
DataValue, 1.24954, -0.0265
DataValue, 1.2556800000000001, -0.035
DataValue, 1.26008, -0.021500000000000002
DataValue, 1.26478, -0.045
DataValue, 1.2698600000000002, -0.0235
DataValue, 1.2752800000000002, -0.0205
DataValue, 1.2795800000000002, -0.0385
DataValue, 1.2843, -0.029
DataValue, 1.28952, -0.025
DataValue, 1.2955, -0.0475
DataValue, 1.2998, -0.0115
DataValue, 1.30518, -0.0265
DataValue, 1.30996, -0.028
DataValue, 1.3152000000000002, -0.01
DataValue, 1.3203, -0.0365
DataValue, 1.3246, -0.0105
DataValue, 1.32982, -0.016
DataValue, 1.3352400000000002, -0.031
DataValue, 1.34016, -0.027
DataValue, 1.3449000000000002, -0.0075
DataValue, 1.34884, -0.023
DataValue, 1.35468, -0.027
DataValue, 1.3598000000000001, -0.006
DataValue, 1.3649600000000002, -0.0605
DataValue, 1.3705600000000002, -0.021500000000000002
DataValue, 1.37508, -0.0165
DataValue, 1.3799000000000001, -0.0315
DataValue, 1.38548, -0.025
DataValue, 1.39012, -0.029500000000000002
DataValue, 1.3947200000000002, -0.031
DataValue, 1.3998400000000002, -0.0125
DataValue, 1.4047200000000002, -0.036000000000000004
DataValue, 1.4102000000000001, -0.022
DataValue, 1.4154000000000002, -0.024
DataValue, 1.4198600000000001, -0.0445
DataValue, 1.4249800000000001, -0.026000000000000002
DataValue, 1.4300400000000002, -0.0315
DataValue, 1.43544, -0.041
DataValue, 1.44032, -0.017
DataValue, 1.4448400000000001, -0.0365
DataValue, 1.4504000000000001, -0.0385
DataValue, 1.45476, -0.031
DataValue, 1.4596200000000001, -0.035500000000000004
DataValue, 1.4642400000000002, -0.026000000000000002
DataValue, 1.46958, -0.0345
DataValue, 1.4751200000000002, -0.035
DataValue, 1.4795, -0.018000000000000002
DataValue, 1.485, -0.0225
DataValue, 1.49048, -0.029
DataValue, 1.49492, -0.0175
DataValue, 1.5000600000000002, -0.0335
DataValue, 1.50428, -0.026000000000000002
DataValue, 1.5099, -0.034
DataValue, 1.5148400000000002, -0.031
DataValue, 1.52018, -0.0125
DataValue, 1.52492, -0.0315
DataValue, 1.5295, -0.0175
DataValue, 1.5354400000000001, -0.027
DataValue, 1.5396, -0.03
DataValue, 1.5446000000000002, -0.014
DataValue, 1.5498600000000002, -0.0315
DataValue, 1.5560200000000002, -0.0395
DataValue, 1.55966, -0.029500000000000002
DataValue, 1.56488, -0.048
DataValue, 1.5703600000000002, -0.0225
DataValue, 1.5751400000000002, -0.0245
DataValue, 1.5801, -0.051000000000000004
DataValue, 1.5860400000000001, -0.0245
DataValue, 1.5901600000000002, -0.043500000000000004
DataValue, 1.5950400000000002, -0.045
DataValue, 1.6002200000000002, -0.007
DataValue, 1.6048000000000002, -0.0235
DataValue, 1.6105600000000002, -0.0385
DataValue, 1.61548, -0.0145
DataValue, 1.6197800000000002, -0.039
DataValue, 1.6243800000000002, -0.041
DataValue, 1.6302, -0.0185
DataValue, 1.63542, -0.017
DataValue, 1.6402400000000001, -0.039
DataValue, 1.6449200000000002, -0.023
DataValue, 1.6506600000000002, -0.056
DataValue, 1.65538, -0.024
DataValue, 1.6599800000000002, -0.0165
DataValue, 1.6648800000000001, -0.057
DataValue, 1.6705800000000002, -0.025
DataValue, 1.67504, -0.022
DataValue, 1.6800000000000002, -0.0425
DataValue, 1.6854200000000001, -0.029
DataValue, 1.6903000000000001, -0.0165
DataValue, 1.6948400000000001, -0.0445
DataValue, 1.70056, -0.007
DataValue, 1.7049, -0.0275
DataValue, 1.7099400000000002, -0.048
DataValue, 1.7152, -0.0045000000000000005
DataValue, 1.7205800000000002, -0.0285
DataValue, 1.7254600000000002, -0.036000000000000004
DataValue, 1.7296000000000003, -0.0185
DataValue, 1.7358600000000002, -0.0235
DataValue, 1.7401400000000002, -0.0375
DataValue, 1.7442400000000002, -0.0090000000000000011
DataValue, 1.7496, -0.036000000000000004
DataValue, 1.7548000000000001, -0.0455
DataValue, 1.7601000000000002, -0.02
DataValue, 1.7650800000000002, -0.0205
DataValue, 1.7703200000000001, -0.032
DataValue, 1.7754200000000002, -0.0015
DataValue, 1.7797800000000001, -0.026000000000000002
DataValue, 1.7851800000000002, -0.0315
DataValue, 1.7899600000000002, -0.012
DataValue, 1.79482, -0.029
DataValue, 1.8000200000000002, -0.036000000000000004
DataValue, 1.80492, -0.0115
DataValue, 1.80994, -0.032
DataValue, 1.81488, -0.0305
DataValue, 1.8198200000000002, -0.023
DataValue, 1.8252000000000002, -0.021
DataValue, 1.8296400000000002, -0.0425
DataValue, 1.8351000000000002, -0.0115
DataValue, 1.84024, -0.03
DataValue, 1.8448600000000002, -0.0315
DataValue, 1.84962, -0.023
DataValue, 1.8548600000000002, -0.037
DataValue, 1.8602, -0.0445
DataValue, 1.8649000000000002, -0.0205
DataValue, 1.8703200000000002, -0.041
DataValue, 1.87518, -0.0475
