
SetupTitle, ID-VDS-3rd
PrimitiveTest, Multi Channel I/V Sweep
TestParameter, Channel.UnitType, SMU, SMU
TestParameter, Channel.Unit, SMU2:MC, SMU3:UHC500
TestParameter, Channel.IName, IG, ID
TestParameter, Channel.VName, VGS, VDS
TestParameter, Channel.Mode, VPULSE, VPULSE
TestParameter, Channel.Func, VAR2, VAR1
TestParameter, Channel.Index, 
TestParameter, Channel.Time, 
TestParameter, Measurement.Port.Unit, SMU2:MC, SMU3:UHC500
TestParameter, Measurement.Port.SeriesResistor, NONE, NONE
TestParameter, Measurement.Port.Filter, OFF, OFF
TestParameter, Measurement.Port.OutputVoltageComparison, 0, 0
TestParameter, Measurement.Primary.Start, -5
TestParameter, Measurement.Primary.Stop, 0
TestParameter, Measurement.Primary.Compliance, 10
TestParameter, Measurement.Primary.PowerCompliance, 0
TestParameter, Measurement.Primary.Locus, Single
TestParameter, Measurement.Primary.Scale, LINEAR
TestParameter, Measurement.Primary.Count, 21
TestParameter, Measurement.Aborting.Condition, CONTINUE AT ANY
TestParameter, Measurement.PostOutput.Value, START
TestParameter, Measurement.PostOutput.Retention, OFF
TestParameter, Measurement.Secondary.Start, 15.000000000000002
TestParameter, Measurement.Secondary.Count, 5
TestParameter, Measurement.Secondary.Step, 1.25
TestParameter, Measurement.Secondary.Compliance, 0.099999999999999992
TestParameter, Measurement.Secondary.PowerCompliance, 0
TestParameter, Measurement.Bias.Source, 0, 0
TestParameter, Measurement.Bias.Compliance, 0.099999999999999992, 0
TestParameter, Measurement.Pulse.Delay, 0, 9.9999999999999991E-05
TestParameter, Measurement.Pulse.Duration, 0.001, 0.00019999999999999998
TestParameter, Measurement.Pulse.Base, 0, 0
TestParameter, Measurement.Pulse.Period, 0
TestParameter, Measurement.Pulse.MeasurementDelay, 0
TestParameter, Measurement.Pulse.AveragingCount, 1
TestParameter, Measurement.Monitor.Unit, SMU2:MC, SMU3:UHC500
TestParameter, Measurement.Monitor.Adc, HS ADC, HS ADC
TestParameter, Measurement.Monitor.Measurement, Force and Compliance Sides, Force and Compliance Sides
TestParameter, Measurement.Timing.Hold, 0
TestParameter, Measurement.Timing.Delay, 0
TestParameter, Measurement.Adc.HighSpeed.Mode, TIME
TestParameter, Measurement.Adc.HighSpeed.Coeff, 9.9999999999999991E-06
TestParameter, Measurement.Adc.HighResolution.AutoZero, OFF
TestParameter, Measurement.Adc.HighResolution.Mode, AUTO
TestParameter, Measurement.Adc.HighResolution.Coeff, 6
TestParameter, Measurement.WaitTime.Source.Coeff, 1
TestParameter, Measurement.WaitTime.Source.Offset, 0
TestParameter, Measurement.WaitTime.Monitor.Coeff, 1
TestParameter, Measurement.WaitTime.Monitor.Offset, 0
TestParameter, Output.Graph.Enabled, true
TestParameter, Output.Graph.AutoScaling, false
TestParameter, Output.Graph.XAxis.Data, VDS
TestParameter, Output.Graph.XAxis.Scale, Linear
TestParameter, Output.Graph.XAxis.Left, -4.8
TestParameter, Output.Graph.XAxis.Right, 1.2
TestParameter, Output.Graph.XAxis.RunTimeAutoScale, false
TestParameter, Output.Graph.YAxis.Data, ID
TestParameter, Output.Graph.YAxis.Scale, Linear
TestParameter, Output.Graph.YAxis.Bottom, -15
TestParameter, Output.Graph.YAxis.Top, 1
TestParameter, Output.Graph.YAxis.Group, 
TestParameter, Output.Graph.YAxis.RunTimeAutoScale, false
TestParameter, Output.List.Data, VDS, ID
TestParameter, AutoAnalysis.Interpolation, false
TestParameter, AutoAnalysis.Line1.Enabled, false
TestParameter, AutoAnalysis.Line1.Type, 1
TestParameter, AutoAnalysis.Line1.Fix, True
TestParameter, AutoAnalysis.Line1.YAxis, 0
TestParameter, AutoAnalysis.Line1.Point1.Type, 0
TestParameter, AutoAnalysis.Line1.Point1.XY.X, 
TestParameter, AutoAnalysis.Line1.Point1.XY.Y, 
TestParameter, AutoAnalysis.Line1.Point1.Data.Var, 
TestParameter, AutoAnalysis.Line1.Point1.Data.Condition, 
TestParameter, AutoAnalysis.Line1.Point1.Data.Start, false
TestParameter, AutoAnalysis.Line1.Point1.Data.StartVar, 
TestParameter, AutoAnalysis.Line1.Point1.Data.StartCondition, 
TestParameter, AutoAnalysis.Line1.Point2.Type, 0
TestParameter, AutoAnalysis.Line1.Point2.XY.X, 
TestParameter, AutoAnalysis.Line1.Point2.XY.Y, 
TestParameter, AutoAnalysis.Line1.Point2.Data.Var, 
TestParameter, AutoAnalysis.Line1.Point2.Data.Condition, 
TestParameter, AutoAnalysis.Line1.Point2.Data.Start, false
TestParameter, AutoAnalysis.Line1.Point2.Data.StartVar, 
TestParameter, AutoAnalysis.Line1.Point2.Data.StartCondition, 
TestParameter, AutoAnalysis.Line1.GradientExpr, 0
TestParameter, AutoAnalysis.Line2.Enabled, false
TestParameter, AutoAnalysis.Line2.Type, 1
TestParameter, AutoAnalysis.Line2.Fix, True
TestParameter, AutoAnalysis.Line2.YAxis, 0
TestParameter, AutoAnalysis.Line2.Point1.Type, 0
TestParameter, AutoAnalysis.Line2.Point1.XY.X, 
TestParameter, AutoAnalysis.Line2.Point1.XY.Y, 
TestParameter, AutoAnalysis.Line2.Point1.Data.Var, 
TestParameter, AutoAnalysis.Line2.Point1.Data.Condition, 
TestParameter, AutoAnalysis.Line2.Point1.Data.Start, false
TestParameter, AutoAnalysis.Line2.Point1.Data.StartVar, 
TestParameter, AutoAnalysis.Line2.Point1.Data.StartCondition, 
TestParameter, AutoAnalysis.Line2.Point2.Type, 0
TestParameter, AutoAnalysis.Line2.Point2.XY.X, 
TestParameter, AutoAnalysis.Line2.Point2.XY.Y, 
TestParameter, AutoAnalysis.Line2.Point2.Data.Var, 
TestParameter, AutoAnalysis.Line2.Point2.Data.Condition, 
TestParameter, AutoAnalysis.Line2.Point2.Data.Start, false
TestParameter, AutoAnalysis.Line2.Point2.Data.StartVar, 
TestParameter, AutoAnalysis.Line2.Point2.Data.StartCondition, 
TestParameter, AutoAnalysis.Line2.GradientExpr, 0
TestParameter, AutoAnalysis.Marker.Enabled, false
TestParameter, AutoAnalysis.Marker.Data.Var, 
TestParameter, AutoAnalysis.Marker.Data.Condition, 
TestParameter, AutoAnalysis.Marker.Data.Start, false
TestParameter, AutoAnalysis.Marker.Data.StartVar, 
TestParameter, AutoAnalysis.Marker.Data.StartCondition, 
MetaData, TestRecord.EntryPoint, true
MetaData, TestRecord.RecordTime, 04/17/2021 10:38:17
MetaData, TestRecord.TestTarget, 
MetaData, TestRecord.IterationIndex, 1
MetaData, TestRecord.Preservation, true
MetaData, TestRecord.Flag, 
MetaData, TestRecord.Remarks, 
MetaData, TestRecord.LinkKey, 89f4ffd5-ce50-4e5b-b776-f884e6f7c4db
Dimension1, 21, 21
Dimension2, 5, 5
DataName, ID, VDS
DataValue, -19.0685, -0.5564
DataValue, -18.1085, -0.5305
DataValue, -17.131, -0.50050000000000006
DataValue, -16.184, -0.47550000000000003
DataValue, -15.2555, -0.44680000000000003
DataValue, -14.298, -0.42000000000000004
DataValue, -13.3085, -0.392
DataValue, -12.346, -0.36460000000000004
DataValue, -11.404, -0.3351
DataValue, -10.466000000000001, -0.30820000000000003
DataValue, -9.5285000000000011, -0.28
DataValue, -8.557500000000001, -0.2513
DataValue, -7.6235, -0.22340000000000002
DataValue, -6.6595, -0.1948
DataValue, -5.7055, -0.16770000000000002
DataValue, -4.749, -0.1398
DataValue, -3.7775, -0.1106
DataValue, -2.817, -0.0833
DataValue, -1.874, -0.0523
DataValue, -0.932, -0.025
DataValue, 0.0225, 0.0023
DataValue, -19.136, -0.5392
DataValue, -18.171, -0.51150000000000007
DataValue, -17.218, -0.4843
DataValue, -16.2575, -0.45830000000000004
DataValue, -15.3065, -0.4324
DataValue, -14.3575, -0.4043
DataValue, -13.3735, -0.3775
DataValue, -12.423, -0.3507
DataValue, -11.4795, -0.32330000000000003
DataValue, -10.4895, -0.29400000000000004
DataValue, -9.541500000000001, -0.27030000000000004
DataValue, -8.597, -0.2417
DataValue, -7.644, -0.21610000000000001
DataValue, -6.6765, -0.18910000000000002
DataValue, -5.707, -0.16090000000000002
DataValue, -4.7675, -0.1322
DataValue, -3.8000000000000003, -0.1066
DataValue, -2.845, -0.080200000000000007
DataValue, -1.8860000000000001, -0.050300000000000004
DataValue, -0.9345, -0.0252
DataValue, 0.0325, 0.0038
DataValue, -19.21, -0.5239
DataValue, -18.252, -0.4984
DataValue, -17.2725, -0.47250000000000003
DataValue, -16.304000000000002, -0.44520000000000004
DataValue, -15.3705, -0.41960000000000003
DataValue, -14.3765, -0.394
DataValue, -13.442, -0.3674
DataValue, -12.459, -0.3401
DataValue, -11.502, -0.3153
DataValue, -10.5635, -0.2882
DataValue, -9.5645, -0.2614
DataValue, -8.619, -0.2359
DataValue, -7.6655, -0.2096
DataValue, -6.7005, -0.18280000000000002
DataValue, -5.7435, -0.1582
DataValue, -4.771, -0.132
DataValue, -3.814, -0.10350000000000001
DataValue, -2.8645, -0.076800000000000007
DataValue, -1.909, -0.049600000000000005
DataValue, -0.9455, -0.0257
DataValue, 0.034, 0.0036000000000000003
DataValue, -19.245, -0.5111
DataValue, -18.289, -0.4864
DataValue, -17.325, -0.46090000000000003
DataValue, -16.353, -0.4358
DataValue, -15.384, -0.4092
DataValue, -14.4295, -0.38620000000000004
DataValue, -13.4795, -0.35850000000000004
DataValue, -12.506, -0.33330000000000004
DataValue, -11.5185, -0.30820000000000003
DataValue, -10.5855, -0.28240000000000004
DataValue, -9.6255, -0.2574
DataValue, -8.655, -0.229
DataValue, -7.6905, -0.2063
DataValue, -6.696, -0.1789
DataValue, -5.7485, -0.15330000000000002
DataValue, -4.8055, -0.1272
DataValue, -3.8205, -0.1014
DataValue, -2.87, -0.07690000000000001
DataValue, -1.905, -0.0497
DataValue, -0.935, -0.0247
DataValue, 0.0315, 0.0033
DataValue, -19.287, -0.5032
DataValue, -18.3115, -0.47750000000000004
DataValue, -17.344, -0.4529
DataValue, -16.3975, -0.4272
DataValue, -15.438, -0.4017
DataValue, -14.475, -0.3778
DataValue, -13.5085, -0.3534
DataValue, -12.517, -0.3269
DataValue, -11.557, -0.3013
DataValue, -10.5965, -0.2748
DataValue, -9.6275, -0.2518
DataValue, -8.6755, -0.22560000000000002
DataValue, -7.6925, -0.20090000000000002
DataValue, -6.7255, -0.1774
DataValue, -5.7620000000000005, -0.1509
DataValue, -4.803, -0.12490000000000001
DataValue, -3.8485, -0.098600000000000007
DataValue, -2.886, -0.0748
DataValue, -1.924, -0.049100000000000005
DataValue, -0.94600000000000006, -0.0244
DataValue, 0.03, 0.0033