
SetupTitle, ID-VGS
PrimitiveTest, Multi Channel I/V Sweep
TestParameter, Channel.UnitType, SMU, SMU
TestParameter, Channel.Unit, SMU2:MC, SMU3:UHC500
TestParameter, Channel.IName, IG, ID
TestParameter, Channel.VName, VGS, VDS
TestParameter, Channel.Mode, VPULSE, VPULSE
TestParameter, Channel.Func, VAR1, CONST
TestParameter, Channel.Index, 
TestParameter, Channel.Time, 
TestParameter, Measurement.Port.Unit, SMU2:MC, SMU3:UHC500
TestParameter, Measurement.Port.SeriesResistor, NONE, NONE
TestParameter, Measurement.Port.Filter, OFF, OFF
TestParameter, Measurement.Port.OutputVoltageComparison, 0, 0
TestParameter, Measurement.Primary.Start, 0
TestParameter, Measurement.Primary.Stop, 10
TestParameter, Measurement.Primary.Compliance, 0.099999999999999992
TestParameter, Measurement.Primary.PowerCompliance, 0
TestParameter, Measurement.Primary.Locus, Single
TestParameter, Measurement.Primary.Scale, LINEAR
TestParameter, Measurement.Primary.Count, 2001
TestParameter, Measurement.Aborting.Condition, CONTINUE AT ANY
TestParameter, Measurement.PostOutput.Value, START
TestParameter, Measurement.PostOutput.Retention, OFF
TestParameter, Measurement.Bias.Source, 0, 3
TestParameter, Measurement.Bias.Compliance, 0.099999999999999992, 5
TestParameter, Measurement.Pulse.Delay, 0, 9.9999999999999991E-05
TestParameter, Measurement.Pulse.Duration, 0.001, 4.9999999999999996E-05
TestParameter, Measurement.Pulse.Base, 0, 0
TestParameter, Measurement.Pulse.Period, 0
TestParameter, Measurement.Pulse.MeasurementDelay, 0
TestParameter, Measurement.Pulse.AveragingCount, 1
TestParameter, Measurement.Monitor.Unit, SMU2:MC, SMU3:UHC500
TestParameter, Measurement.Monitor.Adc, HS ADC, HS ADC
TestParameter, Measurement.Monitor.Measurement, Force and Compliance Sides, Force and Compliance Sides
TestParameter, Measurement.Timing.Hold, 0
TestParameter, Measurement.Timing.Delay, 0
TestParameter, Measurement.Adc.HighSpeed.Mode, TIME
TestParameter, Measurement.Adc.HighSpeed.Coeff, 9.9999999999999991E-06
TestParameter, Measurement.Adc.HighResolution.AutoZero, OFF
TestParameter, Measurement.Adc.HighResolution.Mode, AUTO
TestParameter, Measurement.Adc.HighResolution.Coeff, 6
TestParameter, Measurement.WaitTime.Source.Coeff, 1
TestParameter, Measurement.WaitTime.Source.Offset, 0
TestParameter, Measurement.WaitTime.Monitor.Coeff, 1
TestParameter, Measurement.WaitTime.Monitor.Offset, 0
TestParameter, Output.Graph.Enabled, true
TestParameter, Output.Graph.AutoScaling, false
TestParameter, Output.Graph.XAxis.Data, VGS
TestParameter, Output.Graph.XAxis.Scale, Linear
TestParameter, Output.Graph.XAxis.Left, -5.4
TestParameter, Output.Graph.XAxis.Right, 12.6
TestParameter, Output.Graph.XAxis.RunTimeAutoScale, false
TestParameter, Output.Graph.YAxis.Data, ID
TestParameter, Output.Graph.YAxis.Scale, Linear
TestParameter, Output.Graph.YAxis.Bottom, 0
TestParameter, Output.Graph.YAxis.Top, 10
TestParameter, Output.Graph.YAxis.Group, 
TestParameter, Output.Graph.YAxis.RunTimeAutoScale, false
TestParameter, Output.List.Data, VGS, ID
TestParameter, AutoAnalysis.Interpolation, false
TestParameter, AutoAnalysis.Line1.Enabled, false
TestParameter, AutoAnalysis.Line1.Type, 1
TestParameter, AutoAnalysis.Line1.Fix, True
TestParameter, AutoAnalysis.Line1.YAxis, 0
TestParameter, AutoAnalysis.Line1.Point1.Type, 0
TestParameter, AutoAnalysis.Line1.Point1.XY.X, 
TestParameter, AutoAnalysis.Line1.Point1.XY.Y, 
TestParameter, AutoAnalysis.Line1.Point1.Data.Var, 
TestParameter, AutoAnalysis.Line1.Point1.Data.Condition, 
TestParameter, AutoAnalysis.Line1.Point1.Data.Start, false
TestParameter, AutoAnalysis.Line1.Point1.Data.StartVar, 
TestParameter, AutoAnalysis.Line1.Point1.Data.StartCondition, 
TestParameter, AutoAnalysis.Line1.Point2.Type, 0
TestParameter, AutoAnalysis.Line1.Point2.XY.X, 
TestParameter, AutoAnalysis.Line1.Point2.XY.Y, 
TestParameter, AutoAnalysis.Line1.Point2.Data.Var, 
TestParameter, AutoAnalysis.Line1.Point2.Data.Condition, 
TestParameter, AutoAnalysis.Line1.Point2.Data.Start, false
TestParameter, AutoAnalysis.Line1.Point2.Data.StartVar, 
TestParameter, AutoAnalysis.Line1.Point2.Data.StartCondition, 
TestParameter, AutoAnalysis.Line1.GradientExpr, 0
TestParameter, AutoAnalysis.Line2.Enabled, false
TestParameter, AutoAnalysis.Line2.Type, 1
TestParameter, AutoAnalysis.Line2.Fix, True
TestParameter, AutoAnalysis.Line2.YAxis, 0
TestParameter, AutoAnalysis.Line2.Point1.Type, 0
TestParameter, AutoAnalysis.Line2.Point1.XY.X, 
TestParameter, AutoAnalysis.Line2.Point1.XY.Y, 
TestParameter, AutoAnalysis.Line2.Point1.Data.Var, 
TestParameter, AutoAnalysis.Line2.Point1.Data.Condition, 
TestParameter, AutoAnalysis.Line2.Point1.Data.Start, false
TestParameter, AutoAnalysis.Line2.Point1.Data.StartVar, 
TestParameter, AutoAnalysis.Line2.Point1.Data.StartCondition, 
TestParameter, AutoAnalysis.Line2.Point2.Type, 0
TestParameter, AutoAnalysis.Line2.Point2.XY.X, 
TestParameter, AutoAnalysis.Line2.Point2.XY.Y, 
TestParameter, AutoAnalysis.Line2.Point2.Data.Var, 
TestParameter, AutoAnalysis.Line2.Point2.Data.Condition, 
TestParameter, AutoAnalysis.Line2.Point2.Data.Start, false
TestParameter, AutoAnalysis.Line2.Point2.Data.StartVar, 
TestParameter, AutoAnalysis.Line2.Point2.Data.StartCondition, 
TestParameter, AutoAnalysis.Line2.GradientExpr, 0
TestParameter, AutoAnalysis.Marker.Enabled, false
TestParameter, AutoAnalysis.Marker.Data.Var, 
TestParameter, AutoAnalysis.Marker.Data.Condition, 
TestParameter, AutoAnalysis.Marker.Data.Start, false
TestParameter, AutoAnalysis.Marker.Data.StartVar, 
TestParameter, AutoAnalysis.Marker.Data.StartCondition, 
MetaData, TestRecord.EntryPoint, true
MetaData, TestRecord.RecordTime, 04/17/2021 10:36:07
MetaData, TestRecord.TestTarget, 
MetaData, TestRecord.IterationIndex, 1
MetaData, TestRecord.Preservation, true
MetaData, TestRecord.Flag, 
MetaData, TestRecord.Remarks, 
MetaData, TestRecord.LinkKey, 67b03e4c-4288-4c79-ab82-15df7fd3b355
Dimension1, 2001, 2001
Dimension2, 1, 1
DataName, VGS, ID
DataValue, -0.00068, -0.044
DataValue, 0.0051400000000000005, -0.031
DataValue, 0.01008, -0.023
DataValue, 0.015040000000000001, -0.0305
DataValue, 0.019520000000000003, -0.0285
DataValue, 0.02536, -0.025
DataValue, 0.030640000000000004, -0.0315
DataValue, 0.034820000000000004, -0.042
DataValue, 0.040100000000000004, -0.037
DataValue, 0.044840000000000005, -0.0315
DataValue, 0.05004, -0.035
DataValue, 0.0551, -0.02
DataValue, 0.060200000000000004, -0.0305
DataValue, 0.06536, -0.0465
DataValue, 0.06986, -0.0145
DataValue, 0.07468000000000001, -0.0495
DataValue, 0.0796, -0.039
DataValue, 0.08508, -0.043500000000000004
DataValue, 0.09018000000000001, -0.0375
DataValue, 0.09482, -0.012
DataValue, 0.10052000000000001, -0.0265
DataValue, 0.10526, -0.0315
DataValue, 0.11058000000000001, -0.039
DataValue, 0.11490000000000002, -0.0465
DataValue, 0.12014000000000001, -0.041
DataValue, 0.12518, -0.0305
DataValue, 0.13038000000000002, -0.036000000000000004
DataValue, 0.13552, -0.0235
DataValue, 0.13938, -0.03
DataValue, 0.14532, -0.0445
DataValue, 0.14942000000000003, -0.0485
DataValue, 0.15506, -0.045
DataValue, 0.16004000000000002, -0.0225
DataValue, 0.1652, -0.0185
DataValue, 0.17034000000000002, -0.0385
DataValue, 0.17562000000000003, -0.03
DataValue, 0.17946, -0.0455
DataValue, 0.18466000000000002, -0.0335
DataValue, 0.18998, -0.0345
DataValue, 0.19508, -0.042
DataValue, 0.20032000000000003, -0.0275
DataValue, 0.20534000000000002, -0.0195
DataValue, 0.20936000000000002, -0.0245
DataValue, 0.21518, -0.0285
DataValue, 0.22004, -0.036000000000000004
DataValue, 0.22504000000000002, -0.0455
DataValue, 0.22998000000000002, -0.048
DataValue, 0.23462000000000002, -0.0315
DataValue, 0.24024, -0.017
DataValue, 0.24476000000000003, -0.033
DataValue, 0.25, -0.012
DataValue, 0.2544, -0.0395
DataValue, 0.26006, -0.0645
DataValue, 0.26480000000000004, -0.0385
DataValue, 0.2702, -0.03
DataValue, 0.27562000000000003, -0.032
DataValue, 0.27968000000000004, -0.0275
DataValue, 0.28532, -0.0225
DataValue, 0.2901, -0.0375
DataValue, 0.29494000000000004, -0.043000000000000003
DataValue, 0.30028000000000005, -0.056
DataValue, 0.30472000000000005, -0.0465
DataValue, 0.30998000000000003, -0.0275
DataValue, 0.315, -0.037
DataValue, 0.31980000000000003, -0.02
DataValue, 0.32486000000000004, -0.017
DataValue, 0.32976000000000005, -0.0415
DataValue, 0.33572, -0.031
DataValue, 0.33986000000000005, -0.0405
DataValue, 0.34540000000000004, -0.0335
DataValue, 0.34982, -0.0195
DataValue, 0.35546000000000005, -0.0245
DataValue, 0.35990000000000005, -0.02
DataValue, 0.36546, -0.049
DataValue, 0.36964, -0.046
DataValue, 0.37560000000000004, -0.037
DataValue, 0.38038000000000005, -0.016
DataValue, 0.3855, -0.0155
DataValue, 0.38970000000000005, -0.0225
DataValue, 0.39508000000000004, -0.029500000000000002
DataValue, 0.40024000000000004, -0.0505
DataValue, 0.40522, -0.04
DataValue, 0.40990000000000004, -0.0335
DataValue, 0.41482, -0.023
DataValue, 0.41982, -0.021
DataValue, 0.42476, -0.0385
DataValue, 0.4302, -0.042
DataValue, 0.43476000000000004, -0.043500000000000004
DataValue, 0.43976000000000004, -0.0455
DataValue, 0.44518, -0.0265
DataValue, 0.44986000000000004, -0.025
DataValue, 0.45504000000000006, -0.0275
DataValue, 0.45960000000000006, -0.0235
DataValue, 0.4656, -0.045
DataValue, 0.46956000000000003, -0.0305
DataValue, 0.47578000000000004, -0.037
DataValue, 0.47958000000000006, -0.025500000000000002
DataValue, 0.48468000000000006, -0.0145
DataValue, 0.49056000000000005, -0.0235
DataValue, 0.49520000000000003, -0.025
DataValue, 0.50056, -0.051000000000000004
DataValue, 0.50518000000000007, -0.024
DataValue, 0.51014, -0.052000000000000005
DataValue, 0.51540000000000008, -0.04
DataValue, 0.52012, -0.032
DataValue, 0.52494000000000007, -0.021
DataValue, 0.53046, -0.0225
DataValue, 0.53484000000000009, -0.045
DataValue, 0.5400600000000001, -0.0315
DataValue, 0.54464, -0.0485
DataValue, 0.54962, -0.038
DataValue, 0.55484, -0.0165
DataValue, 0.56046000000000007, -0.043000000000000003
DataValue, 0.56490000000000007, -0.023
DataValue, 0.57076, -0.046
DataValue, 0.57478000000000007, -0.038
DataValue, 0.57972, -0.035
DataValue, 0.58566000000000007, -0.03
DataValue, 0.59042000000000006, -0.027
DataValue, 0.59410000000000007, -0.0415
DataValue, 0.59994, -0.035500000000000004
DataValue, 0.60542000000000007, -0.036000000000000004
DataValue, 0.6097800000000001, -0.0335
DataValue, 0.61510000000000009, -0.043500000000000004
DataValue, 0.62008000000000008, -0.012
DataValue, 0.62538, -0.018000000000000002
DataValue, 0.62956, -0.0425
DataValue, 0.6347, -0.04
DataValue, 0.64022, -0.049
DataValue, 0.64476, -0.0305
DataValue, 0.65076, -0.0265
DataValue, 0.6551, -0.0115
DataValue, 0.6601800000000001, -0.014
DataValue, 0.66482000000000008, -0.019
DataValue, 0.67, -0.034
DataValue, 0.67496, -0.029500000000000002
DataValue, 0.67970000000000008, -0.03
DataValue, 0.6854, -0.029
DataValue, 0.69018, -0.0165
DataValue, 0.69554, -0.021500000000000002
DataValue, 0.69982000000000011, -0.0405
DataValue, 0.70480000000000009, -0.0495
DataValue, 0.7104, -0.0565
DataValue, 0.71448, -0.0315
DataValue, 0.71954000000000007, -0.019
DataValue, 0.72508000000000006, -0.013000000000000001
DataValue, 0.72962, -0.03
DataValue, 0.7347, -0.03
DataValue, 0.73994, -0.043000000000000003
DataValue, 0.74500000000000011, -0.036000000000000004
DataValue, 0.75072, -0.0275
DataValue, 0.75552000000000008, -0.026000000000000002
DataValue, 0.75988000000000011, -0.021
DataValue, 0.76562000000000008, -0.042
DataValue, 0.76994000000000007, -0.0525
DataValue, 0.7748, -0.0305
DataValue, 0.78046, -0.02
DataValue, 0.78554, -0.0185
DataValue, 0.78982000000000008, -0.031
DataValue, 0.79522, -0.0325
DataValue, 0.79976, -0.036000000000000004
DataValue, 0.80470000000000008, -0.0205
DataValue, 0.81012000000000006, -0.023
DataValue, 0.8146000000000001, -0.04
DataValue, 0.82016000000000011, -0.051500000000000004
DataValue, 0.82508, -0.036000000000000004
DataValue, 0.82968000000000008, -0.0485
DataValue, 0.8348000000000001, -0.034
DataValue, 0.8402400000000001, -0.027
DataValue, 0.84534000000000009, -0.0175
DataValue, 0.8496800000000001, -0.035
DataValue, 0.85474, -0.041
DataValue, 0.85954000000000008, -0.0285
DataValue, 0.8656600000000001, -0.0305
DataValue, 0.86994, -0.0235
DataValue, 0.87506000000000006, -0.014
DataValue, 0.87990000000000013, -0.0405
DataValue, 0.88530000000000009, -0.05
DataValue, 0.89028000000000007, -0.059000000000000004
DataValue, 0.89452000000000009, -0.0285
DataValue, 0.89998000000000011, -0.0205
DataValue, 0.90478, -0.034
DataValue, 0.91008000000000011, -0.0425
DataValue, 0.915, -0.05
DataValue, 0.92, -0.029500000000000002
DataValue, 0.9247200000000001, -0.015
DataValue, 0.93036000000000008, -0.0245
DataValue, 0.93524000000000007, -0.042
DataValue, 0.94066, -0.035
DataValue, 0.94516000000000011, -0.0305
DataValue, 0.94976, -0.033
DataValue, 0.95390000000000008, -0.032
DataValue, 0.95992000000000011, -0.0375
DataValue, 0.96522000000000008, -0.052000000000000005
DataValue, 0.97006, -0.04
DataValue, 0.97538, -0.021
DataValue, 0.9803400000000001, -0.021500000000000002
DataValue, 0.9852200000000001, -0.0475
DataValue, 0.98956000000000011, -0.046
DataValue, 0.9955, -0.0465
DataValue, 0.99986000000000008, -0.032
DataValue, 1.00482, -0.021500000000000002
DataValue, 1.0100600000000002, -0.021500000000000002
DataValue, 1.01502, -0.0285
DataValue, 1.01998, -0.039
DataValue, 1.0247600000000001, -0.0235
DataValue, 1.0297, -0.0225
DataValue, 1.0351400000000002, -0.023
DataValue, 1.0406000000000002, -0.033
DataValue, 1.0450000000000002, -0.053
DataValue, 1.0501200000000002, -0.042
DataValue, 1.0542200000000002, -0.025
DataValue, 1.0599800000000001, -0.016
DataValue, 1.0649000000000002, -0.0565
DataValue, 1.0699400000000001, -0.0535
DataValue, 1.07484, -0.0455
DataValue, 1.0799, -0.025500000000000002
DataValue, 1.08468, -0.0375
DataValue, 1.09026, -0.0305
DataValue, 1.0949600000000002, -0.0415
DataValue, 1.0992600000000001, -0.0395
DataValue, 1.10528, -0.043500000000000004
DataValue, 1.10986, -0.033
DataValue, 1.11508, -0.025500000000000002
DataValue, 1.1203, -0.013000000000000001
DataValue, 1.12522, -0.029
DataValue, 1.13022, -0.0565
DataValue, 1.13538, -0.042
DataValue, 1.13964, -0.0385
DataValue, 1.145, -0.012
DataValue, 1.15016, -0.027
DataValue, 1.1551200000000002, -0.0305
DataValue, 1.1602400000000002, -0.042
DataValue, 1.1644400000000001, -0.0395
DataValue, 1.17018, -0.023
DataValue, 1.17446, -0.0185
DataValue, 1.1806400000000001, -0.025
DataValue, 1.1851200000000002, -0.0365
DataValue, 1.1897000000000002, -0.054
DataValue, 1.19504, -0.046
DataValue, 1.20052, -0.034
DataValue, 1.2054200000000002, -0.032
DataValue, 1.2105000000000001, -0.0445
DataValue, 1.21496, -0.0375
DataValue, 1.21978, -0.055
DataValue, 1.22458, -0.0415
DataValue, 1.2297200000000002, -0.029500000000000002
DataValue, 1.23512, -0.028
DataValue, 1.24018, -0.019
DataValue, 1.2448400000000002, -0.043000000000000003
DataValue, 1.25004, -0.0385
DataValue, 1.2548400000000002, -0.05
DataValue, 1.25988, -0.036000000000000004
DataValue, 1.26462, -0.0115
DataValue, 1.2698200000000002, -0.0265
DataValue, 1.2752400000000002, -0.022
DataValue, 1.2802, -0.033
DataValue, 1.2851800000000002, -0.0425
DataValue, 1.2912800000000002, -0.0555
DataValue, 1.29546, -0.025500000000000002
DataValue, 1.3004600000000002, -0.0335
DataValue, 1.30522, -0.0165
DataValue, 1.30994, -0.0345
DataValue, 1.31576, -0.0315
DataValue, 1.3199400000000001, -0.0465
DataValue, 1.32502, -0.034
DataValue, 1.3291400000000002, -0.028
DataValue, 1.33488, -0.025
DataValue, 1.34, -0.03
DataValue, 1.34514, -0.0225
DataValue, 1.3503, -0.04
DataValue, 1.3557800000000002, -0.0395
DataValue, 1.3594400000000002, -0.0375
DataValue, 1.36518, -0.013000000000000001
DataValue, 1.37006, -0.0175
DataValue, 1.37444, -0.0445
DataValue, 1.3803200000000002, -0.0425
DataValue, 1.38518, -0.054
DataValue, 1.3904400000000001, -0.0305
DataValue, 1.39548, -0.0365
DataValue, 1.3998000000000002, -0.019
DataValue, 1.4048200000000002, -0.015
DataValue, 1.4097000000000002, -0.0225
DataValue, 1.41568, -0.035
DataValue, 1.41964, -0.04
DataValue, 1.4249600000000002, -0.046
DataValue, 1.4299600000000001, -0.051000000000000004
DataValue, 1.43418, -0.033
DataValue, 1.43972, -0.021500000000000002
DataValue, 1.44466, -0.021500000000000002
DataValue, 1.44988, -0.049
DataValue, 1.45558, -0.051000000000000004
DataValue, 1.45994, -0.045
DataValue, 1.4655200000000002, -0.0285
DataValue, 1.4704000000000002, -0.0385
DataValue, 1.4744400000000002, -0.0175
DataValue, 1.48028, -0.0335
DataValue, 1.4852400000000001, -0.0425
DataValue, 1.4901200000000001, -0.046
DataValue, 1.4952400000000001, -0.037
DataValue, 1.5004600000000001, -0.0165
DataValue, 1.5050000000000001, -0.033
DataValue, 1.5098, -0.038
DataValue, 1.5144600000000001, -0.042
DataValue, 1.5202000000000002, -0.048
DataValue, 1.5253800000000002, -0.043500000000000004
DataValue, 1.5295800000000002, -0.03
DataValue, 1.5349400000000002, -0.031
DataValue, 1.5399800000000001, -0.034
DataValue, 1.5450400000000002, -0.019
DataValue, 1.5491000000000001, -0.055
DataValue, 1.5549000000000002, -0.0475
DataValue, 1.5598800000000002, -0.0485
DataValue, 1.5649600000000001, -0.04
DataValue, 1.5705600000000002, -0.036000000000000004
DataValue, 1.5752400000000002, -0.039
DataValue, 1.5803800000000001, -0.034
DataValue, 1.58488, -0.021500000000000002
DataValue, 1.59006, -0.0445
DataValue, 1.59488, -0.043500000000000004
DataValue, 1.60054, -0.036000000000000004
DataValue, 1.6052600000000001, -0.0145
DataValue, 1.6103, -0.022
DataValue, 1.61552, -0.0335
DataValue, 1.6199400000000002, -0.0385
DataValue, 1.62508, -0.0525
DataValue, 1.6302200000000002, -0.0375
DataValue, 1.6351000000000002, -0.0315
DataValue, 1.63996, -0.023
DataValue, 1.6453600000000002, -0.029
DataValue, 1.64982, -0.0375
DataValue, 1.6550600000000002, -0.028
DataValue, 1.6603800000000002, -0.0385
DataValue, 1.6650800000000001, -0.051500000000000004
DataValue, 1.6701000000000001, -0.0475
DataValue, 1.6745400000000001, -0.0275
DataValue, 1.67998, -0.0305
DataValue, 1.68554, -0.0205
DataValue, 1.6903800000000002, -0.0285
DataValue, 1.69538, -0.042
DataValue, 1.69982, -0.0375
DataValue, 1.70446, -0.041
DataValue, 1.7095000000000002, -0.0335
DataValue, 1.71486, -0.0375
DataValue, 1.7205400000000002, -0.0265
DataValue, 1.72564, -0.0235
DataValue, 1.7295800000000001, -0.023
DataValue, 1.735, -0.049
DataValue, 1.73964, -0.0395
DataValue, 1.7447800000000002, -0.031
DataValue, 1.75032, -0.0315
DataValue, 1.7553600000000003, -0.0235
DataValue, 1.75954, -0.018000000000000002
DataValue, 1.7652, -0.0335
DataValue, 1.7697, -0.0385
DataValue, 1.77472, -0.032
DataValue, 1.7800200000000002, -0.043000000000000003
DataValue, 1.7846600000000001, -0.037
DataValue, 1.7903000000000002, -0.019
DataValue, 1.7950800000000002, -0.0195
DataValue, 1.80004, -0.0155
DataValue, 1.8055, -0.034
DataValue, 1.8096400000000001, -0.0545
DataValue, 1.81488, -0.0475
DataValue, 1.8203600000000002, -0.033
DataValue, 1.8244000000000002, -0.032
DataValue, 1.83034, -0.028
DataValue, 1.8351800000000003, -0.0275
DataValue, 1.8399, -0.025500000000000002
DataValue, 1.8453600000000001, -0.0375
DataValue, 1.85068, -0.042
DataValue, 1.8550400000000002, -0.035
DataValue, 1.8595800000000002, -0.0285
DataValue, 1.86498, -0.0305
DataValue, 1.8696000000000002, -0.025
DataValue, 1.8748600000000002, -0.0090000000000000011
DataValue, 1.8799200000000003, -0.0145
DataValue, 1.88508, -0.0305
DataValue, 1.8902200000000002, -0.045
DataValue, 1.89518, -0.0465
