
SetupTitle, Rds-Id
ApplicationTest, Rds-Id, Public
TestParameter, Name, Memo, Scale, HoldTime, PulseBase, PulseAvgCnt, Gate, VgStart, VgStop, VgStep, IgLimit, Source, MeasurementTime, Drain, IdStart, IdStop, IdLinearStep, VdLimit, VdStop, PulsePeriodMode, ManualPulsePeriod, PulseWidth
TestParameter, Value, , LINEAR, 0, 0, 1, SMU2:MC	MCSMU, 20, 5, 1, 0.1, GNDU:GND	GNDU, 1E-05, SMU3:UHC500	UHCU500A, 0.5, 15, 0.1, 5, 0, 0, 0.05, 0.0002
DutParameter, Name, Polarity, Temp, YAxisRdsMin, YAxisRdsMax
DutParameter, Value, 1, 25, 0.001, 10
MetaData, TestRecord.EntryPoint, true
MetaData, TestRecord.RecordTime, 12/19/2020 10:25:05
MetaData, TestRecord.TestTarget, 
MetaData, TestRecord.IterationIndex, 1
MetaData, TestRecord.Preservation, true
MetaData, TestRecord.Flag, 
MetaData, TestRecord.Remarks, 
MetaData, TestRecord.LinkKey, abf17167-3153-4450-b271-559fd77d9bb7
Dimension1, 146, 146, 146, 146, 146, 146
Dimension2, 16, 16, 16, 16, 16, 16
DataName, Igate, Vgate, Vdrain, Idrain, Ta, Rds
DataValue, -1.2000000000000002E-06, 20.00018, 0.010700000000000001, 0.111, 25, 0.096396396396396411
DataValue, -1.1E-06, 20.000120000000003, 0.020200000000000003, 0.1495, 25, 0.1351170568561873
DataValue, -7.0000000000000007E-07, 20.00064, 0.027600000000000003, 0.279, 25, 0.0989247311827957
DataValue, -3.0000000000000004E-07, 20.000760000000003, 0.0395, 0.3865, 25, 0.10219922380336352
DataValue, -1.0000000000000001E-07, 19.99986, 0.0494, 0.4915, 25, 0.10050864699898271
DataValue, -9.0000000000000007E-07, 20.00034, 0.058300000000000005, 0.598, 25, 0.097491638795986629
DataValue, -1.8000000000000001E-06, 19.999760000000002, 0.07, 0.685, 25, 0.10218978102189781
DataValue, -6.0000000000000008E-07, 20.00024, 0.0805, 0.792, 25, 0.10164141414141414
DataValue, -2.1000000000000002E-06, 20.00008, 0.0908, 0.899, 25, 0.10100111234705228
DataValue, -4.0000000000000003E-07, 20.00006, 0.10110000000000001, 1.031, 25, 0.098060135790494676
DataValue, -6.0000000000000008E-07, 19.99998, 0.11, 1.1, 25, 0.099999999999999992
DataValue, -9.0000000000000007E-07, 19.99998, 0.12140000000000001, 1.2205, 25, 0.099467431380581742
DataValue, -4.0000000000000003E-07, 20.000140000000002, 0.1307, 1.334, 25, 0.097976011994003
DataValue, -1.9000000000000002E-06, 19.99924, 0.1413, 1.4365, 25, 0.098364079359554477
DataValue, -1.0000000000000002E-06, 20.00056, 0.1494, 1.5075, 25, 0.0991044776119403
DataValue, -1.5E-06, 19.9999, 0.1603, 1.637, 25, 0.097923029932803912
DataValue, -5.0000000000000008E-07, 20.000040000000002, 0.16790000000000002, 1.7195, 25, 0.097644664146554247
DataValue, -1.7000000000000002E-06, 20, 0.18030000000000002, 1.8335000000000001, 25, 0.098336514862285243
DataValue, -1.2000000000000002E-06, 19.99972, 0.1887, 1.911, 25, 0.098744113029827316
DataValue, -6.0000000000000008E-07, 20.0011, 0.20040000000000002, 2.0455, 25, 0.097971156196528977
DataValue, -1.6000000000000001E-06, 20.00008, 0.2086, 2.1085000000000003, 25, 0.0989328906805786
DataValue, -6.0000000000000008E-07, 20.00008, 0.2174, 2.2325, 25, 0.09737961926091826
DataValue, -1.0000000000000002E-06, 20.000300000000003, 0.22790000000000002, 2.3255, 25, 0.098000430015050544
DataValue, -2.0000000000000002E-07, 20.00066, 0.2391, 2.432, 25, 0.098314144736842107
DataValue, 1.0000000000000001E-07, 20.000780000000002, 0.24730000000000002, 2.5105, 25, 0.0985062736506672
DataValue, -7.0000000000000007E-07, 19.99988, 0.2566, 2.613, 25, 0.098201301186375808
DataValue, -1.1E-06, 20.00026, 0.2657, 2.734, 25, 0.097183613752743231
DataValue, -1.3E-06, 19.99998, 0.2782, 2.8175, 25, 0.098740017746228925
DataValue, -2.3E-06, 20.000040000000002, 0.2866, 2.9185, 25, 0.098201130717834512
DataValue, -2.2E-06, 19.999560000000002, 0.2972, 3.0275, 25, 0.09816680429397194
DataValue, -3.0000000000000004E-07, 19.999840000000003, 0.3054, 3.141, 25, 0.097230181470869148
DataValue, -8.0000000000000007E-07, 20.00044, 0.3141, 3.2265, 25, 0.097350069735006969
DataValue, -5.0000000000000008E-07, 19.99988, 0.3251, 3.289, 25, 0.098844633627242315
DataValue, -2.4000000000000003E-06, 19.999740000000003, 0.3355, 3.4185, 25, 0.098142460143337731
DataValue, -2.2E-06, 19.99952, 0.3438, 3.5195000000000003, 25, 0.097684330160534155
DataValue, 1.0000000000000002E-06, 20.000680000000003, 0.35400000000000004, 3.6265, 25, 0.097614780090996833
DataValue, -6.0000000000000008E-07, 19.999380000000002, 0.3642, 3.692, 25, 0.098645720476706389
DataValue, 0, 20.000040000000002, 0.37320000000000003, 3.8160000000000003, 25, 0.097798742138364786
DataValue, -5.0000000000000008E-07, 20.000860000000003, 0.38480000000000003, 3.908, 25, 0.098464687819856719
DataValue, -1.5E-06, 19.999180000000003, 0.39230000000000004, 3.9885, 25, 0.098357778613513858
DataValue, -1.2000000000000002E-06, 19.9996, 0.4048, 4.103, 25, 0.098659517426273463
DataValue, -1.5E-06, 20.00016, 0.4136, 4.2135, 25, 0.098160674023970579
DataValue, -1.3E-06, 20.000100000000003, 0.4227, 4.293, 25, 0.098462613556953182
DataValue, -1.3E-06, 20.000140000000002, 0.4303, 4.3925, 25, 0.0979624359704041
DataValue, -1.0000000000000002E-06, 20.000020000000003, 0.44260000000000005, 4.484, 25, 0.098706512042818925
DataValue, -6.0000000000000008E-07, 20.000380000000003, 0.4516, 4.577, 25, 0.0986672492899279
DataValue, -1.1E-06, 19.9998, 0.46140000000000003, 4.696, 25, 0.098253833049403758
DataValue, -1.9000000000000002E-06, 19.999760000000002, 0.4706, 4.774, 25, 0.098575617930456647
DataValue, -5.0000000000000008E-07, 19.999940000000002, 0.4806, 4.874, 25, 0.098604842018875677
DataValue, -4.0000000000000003E-07, 20.000040000000002, 0.4908, 4.986, 25, 0.098435619735258731
DataValue, -6.0000000000000008E-07, 20.000020000000003, 0.49970000000000003, 5.0520000000000005, 25, 0.0989113222486144
DataValue, -1.5E-06, 19.999660000000002, 0.5079, 5.1965, 25, 0.097738862696045412
DataValue, -1.4000000000000002E-06, 20.000100000000003, 0.51950000000000007, 5.288, 25, 0.098241301059001515
DataValue, 1.0000000000000001E-07, 20.000500000000002, 0.52860000000000007, 5.37, 25, 0.098435754189944144
DataValue, -7.0000000000000007E-07, 20.000120000000003, 0.5395, 5.4905, 25, 0.098260632000728529
DataValue, -1.0000000000000002E-06, 20.00044, 0.548, 5.5765, 25, 0.098269523894916166
DataValue, -1.4000000000000002E-06, 19.999640000000003, 0.55680000000000007, 5.65, 25, 0.098548672566371689
DataValue, 1.0000000000000001E-07, 20.00036, 0.5692, 5.785, 25, 0.098392394122731208
DataValue, -1.0000000000000002E-06, 19.9998, 0.5797, 5.844, 25, 0.099195756331279944
DataValue, -1.4000000000000002E-06, 20.00006, 0.58700000000000008, 5.9575000000000005, 25, 0.0985312631137222
DataValue, -1.0000000000000001E-07, 19.9996, 0.5986, 6.0635, 25, 0.098721860311701159
DataValue, -1.9000000000000002E-06, 19.9999, 0.6079, 6.16, 25, 0.098685064935064931
DataValue, -3.0000000000000004E-07, 20.000040000000002, 0.6179, 6.2685, 25, 0.098572226210417155
DataValue, -6.0000000000000008E-07, 19.999740000000003, 0.6257, 6.3255, 25, 0.098917081653624228
DataValue, -1.2000000000000002E-06, 20.00034, 0.6368, 6.453, 25, 0.098682783201611654
DataValue, -8.0000000000000007E-07, 20.00052, 0.64850000000000008, 6.559, 25, 0.09887177923463944
DataValue, -1.4000000000000002E-06, 20.000020000000003, 0.6551, 6.6370000000000005, 25, 0.098704233840590627
DataValue, -4.0000000000000003E-07, 20.00072, 0.66660000000000008, 6.753, 25, 0.098711683696135061
DataValue, -1.3E-06, 19.999660000000002, 0.6762, 6.8335, 25, 0.098953684056486427
DataValue, -1.2000000000000002E-06, 20.000120000000003, 0.6845, 6.944, 25, 0.09857430875576037
DataValue, -8.0000000000000007E-07, 20.000500000000002, 0.69390000000000007, 7.0255, 25, 0.098768770905985348
DataValue, -1.0000000000000002E-06, 19.99998, 0.7046, 7.139, 25, 0.098697296540131665
DataValue, -7.0000000000000007E-07, 19.999920000000003, 0.71410000000000007, 7.215, 25, 0.098974358974358981
DataValue, -1.7000000000000002E-06, 20.000320000000002, 0.7246, 7.306, 25, 0.099178757185874628
DataValue, -4.0000000000000003E-07, 19.999840000000003, 0.734, 7.4395, 25, 0.098662544525841792
DataValue, -1.0000000000000002E-06, 19.99962, 0.74440000000000006, 7.508, 25, 0.099147575919019723
DataValue, -1.0000000000000001E-07, 20.000400000000003, 0.755, 7.6115, 25, 0.09919201208697366
DataValue, -1.2000000000000002E-06, 20.000480000000003, 0.76330000000000009, 7.712, 25, 0.098975622406639013
DataValue, -1.9000000000000002E-06, 19.99914, 0.77560000000000007, 7.795, 25, 0.099499679281590772
DataValue, -1.0000000000000002E-06, 19.999640000000003, 0.78450000000000009, 7.9105, 25, 0.0991719866000885
DataValue, -9.0000000000000007E-07, 20.000040000000002, 0.79480000000000006, 7.992, 25, 0.099449449449449459
DataValue, -1.0000000000000001E-07, 19.9995, 0.80570000000000008, 8.0985, 25, 0.099487559424584815
DataValue, -1.5E-06, 20.00028, 0.8131, 8.188, 25, 0.099303859306301909
DataValue, -4.0000000000000003E-07, 20.000120000000003, 0.8243, 8.297, 25, 0.09934916234783657
DataValue, -5.0000000000000008E-07, 20.00018, 0.83410000000000006, 8.3975, 25, 0.09932718070854421
DataValue, -1.3E-06, 19.99978, 0.84420000000000006, 8.485, 25, 0.0994932233352976
DataValue, -1.4000000000000002E-06, 19.99962, 0.8538, 8.5695, 25, 0.099632417293891135
DataValue, -6.0000000000000008E-07, 19.99958, 0.86310000000000009, 8.691, 25, 0.099309630652399034
DataValue, -2.0000000000000002E-07, 20.000700000000002, 0.87420000000000009, 8.765, 25, 0.099737592698231611
DataValue, -6.0000000000000008E-07, 19.999820000000003, 0.8826, 8.855, 25, 0.09967250141163185
DataValue, 3.0000000000000004E-07, 20.00066, 0.8931, 8.9635, 25, 0.099637418419144308
DataValue, -1.4000000000000002E-06, 20.00026, 0.903, 9.089500000000001, 25, 0.0993453985367732
DataValue, -1.9000000000000002E-06, 20.000140000000002, 0.9133, 9.1815, 25, 0.0994717638730055
DataValue, -1.4000000000000002E-06, 19.99988, 0.9233, 9.262, 25, 0.099686892679766784
DataValue, -1.1E-06, 20.000200000000003, 0.935, 9.373, 25, 0.099754614317721133
DataValue, -1.0000000000000001E-07, 20.000200000000003, 0.9435, 9.4335, 25, 0.10001590077913818
DataValue, -7.0000000000000007E-07, 20.00008, 0.9533, 9.533, 25, 0.1
DataValue, -8.0000000000000007E-07, 20.000380000000003, 0.9638000000000001, 9.6445, 25, 0.09993260407486132
DataValue, -2.5E-06, 19.99958, 0.9725, 9.745000000000001, 25, 0.099794766546947147
DataValue, -4.0000000000000003E-07, 19.9998, 0.9844, 9.835, 25, 0.10009150991357396
DataValue, -7.0000000000000007E-07, 20.000140000000002, 0.9945, 9.9555, 25, 0.099894530661443423
DataValue, -1.9000000000000002E-06, 19.999540000000003, 1.0042, 10.047, 25, 0.09995023390066686
DataValue, -8.0000000000000007E-07, 20.000140000000002, 1.0151000000000001, 10.1495, 25, 0.10001477905315534
DataValue, -8.0000000000000007E-07, 20.00006, 1.0248000000000002, 10.237, 25, 0.10010745335547525
DataValue, 1.0000000000000001E-07, 20.000200000000003, 1.0356, 10.3285, 25, 0.10026625357021833
DataValue, -1.4000000000000002E-06, 20.000200000000003, 1.0452000000000001, 10.4365, 25, 0.10014851722320702
DataValue, -8.0000000000000007E-07, 20.00036, 1.0562, 10.5225, 25, 0.10037538607745307
DataValue, -1.4000000000000002E-06, 20.00008, 1.0662, 10.618500000000001, 25, 0.10040966238169233
DataValue, -1.4000000000000002E-06, 20.00006, 1.0753000000000001, 10.7285, 25, 0.1002283637041525
DataValue, -7.0000000000000007E-07, 20.000400000000003, 1.0845, 10.809000000000001, 25, 0.10033305578684429
DataValue, 0, 19.99998, 1.0975000000000001, 10.9145, 25, 0.10055430848870769
DataValue, -1.4000000000000002E-06, 20.000020000000003, 1.1054000000000002, 11.0005, 25, 0.10048634152993047
DataValue, -1.5E-06, 19.999100000000002, 1.1146, 11.091000000000001, 25, 0.10049589757461004
DataValue, -7.0000000000000007E-07, 20.00044, 1.1267, 11.2175, 25, 0.1004412747938489
DataValue, -1.8000000000000001E-06, 19.9996, 1.1363, 11.3035, 25, 0.10052638563276863
DataValue, -1.8000000000000001E-06, 20.000040000000002, 1.1455, 11.377, 25, 0.10068559374175969
DataValue, -1.7000000000000002E-06, 19.999540000000003, 1.1559000000000002, 11.4855, 25, 0.1006399373122633
DataValue, -9.0000000000000007E-07, 19.999480000000002, 1.1653, 11.560500000000001, 25, 0.10080013840231823
DataValue, 7.0000000000000007E-07, 20.00006, 1.1756, 11.6545, 25, 0.10087090823287141
DataValue, -7.0000000000000007E-07, 20.000500000000002, 1.1878, 11.757, 25, 0.10102917410904143
DataValue, -1.8000000000000001E-06, 19.999560000000002, 1.1975, 11.871, 25, 0.10087608457585713
DataValue, -5.0000000000000008E-07, 20.00066, 1.207, 11.958, 25, 0.10093661147349055
DataValue, 0, 20.000760000000003, 1.2174, 12.0365, 25, 0.10114235865907864
DataValue, -1.2000000000000002E-06, 19.9998, 1.2279, 12.15, 25, 0.10106172839506172
DataValue, 0, 19.9996, 1.2389000000000001, 12.249, 25, 0.10114295044493428
DataValue, -1.4000000000000002E-06, 20.00008, 1.2488000000000001, 12.344, 25, 0.10116655865197669
DataValue, -8.0000000000000007E-07, 19.999640000000003, 1.2596, 12.4555, 25, 0.10112801573602023
DataValue, -6.0000000000000008E-07, 20.000140000000002, 1.2697, 12.5465, 25, 0.10119953771968278
DataValue, -1.0000000000000002E-06, 19.99986, 1.2794, 12.653, 25, 0.10111436023077532
DataValue, -1.7000000000000002E-06, 19.99978, 1.2886, 12.7415, 25, 0.10113408939292862
DataValue, -2.0000000000000002E-07, 19.999660000000002, 1.2996, 12.839500000000001, 25, 0.10121889481677636
DataValue, -1.8000000000000001E-06, 19.999380000000002, 1.3117, 12.9295, 25, 0.10145017208708766
DataValue, -1.3E-06, 20.00036, 1.3199, 13.0105, 25, 0.1014488297913224
DataValue, -7.0000000000000007E-07, 19.99958, 1.3317, 13.086500000000001, 25, 0.10176135712375349
DataValue, -1.4000000000000002E-06, 19.999640000000003, 1.3412000000000002, 13.1965, 25, 0.1016330087523207
DataValue, 4.0000000000000003E-07, 20.00052, 1.3526, 13.277000000000001, 25, 0.10187542366498456
DataValue, -1.3E-06, 20, 1.3635000000000002, 13.401, 25, 0.1017461383478845
DataValue, -1.3E-06, 20.00024, 1.3721, 13.4905, 25, 0.10170860976242541
DataValue, -1.5E-06, 20.00016, 1.3811, 13.572000000000001, 25, 0.10176097848511641
DataValue, 5.0000000000000008E-07, 20.00008, 1.3911, 13.688, 25, 0.10162916423144359
DataValue, -2.3E-06, 19.99942, 1.3999000000000001, 13.76, 25, 0.10173691860465117
DataValue, -5.0000000000000008E-07, 20.00006, 1.4100000000000001, 13.8315, 25, 0.10194122112569137
DataValue, -7.0000000000000007E-07, 20.00034, 1.4158000000000002, 13.8975, 25, 0.10187443784853391
DataValue, -2.2E-06, 19.999380000000002, 1.4266, 13.991, 25, 0.10196554928168108
DataValue, -1.0000000000000002E-06, 19.99978, 1.4319000000000002, 14.06, 25, 0.1018421052631579
DataValue, -1.5E-06, 19.999920000000003, 1.4392, 14.1385, 25, 0.10179297662411146
DataValue, -7.0000000000000007E-07, 18.999460000000003, 0.0119, 0.091, 25, 0.13076923076923078
DataValue, -1.3E-06, 18.999760000000002, 0.0194, 0.1605, 25, 0.12087227414330218
DataValue, -3.0000000000000004E-07, 18.9998, 0.026000000000000002, 0.263, 25, 0.098859315589353611
DataValue, -9.0000000000000007E-07, 18.99968, 0.0398, 0.37, 25, 0.10756756756756758
DataValue, -9.0000000000000007E-07, 19.000400000000003, 0.048, 0.47150000000000003, 25, 0.10180275715800635
DataValue, -1.4000000000000002E-06, 18.999740000000003, 0.058300000000000005, 0.5765, 25, 0.10112749349522984
DataValue, 7.0000000000000007E-07, 19.00034, 0.0709, 0.682, 25, 0.10395894428152493
DataValue, 1.0000000000000001E-07, 18.99988, 0.0815, 0.796, 25, 0.10238693467336683
DataValue, -6.0000000000000008E-07, 19.000100000000003, 0.091900000000000009, 0.902, 25, 0.10188470066518848
DataValue, -1.3E-06, 18.999760000000002, 0.101, 0.995, 25, 0.10150753768844222
DataValue, -6.0000000000000008E-07, 19.000960000000003, 0.111, 1.1015, 25, 0.10077167498865185
DataValue, 0, 18.99988, 0.12200000000000001, 1.207, 25, 0.10107705053852527
DataValue, -7.0000000000000007E-07, 19.000020000000003, 0.13190000000000002, 1.32, 25, 0.099924242424242429
DataValue, -1.0000000000000002E-06, 18.99978, 0.14150000000000002, 1.4215, 25, 0.099542736545902233
DataValue, -7.0000000000000007E-07, 18.9999, 0.1512, 1.5245, 25, 0.099180059035749432
DataValue, -1.7000000000000002E-06, 18.9997, 0.1622, 1.629, 25, 0.099570288520564765
DataValue, -4.0000000000000003E-07, 18.99996, 0.17270000000000002, 1.7095, 25, 0.10102369113775959
DataValue, -1.4000000000000002E-06, 18.99996, 0.18150000000000002, 1.8225, 25, 0.09958847736625516
DataValue, 0, 19.000420000000002, 0.19190000000000002, 1.9080000000000001, 25, 0.10057651991614255
DataValue, -5.0000000000000008E-07, 19.00016, 0.2021, 2.0215, 25, 0.0999752658916646
DataValue, 3.0000000000000004E-07, 19.00038, 0.21200000000000002, 2.1185, 25, 0.10007080481472741
DataValue, -2.0000000000000002E-07, 19.00016, 0.2202, 2.2185, 25, 0.099256254225828261
DataValue, -7.0000000000000007E-07, 18.999820000000003, 0.232, 2.3295, 25, 0.099592187164627616
DataValue, -1.1E-06, 18.9994, 0.24020000000000003, 2.4225, 25, 0.099153766769865856
DataValue, -3.0000000000000004E-07, 19.000020000000003, 0.24910000000000002, 2.5265, 25, 0.098594894122303586
DataValue, -1.7000000000000002E-06, 19.000300000000003, 0.2614, 2.625, 25, 0.0995809523809524
DataValue, -3.0000000000000004E-07, 19.00044, 0.2697, 2.711, 25, 0.099483585392843979
DataValue, -3.0000000000000004E-07, 18.999640000000003, 0.2802, 2.8175, 25, 0.099449866903283057
DataValue, -4.0000000000000003E-07, 19.00036, 0.2914, 2.93, 25, 0.099453924914675765
DataValue, -2.2E-06, 18.999280000000002, 0.2989, 3.0245, 25, 0.098826252273102988
DataValue, -4.0000000000000003E-07, 19.000500000000002, 0.3099, 3.1355, 25, 0.098835911337904647
DataValue, -6.0000000000000008E-07, 18.999380000000002, 0.3179, 3.2165, 25, 0.098834136483755636
DataValue, -8.0000000000000007E-07, 18.99962, 0.32830000000000004, 3.3045, 25, 0.0993493720683916
DataValue, -7.0000000000000007E-07, 18.999360000000003, 0.3375, 3.41, 25, 0.098973607038123176
DataValue, -4.0000000000000003E-07, 18.999660000000002, 0.34890000000000004, 3.496, 25, 0.099799771167048065
DataValue, -4.0000000000000003E-07, 19.000420000000002, 0.3583, 3.5815, 25, 0.10004188189306157
DataValue, -9.0000000000000007E-07, 19.00074, 0.3694, 3.6875, 25, 0.10017627118644068
DataValue, -1.5E-06, 19.000500000000002, 0.3788, 3.7945, 25, 0.099828699433390442
DataValue, -1.3E-06, 18.99932, 0.38780000000000003, 3.8985000000000003, 25, 0.099474156726946261
DataValue, -8.0000000000000007E-07, 18.99996, 0.3987, 4, 25, 0.099675
DataValue, 6.0000000000000008E-07, 19.00038, 0.40840000000000004, 4.1155, 25, 0.099234600899040223
DataValue, -6.0000000000000008E-07, 19.00024, 0.4179, 4.197, 25, 0.0995711222301644
DataValue, -7.0000000000000007E-07, 19.00028, 0.4262, 4.3045, 25, 0.099012661168544555
DataValue, -1.9000000000000002E-06, 18.999360000000003, 0.43670000000000003, 4.4005, 25, 0.099238722872400875
DataValue, -1.5E-06, 18.9995, 0.4455, 4.4735000000000005, 25, 0.099586453559852461
DataValue, -6.0000000000000008E-07, 19.00018, 0.45790000000000003, 4.5795, 25, 0.099989081777486624
DataValue, -1.8000000000000001E-06, 18.99986, 0.46430000000000005, 4.6775, 25, 0.099262426509887772
DataValue, -5.0000000000000008E-07, 19, 0.4756, 4.7735, 25, 0.099633392688802766
DataValue, 1.0000000000000002E-06, 19.00082, 0.4864, 4.8925, 25, 0.099417475728155333
DataValue, -9.0000000000000007E-07, 18.99932, 0.49820000000000003, 4.987, 25, 0.099899739322237821
DataValue, -7.0000000000000007E-07, 18.999000000000002, 0.5041, 5.0875, 25, 0.099085995085995082
DataValue, -6.0000000000000008E-07, 19, 0.5159, 5.1855, 25, 0.0994889595988815
DataValue, -1.5E-06, 18.999820000000003, 0.52450000000000008, 5.2825, 25, 0.099290108849976355
DataValue, -1.6000000000000001E-06, 19.000120000000003, 0.5358, 5.361, 25, 0.099944040290990507
DataValue, -7.0000000000000007E-07, 19.00036, 0.5465, 5.4815000000000005, 25, 0.099698987503420586
DataValue, -3.0000000000000004E-07, 18.99962, 0.5553, 5.573, 25, 0.0996411268616544
