
SetupTitle, IG-VGS-VDS_0
PrimitiveTest, Multi Channel I/V Sweep
TestParameter, Channel.UnitType, SMU, SMU
TestParameter, Channel.Unit, SMU2:MC, SMU5:HC
TestParameter, Channel.IName, IG, ID
TestParameter, Channel.VName, VGS, VDS
TestParameter, Channel.Mode, VPULSE, VPULSE
TestParameter, Channel.Func, VAR1, CONST
TestParameter, Channel.Index, 
TestParameter, Channel.Time, 
TestParameter, Measurement.Port.Unit, SMU2:MC, SMU5:HC
TestParameter, Measurement.Port.SeriesResistor, NONE, NONE
TestParameter, Measurement.Port.Filter, OFF, OFF
TestParameter, Measurement.Port.OutputVoltageComparison, 0, 0
TestParameter, Measurement.Primary.Start, 0
TestParameter, Measurement.Primary.Stop, 15.000000000000002
TestParameter, Measurement.Primary.Compliance, 0.099999999999999992
TestParameter, Measurement.Primary.PowerCompliance, 0
TestParameter, Measurement.Primary.Locus, Single
TestParameter, Measurement.Primary.Scale, LINEAR
TestParameter, Measurement.Primary.Count, 101
TestParameter, Measurement.Aborting.Condition, CONTINUE AT ANY
TestParameter, Measurement.PostOutput.Value, START
TestParameter, Measurement.PostOutput.Retention, OFF
TestParameter, Measurement.Bias.Source, 0, 0
TestParameter, Measurement.Bias.Compliance, 0.099999999999999992, 20
TestParameter, Measurement.Pulse.Delay, 0, 0
TestParameter, Measurement.Pulse.Duration, 0.001, 0.00019999999999999998
TestParameter, Measurement.Pulse.Base, 0, 0
TestParameter, Measurement.Pulse.Period, 0
TestParameter, Measurement.Pulse.MeasurementDelay, 0
TestParameter, Measurement.Pulse.AveragingCount, 1
TestParameter, Measurement.Monitor.Unit, SMU2:MC, SMU5:HC
TestParameter, Measurement.Monitor.Adc, HS ADC, HS ADC
TestParameter, Measurement.Monitor.Measurement, Force and Compliance Sides, Force and Compliance Sides
TestParameter, Measurement.Timing.Hold, 0
TestParameter, Measurement.Timing.Delay, 0
TestParameter, Measurement.Adc.HighSpeed.Mode, TIME
TestParameter, Measurement.Adc.HighSpeed.Coeff, 4.9999999999999996E-05
TestParameter, Measurement.Adc.HighResolution.AutoZero, OFF
TestParameter, Measurement.Adc.HighResolution.Mode, AUTO
TestParameter, Measurement.Adc.HighResolution.Coeff, 6
TestParameter, Measurement.WaitTime.Source.Coeff, 1
TestParameter, Measurement.WaitTime.Source.Offset, 0
TestParameter, Measurement.WaitTime.Monitor.Coeff, 1
TestParameter, Measurement.WaitTime.Monitor.Offset, 0
TestParameter, Output.Graph.Enabled, true
TestParameter, Output.Graph.AutoScaling, false
TestParameter, Output.Graph.XAxis.Data, VGS
TestParameter, Output.Graph.XAxis.Scale, Linear
TestParameter, Output.Graph.XAxis.Left, -5
TestParameter, Output.Graph.XAxis.Right, 20
TestParameter, Output.Graph.XAxis.RunTimeAutoScale, false
TestParameter, Output.Graph.YAxis.Data, IG
TestParameter, Output.Graph.YAxis.Scale, Linear
TestParameter, Output.Graph.YAxis.Bottom, -2E-06
TestParameter, Output.Graph.YAxis.Top, 2E-06
TestParameter, Output.Graph.YAxis.Group, 
TestParameter, Output.Graph.YAxis.RunTimeAutoScale, false
TestParameter, Output.List.Data, VGS, IG
TestParameter, AutoAnalysis.Interpolation, false
TestParameter, AutoAnalysis.Line1.Enabled, false
TestParameter, AutoAnalysis.Line1.Type, 1
TestParameter, AutoAnalysis.Line1.Fix, True
TestParameter, AutoAnalysis.Line1.YAxis, 0
TestParameter, AutoAnalysis.Line1.Point1.Type, 0
TestParameter, AutoAnalysis.Line1.Point1.XY.X, 
TestParameter, AutoAnalysis.Line1.Point1.XY.Y, 
TestParameter, AutoAnalysis.Line1.Point1.Data.Var, 
TestParameter, AutoAnalysis.Line1.Point1.Data.Condition, 
TestParameter, AutoAnalysis.Line1.Point1.Data.Start, false
TestParameter, AutoAnalysis.Line1.Point1.Data.StartVar, 
TestParameter, AutoAnalysis.Line1.Point1.Data.StartCondition, 
TestParameter, AutoAnalysis.Line1.Point2.Type, 0
TestParameter, AutoAnalysis.Line1.Point2.XY.X, 
TestParameter, AutoAnalysis.Line1.Point2.XY.Y, 
TestParameter, AutoAnalysis.Line1.Point2.Data.Var, 
TestParameter, AutoAnalysis.Line1.Point2.Data.Condition, 
TestParameter, AutoAnalysis.Line1.Point2.Data.Start, false
TestParameter, AutoAnalysis.Line1.Point2.Data.StartVar, 
TestParameter, AutoAnalysis.Line1.Point2.Data.StartCondition, 
TestParameter, AutoAnalysis.Line1.GradientExpr, 0
TestParameter, AutoAnalysis.Line2.Enabled, false
TestParameter, AutoAnalysis.Line2.Type, 1
TestParameter, AutoAnalysis.Line2.Fix, True
TestParameter, AutoAnalysis.Line2.YAxis, 0
TestParameter, AutoAnalysis.Line2.Point1.Type, 0
TestParameter, AutoAnalysis.Line2.Point1.XY.X, 
TestParameter, AutoAnalysis.Line2.Point1.XY.Y, 
TestParameter, AutoAnalysis.Line2.Point1.Data.Var, 
TestParameter, AutoAnalysis.Line2.Point1.Data.Condition, 
TestParameter, AutoAnalysis.Line2.Point1.Data.Start, false
TestParameter, AutoAnalysis.Line2.Point1.Data.StartVar, 
TestParameter, AutoAnalysis.Line2.Point1.Data.StartCondition, 
TestParameter, AutoAnalysis.Line2.Point2.Type, 0
TestParameter, AutoAnalysis.Line2.Point2.XY.X, 
TestParameter, AutoAnalysis.Line2.Point2.XY.Y, 
TestParameter, AutoAnalysis.Line2.Point2.Data.Var, 
TestParameter, AutoAnalysis.Line2.Point2.Data.Condition, 
TestParameter, AutoAnalysis.Line2.Point2.Data.Start, false
TestParameter, AutoAnalysis.Line2.Point2.Data.StartVar, 
TestParameter, AutoAnalysis.Line2.Point2.Data.StartCondition, 
TestParameter, AutoAnalysis.Line2.GradientExpr, 0
TestParameter, AutoAnalysis.Marker.Enabled, false
TestParameter, AutoAnalysis.Marker.Data.Var, 
TestParameter, AutoAnalysis.Marker.Data.Condition, 
TestParameter, AutoAnalysis.Marker.Data.Start, false
TestParameter, AutoAnalysis.Marker.Data.StartVar, 
TestParameter, AutoAnalysis.Marker.Data.StartCondition, 
MetaData, TestRecord.EntryPoint, true
MetaData, TestRecord.RecordTime, 04/30/2021 08:43:32
MetaData, TestRecord.TestTarget, 
MetaData, TestRecord.IterationIndex, 1
MetaData, TestRecord.Preservation, true
MetaData, TestRecord.Flag, 
MetaData, TestRecord.Remarks, 
MetaData, TestRecord.LinkKey, e022c08f-7c9a-4582-b84b-77c275dacdb1
Dimension1, 101, 101
Dimension2, 1, 1
DataName, IG, VGS
DataValue, 1.1E-06, 6.0000000000000008E-05
DataValue, 5.0000000000000008E-07, 0.15002000000000001
DataValue, 1.1E-06, 0.29986
DataValue, 8.0000000000000007E-07, 0.45
DataValue, 1.3E-06, 0.59994
DataValue, 1.0000000000000002E-06, 0.75006000000000006
DataValue, 1.0000000000000002E-06, 0.89998000000000011
DataValue, 7.0000000000000007E-07, 1.05
DataValue, 5.0000000000000008E-07, 1.1999600000000001
DataValue, 1.4000000000000002E-06, 1.34992
DataValue, 9.0000000000000007E-07, 1.5001600000000002
DataValue, 8.0000000000000007E-07, 1.6500800000000002
DataValue, 9.0000000000000007E-07, 1.80004
DataValue, 1.4000000000000002E-06, 1.9499800000000003
DataValue, 1.6000000000000001E-06, 2.10006
DataValue, 7.0000000000000007E-07, 2.25002
DataValue, 1.1E-06, 2.40002
DataValue, 6.0000000000000008E-07, 2.5500000000000003
DataValue, 1.3E-06, 2.70006
DataValue, 8.0000000000000007E-07, 2.8500400000000004
DataValue, 1.3E-06, 2.9999800000000003
DataValue, 1.7000000000000002E-06, 3.1499800000000002
DataValue, 9.0000000000000007E-07, 3.29998
DataValue, 1.2000000000000002E-06, 3.4498400000000005
DataValue, 9.0000000000000007E-07, 3.5999800000000004
DataValue, 9.0000000000000007E-07, 3.7499000000000002
DataValue, 1.1E-06, 3.9000000000000004
DataValue, 7.0000000000000007E-07, 4.05008
DataValue, 5.0000000000000008E-07, 4.20012
DataValue, 1.4000000000000002E-06, 4.34998
DataValue, 8.0000000000000007E-07, 4.4999800000000008
DataValue, 8.0000000000000007E-07, 4.6500200000000005
DataValue, 7.0000000000000007E-07, 4.80006
DataValue, 4.0000000000000003E-07, 4.95
DataValue, 8.0000000000000007E-07, 5.1000000000000005
DataValue, 2.0000000000000002E-07, 5.25
DataValue, 8.0000000000000007E-07, 5.4000800000000009
DataValue, 6.0000000000000008E-07, 5.5501600000000009
DataValue, 6.0000000000000008E-07, 5.69998
DataValue, 1.0000000000000001E-07, 5.85008
DataValue, 5.0000000000000008E-07, 6.00002
DataValue, 6.0000000000000008E-07, 6.14998
DataValue, 6.0000000000000008E-07, 6.29994
DataValue, 3.0000000000000004E-07, 6.4500800000000007
DataValue, 6.0000000000000008E-07, 6.60008
DataValue, 0, 6.749880000000001
DataValue, 4.0000000000000003E-07, 6.89998
DataValue, 5.0000000000000008E-07, 7.0499800000000006
DataValue, 7.0000000000000007E-07, 7.1999200000000005
DataValue, 5.0000000000000008E-07, 7.3500600000000009
DataValue, 1.0000000000000001E-07, 7.4999
DataValue, 8.0000000000000007E-07, 7.65014
DataValue, 5.0000000000000008E-07, 7.8000200000000008
DataValue, 2.0000000000000002E-07, 7.9499
DataValue, 3.0000000000000004E-07, 8.10004
DataValue, 1.0000000000000002E-06, 8.2500600000000013
DataValue, 1.0000000000000001E-07, 8.40004
DataValue, 7.0000000000000007E-07, 8.55002
DataValue, 6.0000000000000008E-07, 8.69996
DataValue, 8.0000000000000007E-07, 8.85008
DataValue, 1.0000000000000001E-07, 8.9999200000000013
DataValue, 3.0000000000000004E-07, 9.1500200000000014
DataValue, 3.0000000000000004E-07, 9.2999400000000012
DataValue, 7.0000000000000007E-07, 9.44996
DataValue, 5.0000000000000008E-07, 9.59998
DataValue, 3.0000000000000004E-07, 9.7499
DataValue, 1.0000000000000001E-07, 9.9000200000000014
DataValue, 0, 10.049940000000001
DataValue, 7.0000000000000007E-07, 10.200000000000001
DataValue, 1.0000000000000001E-07, 10.35002
DataValue, 3.0000000000000004E-07, 10.50008
DataValue, 5.0000000000000008E-07, 10.650060000000002
DataValue, 3.0000000000000004E-07, 10.799980000000002
DataValue, 5.0000000000000008E-07, 10.94998
DataValue, 3.0000000000000004E-07, 11.100100000000001
DataValue, 3.0000000000000004E-07, 11.250020000000001
DataValue, 4.0000000000000003E-07, 11.399920000000002
DataValue, 4.0000000000000003E-07, 11.550040000000001
DataValue, 4.0000000000000003E-07, 11.699980000000002
DataValue, 4.0000000000000003E-07, 11.850040000000002
DataValue, 5.0000000000000008E-07, 11.99998
DataValue, 1.0000000000000001E-07, 12.15004
DataValue, 1.0000000000000001E-07, 12.30006
DataValue, 2.0000000000000002E-07, 12.4501
DataValue, -1.0000000000000001E-07, 12.600000000000001
DataValue, 4.0000000000000003E-07, 12.7499
DataValue, 0, 12.899960000000002
DataValue, 5.0000000000000008E-07, 13.0501
DataValue, -4.0000000000000003E-07, 13.19988
DataValue, -3.0000000000000004E-07, 13.34998
DataValue, 2.0000000000000002E-07, 13.500140000000002
DataValue, 4.0000000000000003E-07, 13.649980000000001
DataValue, 0, 13.799940000000001
DataValue, 7.0000000000000007E-07, 13.950000000000001
DataValue, 2.0000000000000002E-07, 14.099920000000001
DataValue, 0, 14.249900000000002
DataValue, 6.0000000000000008E-07, 14.400060000000002
DataValue, 0, 14.549980000000002
DataValue, 4.0000000000000003E-07, 14.700020000000002
DataValue, 2.0000000000000002E-07, 14.849960000000001
DataValue, 3.0000000000000004E-07, 15.000000000000002