
SetupTitle, Rds-Id
ApplicationTest, Rds-Id, Public
TestParameter, Name, Memo, Scale, HoldTime, PulseBase, PulseAvgCnt, Gate, VgStart, VgStop, VgStep, IgLimit, Source, MeasurementTime, Drain, IdStart, IdStop, IdLinearStep, VdLimit, VdStop, PulsePeriodMode, ManualPulsePeriod, PulseWidth
TestParameter, Value, , LINEAR, 0, 0, 1, SMU2:MC	MCSMU, 15, 5, 1, 0.1, GNDU:GND	GNDU, 1E-05, SMU3:UHC500	UHCU500A, 0.5, 30, 0.2, 2, 0, 0, 0.05, 0.0002
DutParameter, Name, Polarity, Temp, YAxisRdsMin, YAxisRdsMax
DutParameter, Value, 1, 25, 0.001, 1
MetaData, TestRecord.EntryPoint, true
MetaData, TestRecord.RecordTime, 04/30/2021 08:42:00
MetaData, TestRecord.TestTarget, 
MetaData, TestRecord.IterationIndex, 1
MetaData, TestRecord.Preservation, true
MetaData, TestRecord.Flag, 
MetaData, TestRecord.Remarks, 
MetaData, TestRecord.LinkKey, d3055a2d-d748-4468-bba7-929cd8283250
Dimension1, 148, 148, 148, 148, 148, 148
Dimension2, 11, 11, 11, 11, 11, 11
DataName, Igate, Vgate, Vdrain, Idrain, Ta, Rds
DataValue, 3.0000000000000004E-07, 15.00046, 0.0065000000000000006, 0.1095, 25, 0.05936073059360731
DataValue, -3.0000000000000004E-07, 14.999720000000002, 0.0162, 0.28750000000000003, 25, 0.056347826086956515
DataValue, 1.6000000000000001E-06, 14.999540000000001, 0.0268, 0.532, 25, 0.05037593984962406
DataValue, -5.0000000000000008E-07, 15.000420000000002, 0.0346, 0.7415, 25, 0.046662171274443692
DataValue, 1.0000000000000001E-07, 15.000100000000002, 0.045000000000000005, 0.991, 25, 0.045408678102926342
DataValue, -3.0000000000000004E-07, 14.999740000000001, 0.0539, 1.202, 25, 0.044841930116472549
DataValue, 1.4000000000000002E-06, 15.000020000000001, 0.0621, 1.3905, 25, 0.044660194174757278
DataValue, 3.0000000000000004E-07, 14.99994, 0.07060000000000001, 1.6375, 25, 0.0431145038167939
DataValue, 1.8000000000000001E-06, 15.0004, 0.08030000000000001, 1.8375000000000001, 25, 0.043700680272108848
DataValue, 1.4000000000000002E-06, 15.00026, 0.089900000000000008, 2.0335, 25, 0.044209491025325794
DataValue, 1.7000000000000002E-06, 14.999680000000002, 0.098600000000000007, 2.251, 25, 0.043802754331408268
DataValue, -1.4000000000000002E-06, 14.99984, 0.1068, 2.476, 25, 0.043134087237479808
DataValue, -6.0000000000000008E-07, 15.000420000000002, 0.1144, 2.656, 25, 0.0430722891566265
DataValue, 8.0000000000000007E-07, 14.999640000000001, 0.1245, 2.88, 25, 0.043229166666666666
DataValue, 1.0000000000000002E-06, 14.999680000000002, 0.1341, 3.09, 25, 0.043398058252427187
DataValue, 8.0000000000000007E-07, 15.0004, 0.1398, 3.278, 25, 0.042647956070774866
DataValue, 1.5E-06, 14.99984, 0.1486, 3.487, 25, 0.042615428735302552
DataValue, 7.0000000000000007E-07, 14.999740000000001, 0.1582, 3.6935000000000002, 25, 0.042832002165967241
DataValue, 1.8000000000000001E-06, 14.99994, 0.1668, 3.902, 25, 0.042747309072270631
DataValue, 1.1E-06, 14.999760000000002, 0.1762, 4.0805, 25, 0.043180982722705555
DataValue, 1.0000000000000002E-06, 15.0004, 0.1842, 4.2965, 25, 0.042872105201908532
DataValue, -1.0000000000000001E-07, 15.000200000000001, 0.19190000000000002, 4.505, 25, 0.042597114317425085
DataValue, 5.0000000000000008E-07, 14.999880000000001, 0.2005, 4.672, 25, 0.042915239726027406
DataValue, -6.0000000000000008E-07, 14.999120000000001, 0.2107, 4.9035, 25, 0.042969307637401852
DataValue, 1.3E-06, 15.00054, 0.21880000000000002, 5.1075, 25, 0.042838962310327952
DataValue, 1.1E-06, 15.000240000000002, 0.2273, 5.3085, 25, 0.042818121880003765
DataValue, -6.0000000000000008E-07, 15.000000000000002, 0.2363, 5.4915, 25, 0.043030137485204407
DataValue, 1.5E-06, 14.99952, 0.2421, 5.694, 25, 0.042518440463645946
DataValue, 1.4000000000000002E-06, 15.000840000000002, 0.2529, 5.9135, 25, 0.042766551111862693
DataValue, 1.8000000000000001E-06, 15.000480000000001, 0.2609, 6.064, 25, 0.04302440633245383
DataValue, 0, 15.000980000000002, 0.2692, 6.2435, 25, 0.04311684151517578
DataValue, -6.0000000000000008E-07, 15.00012, 0.2746, 6.4375, 25, 0.042656310679611655
DataValue, 1.4000000000000002E-06, 15.000240000000002, 0.2813, 6.5645, 25, 0.042851702338334983
DataValue, 9.0000000000000007E-07, 15.000060000000001, 0.2846, 6.6725, 25, 0.042652678905957288
DataValue, 3.0000000000000004E-07, 14.999440000000002, 0.2888, 6.7695, 25, 0.042661939581948444
DataValue, 3.0000000000000004E-07, 15.000480000000001, 0.2909, 6.8260000000000005, 25, 0.042616466451801928
DataValue, 9.0000000000000007E-07, 15.000020000000001, 0.29100000000000004, 6.8815, 25, 0.042287292014822356
DataValue, 1.5E-06, 15.000100000000002, 0.29250000000000004, 6.8980000000000006, 25, 0.042403595244998551
DataValue, -9.0000000000000007E-07, 14.99994, 0.2929, 6.923, 25, 0.042308247869420772
DataValue, 1.4000000000000002E-06, 14.999360000000001, 0.2947, 6.9405, 25, 0.042460917801311143
DataValue, -2.0000000000000002E-07, 15.00008, 0.2928, 6.9555, 25, 0.042096182876860039
DataValue, 1.3E-06, 15.000140000000002, 0.29300000000000004, 6.9670000000000005, 25, 0.042055404047653226
DataValue, 1.2000000000000002E-06, 14.9997, 0.2924, 6.955, 25, 0.042041696621135875
DataValue, 8.0000000000000007E-07, 15.00022, 0.2931, 6.9670000000000005, 25, 0.042069757427874263
DataValue, -6.0000000000000008E-07, 14.999820000000002, 0.29400000000000004, 6.9615, 25, 0.042232277526395176
DataValue, 1.0000000000000002E-06, 14.999640000000001, 0.2929, 6.9665, 25, 0.042044068039905264
DataValue, 1.4000000000000002E-06, 14.999880000000001, 0.2947, 6.981, 25, 0.042214582438046128
DataValue, 1.8000000000000001E-06, 15.000720000000001, 0.2936, 6.9945, 25, 0.041975838158553151
DataValue, 2.0000000000000002E-07, 14.999600000000001, 0.2954, 6.9715, 25, 0.042372516675034069
DataValue, 2.1000000000000002E-06, 15.000140000000002, 0.2942, 6.96, 25, 0.04227011494252874
DataValue, 7.0000000000000007E-07, 15.00008, 0.29460000000000003, 6.9795, 25, 0.0422093273157103
DataValue, -5.0000000000000008E-07, 14.999720000000002, 0.2943, 6.986, 25, 0.042127111365588318
DataValue, 4.0000000000000003E-07, 14.999920000000001, 0.2944, 7, 25, 0.042057142857142855
DataValue, 1.3E-06, 15.000040000000002, 0.29450000000000004, 6.9855, 25, 0.04215875742609692
DataValue, 1.0000000000000001E-07, 14.999680000000002, 0.2958, 7.0055000000000005, 25, 0.042223966883163225
DataValue, 3.0000000000000004E-07, 15.0006, 0.2937, 6.9955, 25, 0.04198413265670789
DataValue, 4.0000000000000003E-07, 15.00064, 0.2947, 6.9805, 25, 0.042217606188668433
DataValue, 5.0000000000000008E-07, 15.000280000000002, 0.2931, 6.9750000000000005, 25, 0.042021505376344088
DataValue, -3.0000000000000004E-07, 14.999600000000001, 0.2933, 6.9745, 25, 0.042053193777331709
DataValue, 6.0000000000000008E-07, 14.99942, 0.29560000000000003, 6.9765, 25, 0.042370816311904258
DataValue, 8.0000000000000007E-07, 15.000240000000002, 0.2947, 6.978, 25, 0.042232731441673839
DataValue, -1.5E-06, 14.999820000000002, 0.2938, 6.996, 25, 0.041995425957690104
DataValue, 1.7000000000000002E-06, 15.000860000000001, 0.2953, 7.009, 25, 0.042131545156227704
DataValue, 1.5E-06, 15.00036, 0.29660000000000003, 6.9915, 25, 0.042422942144032041
DataValue, 3.0000000000000004E-07, 14.999460000000001, 0.29500000000000004, 6.985, 25, 0.042233357193987117
DataValue, 4.0000000000000003E-07, 15.000520000000002, 0.2952, 6.9755, 25, 0.042319546985879149
DataValue, 3.0000000000000004E-07, 14.999820000000002, 0.29450000000000004, 6.968, 25, 0.042264638346727904
DataValue, 1.5E-06, 14.999640000000001, 0.2907, 6.9805, 25, 0.041644581333715354
DataValue, 6.0000000000000008E-07, 15.000580000000001, 0.2932, 6.9825, 25, 0.041990691013247407
DataValue, -5.0000000000000008E-07, 15.000060000000001, 0.2934, 6.9835, 25, 0.042013317104603709
DataValue, 1.6000000000000001E-06, 15.000520000000002, 0.2944, 6.9830000000000005, 25, 0.0421595302878419
DataValue, 2.1000000000000002E-06, 15.000000000000002, 0.29410000000000003, 6.9905, 25, 0.042071382590658755
DataValue, 1.0000000000000002E-06, 15.000340000000001, 0.2952, 6.996, 25, 0.042195540308747857
DataValue, -5.0000000000000008E-07, 15.000140000000002, 0.2968, 6.985, 25, 0.042491052254831782
DataValue, 1.2000000000000002E-06, 15.000040000000002, 0.29410000000000003, 6.972, 25, 0.042183017785427428
DataValue, 1.1E-06, 15.0004, 0.29650000000000004, 6.9795, 25, 0.042481553119851
DataValue, 9.0000000000000007E-07, 14.999820000000002, 0.2942, 6.985, 25, 0.042118826055833933
DataValue, 5.0000000000000008E-07, 15.000000000000002, 0.2948, 7.0035, 25, 0.042093239094738347
DataValue, 0, 15.000000000000002, 0.2942, 6.9895000000000005, 25, 0.042091708992059516
DataValue, 0, 14.999600000000001, 0.29600000000000004, 6.9865, 25, 0.042367422886996353
DataValue, 1.0000000000000001E-07, 15.000300000000001, 0.29410000000000003, 6.9745, 25, 0.042167897340311136
DataValue, 1.9000000000000002E-06, 15.000300000000001, 0.2944, 6.9750000000000005, 25, 0.042207885304659493
DataValue, -6.0000000000000008E-07, 15.000180000000002, 0.2943, 6.995, 25, 0.042072909220872048
DataValue, -2.0000000000000002E-07, 15.000040000000002, 0.2968, 6.994, 25, 0.042436374034887051
DataValue, 1.0000000000000001E-07, 15.000160000000001, 0.29410000000000003, 6.9955, 25, 0.042041312272174974
DataValue, 4.0000000000000003E-07, 14.999820000000002, 0.2954, 6.98, 25, 0.042320916905444123
DataValue, 9.0000000000000007E-07, 15.000240000000002, 0.29550000000000004, 6.9685000000000006, 25, 0.042405108703451246
DataValue, 0, 15.000020000000001, 0.29350000000000004, 6.982, 25, 0.042036665711830429
DataValue, 4.0000000000000003E-07, 14.99938, 0.2937, 6.981, 25, 0.042071336484744308
DataValue, 1.5E-06, 15.000200000000001, 0.29510000000000003, 7, 25, 0.042157142857142858
DataValue, 2.0000000000000002E-07, 14.999300000000002, 0.29450000000000004, 6.9935, 25, 0.042110531207549873
DataValue, 3.0000000000000004E-07, 15.000140000000002, 0.2934, 6.989, 25, 0.04198025468593504
DataValue, 1.1E-06, 15.000380000000002, 0.29460000000000003, 6.987, 25, 0.042164018892228428
DataValue, -3.0000000000000004E-07, 14.999680000000002, 0.2943, 6.9625, 25, 0.042269299820466788
DataValue, -2.0000000000000002E-07, 15.00012, 0.2931, 6.9735000000000005, 25, 0.042030544203054424
DataValue, 1.4000000000000002E-06, 15.001100000000001, 0.29560000000000003, 6.988, 25, 0.042301087578706355
DataValue, 7.0000000000000007E-07, 15.000160000000001, 0.2959, 6.988, 25, 0.042344018317115054
DataValue, 3.0000000000000004E-07, 15.000580000000001, 0.2959, 6.9925, 25, 0.042316767965677515
DataValue, 0, 14.999580000000002, 0.2967, 7.0040000000000004, 25, 0.042361507709880071
DataValue, 5.0000000000000008E-07, 15.000620000000001, 0.2958, 6.9910000000000005, 25, 0.042311543412959514
DataValue, 7.0000000000000007E-07, 15.00008, 0.29510000000000003, 6.9895000000000005, 25, 0.0422204735674941
DataValue, 5.0000000000000008E-07, 15.000000000000002, 0.29600000000000004, 6.9835, 25, 0.042385623254814923
DataValue, 1.3E-06, 15.000020000000001, 0.2949, 6.984, 25, 0.042225085910652924
DataValue, -6.0000000000000008E-07, 14.999500000000001, 0.29610000000000003, 6.998, 25, 0.042312089168333809
DataValue, 2.3E-06, 15.000420000000002, 0.29550000000000004, 6.982, 25, 0.042323116585505589
DataValue, -1.0000000000000001E-07, 15.000700000000002, 0.29550000000000004, 6.9695, 25, 0.042399024320252533
DataValue, 2.0000000000000002E-07, 14.9997, 0.2943, 6.9835, 25, 0.042142192310446053
DataValue, 6.0000000000000008E-07, 15.000000000000002, 0.29450000000000004, 6.9865, 25, 0.042152723108852791
DataValue, 1.4000000000000002E-06, 14.999260000000001, 0.2953, 7.003, 25, 0.042167642438954732
DataValue, -7.0000000000000007E-07, 15.000060000000001, 0.2942, 6.9875, 25, 0.042103756708407873
DataValue, 1.6000000000000001E-06, 15.000100000000002, 0.2947, 6.9725, 25, 0.042266045177482968
DataValue, 1.0000000000000002E-06, 15.000000000000002, 0.29450000000000004, 6.9725, 25, 0.042237361061312304
DataValue, 1.7000000000000002E-06, 15.0005, 0.2949, 6.984, 25, 0.042225085910652924
DataValue, 2.2E-06, 15.00036, 0.29500000000000004, 6.9795, 25, 0.042266638011318872
DataValue, 4.0000000000000003E-07, 15.00022, 0.2948, 6.985, 25, 0.042204724409448821
DataValue, -2.0000000000000003E-06, 15.000580000000001, 0.29500000000000004, 6.964, 25, 0.042360712234348077
DataValue, 1.4000000000000002E-06, 14.999680000000002, 0.29450000000000004, 6.973, 25, 0.042234332425068126
DataValue, 1.4000000000000002E-06, 14.999900000000002, 0.2952, 6.9775, 25, 0.042307416696524547
DataValue, -8.0000000000000007E-07, 14.99998, 0.29660000000000003, 7.002, 25, 0.042359325906883752
DataValue, 1.8000000000000001E-06, 14.999720000000002, 0.29610000000000003, 7.0095, 25, 0.042242670661245457
DataValue, 2.2E-06, 14.99956, 0.2963, 7.005, 25, 0.042298358315488935
DataValue, -2.0000000000000002E-07, 14.999740000000001, 0.29610000000000003, 7.001, 25, 0.042293958005999145
DataValue, 1.3E-06, 15.000380000000002, 0.29450000000000004, 6.998, 25, 0.042083452414975714
DataValue, 3E-06, 15.000100000000002, 0.2957, 6.9885, 25, 0.042312370322672967
DataValue, 2.1000000000000002E-06, 15.000760000000001, 0.29610000000000003, 6.9945, 25, 0.04233326184859533
DataValue, -1.0000000000000002E-06, 15.000020000000001, 0.29550000000000004, 6.996, 25, 0.042238421955403088
DataValue, 1.7000000000000002E-06, 15.000620000000001, 0.29510000000000003, 6.9990000000000006, 25, 0.042163166166595226
DataValue, -1.3E-06, 14.999900000000002, 0.29450000000000004, 6.9945, 25, 0.042104510686968334
DataValue, -1.0000000000000002E-06, 15.000340000000001, 0.29550000000000004, 7.001, 25, 0.0422082559634338
DataValue, 1.8000000000000001E-06, 15.000280000000002, 0.2964, 7.006, 25, 0.042306594347701967
DataValue, 4.0000000000000003E-07, 14.99966, 0.2962, 6.982, 25, 0.042423374391291895
DataValue, 7.0000000000000007E-07, 14.999720000000002, 0.2943, 6.9775, 25, 0.042178430670010751
DataValue, 1.9000000000000002E-06, 15.000060000000001, 0.2942, 6.9775, 25, 0.042164098889286995
DataValue, 1.2000000000000002E-06, 14.999820000000002, 0.2938, 6.968, 25, 0.04216417910447761
DataValue, -2.0000000000000002E-07, 15.00026, 0.2957, 6.971, 25, 0.042418591306842633
DataValue, 3.0000000000000004E-07, 15.0004, 0.2967, 6.9795, 25, 0.042510208467655283
DataValue, 3.0000000000000004E-07, 14.99984, 0.2948, 6.984, 25, 0.04221076746849943
DataValue, 1.5E-06, 15.000520000000002, 0.29610000000000003, 6.9955, 25, 0.042327210349510404
DataValue, 1.3E-06, 14.999440000000002, 0.2952, 7.0145, 25, 0.0420842540451921
DataValue, 1.5E-06, 15.00022, 0.29510000000000003, 7.008, 25, 0.04210901826484019
DataValue, 1.4000000000000002E-06, 14.999960000000002, 0.2953, 6.996, 25, 0.042209834190966265
DataValue, 1.2000000000000002E-06, 15.000160000000001, 0.29300000000000004, 6.9995, 25, 0.041860132866633336
DataValue, 5.0000000000000008E-07, 14.999760000000002, 0.29510000000000003, 6.984, 25, 0.042253722794959911
DataValue, 1.7000000000000002E-06, 15.000140000000002, 0.29410000000000003, 6.9805, 25, 0.042131652460425474
DataValue, -1.0000000000000001E-07, 15.000200000000001, 0.2954, 6.984, 25, 0.042296678121420392
DataValue, 6.0000000000000008E-07, 15.0005, 0.29500000000000004, 6.9805, 25, 0.042260583052789923
DataValue, 1.6000000000000001E-06, 15.000440000000001, 0.29510000000000003, 6.992, 25, 0.042205377574370713
DataValue, 1.3E-06, 15.00088, 0.2942, 6.984, 25, 0.042124856815578468
DataValue, 1.9000000000000002E-06, 13.99932, 0.0049, 0.1065, 25, 0.0460093896713615
DataValue, 0, 14.000100000000002, 0.0166, 0.292, 25, 0.056849315068493153
DataValue, 2.2E-06, 14.000760000000001, 0.027600000000000003, 0.4965, 25, 0.05558912386706949
DataValue, 5.0000000000000008E-07, 13.99994, 0.0385, 0.7345, 25, 0.05241660993873383
DataValue, -1.6000000000000001E-06, 13.999300000000002, 0.050100000000000006, 0.9595, 25, 0.052214695153725905
DataValue, -6.0000000000000008E-07, 13.999900000000002, 0.059500000000000004, 1.2005000000000001, 25, 0.049562682215743441
DataValue, 2.0000000000000003E-06, 14.000200000000001, 0.067600000000000007, 1.3915, 25, 0.0485806683435142
DataValue, 1.0000000000000001E-07, 13.999760000000002, 0.078300000000000008, 1.6215, 25, 0.0482886216466235
DataValue, -3.0000000000000004E-07, 14.000060000000001, 0.0873, 1.8155000000000001, 25, 0.048085926741944368
DataValue, 0, 14.000020000000001, 0.096700000000000008, 2.027, 25, 0.047705969412925507
DataValue, -3.0000000000000004E-07, 13.999360000000001, 0.1061, 2.231, 25, 0.047557149260421337
DataValue, 3.0000000000000004E-07, 14.000020000000001, 0.11470000000000001, 2.448, 25, 0.0468545751633987
DataValue, 5.0000000000000008E-07, 14.000340000000001, 0.1245, 2.6430000000000002, 25, 0.047105561861521
DataValue, 1.0000000000000001E-07, 14.000060000000001, 0.1356, 2.8555, 25, 0.047487305200490278
DataValue, 1.6000000000000001E-06, 14.000160000000001, 0.1447, 3.0665, 25, 0.047187347138431437
DataValue, -1.1E-06, 13.999540000000001, 0.1531, 3.2560000000000002, 25, 0.047020884520884522
DataValue, 9.0000000000000007E-07, 13.99998, 0.1631, 3.4565, 25, 0.047186460292203095
DataValue, -1.1E-06, 13.999860000000002, 0.1721, 3.6665, 25, 0.046938497204418381
DataValue, 9.0000000000000007E-07, 13.999720000000002, 0.1816, 3.872, 25, 0.046900826446281
DataValue, -9.0000000000000007E-07, 14.00004, 0.19010000000000002, 4.079, 25, 0.046604559941162055
DataValue, 7.0000000000000007E-07, 14.000100000000002, 0.198, 4.281, 25, 0.046250875963559923
DataValue, 5.0000000000000008E-07, 13.999500000000001, 0.2099, 4.484, 25, 0.046810883140053522
DataValue, 2.0000000000000002E-07, 14.0006, 0.22010000000000002, 4.6865, 25, 0.046964685799637265
DataValue, -6.0000000000000008E-07, 13.99984, 0.2281, 4.9015, 25, 0.046536774456798935
DataValue, 1.1E-06, 13.99956, 0.23700000000000002, 5.0845, 25, 0.046612252925558068
DataValue, 1.4000000000000002E-06, 14.00008, 0.24680000000000002, 5.295, 25, 0.046610009442870637
DataValue, -1.0000000000000002E-06, 14.000660000000002, 0.256, 5.4775, 25, 0.046736649931538109
DataValue, -1.6000000000000001E-06, 13.999220000000001, 0.2646, 5.689, 25, 0.046510810335735633
DataValue, 3.0000000000000004E-07, 13.999620000000002, 0.2743, 5.8765, 25, 0.046677444056836548
DataValue, 1.4000000000000002E-06, 13.9998, 0.2859, 6.064, 25, 0.047147097625329815
DataValue, -3.0000000000000004E-07, 14.000680000000001, 0.2921, 6.2325, 25, 0.0468672282390694
DataValue, -2.4000000000000003E-06, 13.99994, 0.3003, 6.3790000000000004, 25, 0.047076344254585359
DataValue, -9.0000000000000007E-07, 13.99938, 0.3029, 6.5105, 25, 0.046524844481990631
DataValue, 4.0000000000000003E-07, 14.000000000000002, 0.31020000000000003, 6.622, 25, 0.046843853820598011
DataValue, 7.0000000000000007E-07, 13.999720000000002, 0.3128, 6.712, 25, 0.046603098927294404
DataValue, -2.0000000000000002E-07, 14.000060000000001, 0.314, 6.755, 25, 0.046484085862324206
DataValue, 4.0000000000000003E-07, 14.000000000000002, 0.3151, 6.789, 25, 0.046413315657681545
DataValue, 2.4000000000000003E-06, 13.99984, 0.3176, 6.8105, 25, 0.046633874164892446
DataValue, 3.4000000000000005E-06, 13.9997, 0.31670000000000004, 6.8355000000000006, 25, 0.046331650939945873
DataValue, 0, 14.000580000000001, 0.31620000000000004, 6.848, 25, 0.046174065420560753
DataValue, 8.0000000000000007E-07, 13.99998, 0.3174, 6.8685, 25, 0.046210963092378252
DataValue, -1.3E-06, 13.999860000000002, 0.31770000000000004, 6.861, 25, 0.046305203323130747
DataValue, 4.0000000000000003E-07, 14.000340000000001, 0.31770000000000004, 6.8775, 25, 0.046194111232279171
DataValue, -9.0000000000000007E-07, 13.999880000000001, 0.31770000000000004, 6.8775, 25, 0.046194111232279171
DataValue, -1.5E-06, 14.000100000000002, 0.3171, 6.869, 25, 0.04616392487989518
DataValue, 4.0000000000000003E-07, 14.000440000000001, 0.3183, 6.8895, 25, 0.0462007402569127
DataValue, -5.0000000000000008E-07, 13.999480000000002, 0.31670000000000004, 6.8870000000000005, 25, 0.045985189487440105
