
SetupTitle, Rds-Id
ApplicationTest, Rds-Id, Public
TestParameter, Name, Memo, Scale, HoldTime, PulseBase, PulseAvgCnt, Gate, VgStart, VgStop, VgStep, IgLimit, Source, MeasurementTime, Drain, IdStart, IdStop, IdLinearStep, VdLimit, VdStop, PulsePeriodMode, ManualPulsePeriod, PulseWidth
TestParameter, Value, , LINEAR, 0, 0, 1, SMU2:MC	MCSMU, 20, 5, 1, 0.1, GNDU:GND	GNDU, 1E-05, SMU3:UHC500	UHCU500A, 0.5, 30, 0.2, 2, 0, 0, 0.05, 0.0002
DutParameter, Name, Polarity, Temp, YAxisRdsMin, YAxisRdsMax
DutParameter, Value, 1, 25, 0.001, 1
MetaData, TestRecord.EntryPoint, true
MetaData, TestRecord.RecordTime, 04/17/2021 11:38:07
MetaData, TestRecord.TestTarget, 
MetaData, TestRecord.IterationIndex, 1
MetaData, TestRecord.Preservation, true
MetaData, TestRecord.Flag, 
MetaData, TestRecord.Remarks, 
MetaData, TestRecord.LinkKey, a24757a5-62dc-4e84-afdb-7ddbf197b2bf
Dimension1, 148, 148, 148, 148, 148, 148
Dimension2, 16, 16, 16, 16, 16, 16
DataName, Igate, Vgate, Vdrain, Idrain, Ta, Rds
DataValue, -7.500000000000001E-06, 20.000020000000003, 0.0025, 0.0995, 25, 0.025125628140703515
DataValue, -8.3E-06, 20.000100000000003, 0.0089, 0.2945, 25, 0.030220713073005095
DataValue, -5E-06, 20.00016, 0.015300000000000001, 0.5265, 25, 0.029059829059829064
DataValue, -4.8000000000000006E-06, 19.999540000000003, 0.023200000000000002, 0.749, 25, 0.030974632843791726
DataValue, -2.9E-06, 20.000320000000002, 0.030500000000000003, 0.993, 25, 0.030715005035246729
DataValue, -4.9000000000000005E-06, 20.00072, 0.0356, 1.2305, 25, 0.028931328728159286
DataValue, -4.9000000000000005E-06, 20.000220000000002, 0.0429, 1.429, 25, 0.030020993701889431
DataValue, -2.9E-06, 20.000020000000003, 0.0497, 1.6355, 25, 0.030388260470804038
DataValue, -3.8000000000000005E-06, 19.999760000000002, 0.0548, 1.835, 25, 0.029863760217983652
DataValue, -2.6E-06, 20.000120000000003, 0.0614, 2.059, 25, 0.029820301117047109
DataValue, -4.6E-06, 19.99986, 0.0689, 2.269, 25, 0.030365799911855444
DataValue, -3.4000000000000005E-06, 19.999740000000003, 0.075, 2.4865, 25, 0.030162879549567666
DataValue, -4.6E-06, 19.9998, 0.080200000000000007, 2.6915, 25, 0.029797510681775965
DataValue, -3.4000000000000005E-06, 20.00018, 0.0849, 2.906, 25, 0.029215416379903648
DataValue, -3.8000000000000005E-06, 20.00008, 0.0922, 3.1105, 25, 0.029641536730429192
DataValue, -9.0000000000000007E-07, 20.000600000000002, 0.0975, 3.3240000000000003, 25, 0.029332129963898914
DataValue, -4.1000000000000006E-06, 19.999840000000003, 0.1043, 3.517, 25, 0.029655956781347741
DataValue, -3.9E-06, 19.99986, 0.1092, 3.7065, 25, 0.029461756373937678
DataValue, -3.6000000000000003E-06, 19.999820000000003, 0.116, 3.9090000000000003, 25, 0.029675108723458684
DataValue, -3.4000000000000005E-06, 19.999660000000002, 0.12050000000000001, 4.12, 25, 0.029247572815533984
DataValue, -2.9E-06, 20.00034, 0.127, 4.314, 25, 0.029439035697728325
DataValue, -2.0000000000000003E-06, 20.00036, 0.1346, 4.5325, 25, 0.029696635410921126
DataValue, -5.4000000000000008E-06, 20, 0.1423, 4.7195, 25, 0.03015149909948088
DataValue, -4.1000000000000006E-06, 19.99958, 0.14700000000000002, 4.92, 25, 0.029878048780487811
DataValue, -6.7E-06, 20.00028, 0.1519, 5.121, 25, 0.029662175356375706
DataValue, -4.3E-06, 20.00028, 0.1582, 5.322, 25, 0.02972566704246524
DataValue, -7.500000000000001E-06, 19.999820000000003, 0.1636, 5.531, 25, 0.029578738022057495
DataValue, -3.9E-06, 19.999760000000002, 0.1703, 5.7505, 25, 0.029614816102947573
DataValue, -3.5000000000000004E-06, 19.999840000000003, 0.1763, 5.936, 25, 0.029700134770889491
DataValue, -4.1000000000000006E-06, 20.00046, 0.1811, 6.1215, 25, 0.029584252225761661
DataValue, -3.1000000000000004E-06, 19.999820000000003, 0.1882, 6.3195000000000006, 25, 0.029780837091542049
DataValue, -3E-06, 20.000500000000002, 0.1938, 6.531, 25, 0.029673863114377586
DataValue, -3.3E-06, 19.99986, 0.2005, 6.731, 25, 0.029787550141138021
DataValue, -4.2000000000000004E-06, 19.99986, 0.20350000000000001, 6.883, 25, 0.029565596396919951
DataValue, -3.5000000000000004E-06, 20.00044, 0.20800000000000002, 7.029, 25, 0.029591691563522551
DataValue, -2.4000000000000003E-06, 20.00044, 0.2136, 7.1850000000000005, 25, 0.029728601252609604
DataValue, -3.7E-06, 19.999560000000002, 0.21580000000000002, 7.2975, 25, 0.029571771154504968
DataValue, -5E-06, 19.99944, 0.2185, 7.37, 25, 0.0296472184531886
DataValue, -4.5E-06, 19.99932, 0.21930000000000002, 7.446, 25, 0.029452054794520552
DataValue, -2.7000000000000004E-06, 19.999480000000002, 0.2214, 7.4775, 25, 0.029608826479438317
DataValue, -2.9E-06, 19.99942, 0.22080000000000002, 7.503, 25, 0.029428228708516597
DataValue, -5.2E-06, 20.00026, 0.2217, 7.5475, 25, 0.029373964889036104
DataValue, -4.8000000000000006E-06, 20.00006, 0.22260000000000002, 7.554, 25, 0.029467831612390787
DataValue, -3.3E-06, 19.9997, 0.2232, 7.5485, 25, 0.029568788501026698
DataValue, -4.8000000000000006E-06, 19.999920000000003, 0.22360000000000002, 7.557, 25, 0.029588461029509065
DataValue, -4.8000000000000006E-06, 20.00006, 0.2227, 7.5805, 25, 0.0293780093661368
DataValue, -1.0000000000000001E-07, 19.9999, 0.2235, 7.574, 25, 0.02950884605228413
DataValue, -2.1000000000000002E-06, 20.000400000000003, 0.2232, 7.557, 25, 0.029535529972211195
DataValue, -3.9E-06, 20.000600000000002, 0.223, 7.5695000000000006, 25, 0.029460334236078998
DataValue, -2.8000000000000003E-06, 19.99998, 0.2228, 7.571, 25, 0.029428080834764232
DataValue, -6.2000000000000008E-06, 19.99998, 0.22260000000000002, 7.581, 25, 0.029362880886426593
DataValue, -1.0000000000000001E-07, 20.00072, 0.2237, 7.594, 25, 0.029457466420858572
DataValue, -3.8000000000000005E-06, 20.000760000000003, 0.22210000000000002, 7.599, 25, 0.029227529938149758
DataValue, -5.7000000000000005E-06, 19.99972, 0.2242, 7.594, 25, 0.029523307874637871
DataValue, -3.2000000000000003E-06, 20.000320000000002, 0.22360000000000002, 7.587, 25, 0.029471464346909192
DataValue, -3.5000000000000004E-06, 20.00046, 0.22360000000000002, 7.565, 25, 0.029557171183079975
DataValue, -4.3E-06, 19.99922, 0.2228, 7.585, 25, 0.02937376400791035
DataValue, -3.9E-06, 19.99978, 0.22460000000000002, 7.614, 25, 0.029498292618859997
DataValue, -4.2000000000000004E-06, 19.999740000000003, 0.2243, 7.6035, 25, 0.029499572565265995
DataValue, -4.4E-06, 19.99942, 0.2235, 7.604, 25, 0.02939242503945292
DataValue, -4.0000000000000003E-07, 20.000140000000002, 0.22410000000000002, 7.588, 25, 0.029533473906167635
DataValue, -3.3E-06, 19.99998, 0.224, 7.5765, 25, 0.029565102619943245
DataValue, -2.2E-06, 19.99972, 0.2242, 7.6045, 25, 0.029482543230981657
DataValue, -1.2000000000000002E-06, 19.99952, 0.225, 7.6095000000000006, 25, 0.02956830277942046
DataValue, -4.8000000000000006E-06, 19.999740000000003, 0.2242, 7.578, 25, 0.029585642649775666
DataValue, -1.9000000000000002E-06, 20.000020000000003, 0.2248, 7.5920000000000005, 25, 0.029610115911485772
DataValue, -2.0000000000000003E-06, 19.99996, 0.2238, 7.604, 25, 0.029431877958968962
DataValue, -2.4000000000000003E-06, 20.000480000000003, 0.2247, 7.618, 25, 0.029495930690469938
DataValue, -2.2E-06, 20, 0.22340000000000002, 7.591, 25, 0.029429587669608747
DataValue, -2.4000000000000003E-06, 20.00062, 0.22310000000000002, 7.605, 25, 0.029335963182117029
DataValue, -5.8E-06, 19.9995, 0.22440000000000002, 7.6115, 25, 0.029481705314327006
DataValue, -2.9E-06, 20.00016, 0.2243, 7.5765, 25, 0.029604698739523524
DataValue, -3.4000000000000005E-06, 20.00072, 0.22340000000000002, 7.605, 25, 0.029375410913872451
DataValue, -1.7000000000000002E-06, 20.000220000000002, 0.22310000000000002, 7.6115, 25, 0.02931091112132957
DataValue, -5.1E-06, 20.00006, 0.22390000000000002, 7.586, 25, 0.029514895860796204
DataValue, -2.8000000000000003E-06, 19.999940000000002, 0.22290000000000002, 7.5975, 25, 0.029338598223099706
DataValue, -1.6000000000000001E-06, 20.00028, 0.2245, 7.6240000000000006, 25, 0.029446484784889822
DataValue, -4.2000000000000004E-06, 19.99996, 0.22340000000000002, 7.603, 25, 0.029383138234907277
DataValue, -2.4000000000000003E-06, 19.999260000000003, 0.2228, 7.595, 25, 0.029335088874259382
DataValue, -2.8000000000000003E-06, 20.00064, 0.22590000000000002, 7.606, 25, 0.029700236655272157
DataValue, -2.9E-06, 19.99958, 0.2242, 7.602, 25, 0.029492238884504078
DataValue, -3.1000000000000004E-06, 20.000100000000003, 0.2233, 7.589, 25, 0.029424166556858609
DataValue, -5.9E-06, 19.99998, 0.22340000000000002, 7.595, 25, 0.029414088215931538
DataValue, -2.8000000000000003E-06, 19.999820000000003, 0.2248, 7.621, 25, 0.029497441280671825
DataValue, -3.2000000000000003E-06, 19.999940000000002, 0.22490000000000002, 7.6165, 25, 0.029527998424473186
DataValue, -5.7000000000000005E-06, 19.99944, 0.2243, 7.6145000000000005, 25, 0.029456957121281765
DataValue, -6.3000000000000007E-06, 19.99968, 0.22360000000000002, 7.6115, 25, 0.029376601195559352
DataValue, -5E-06, 20.00016, 0.2225, 7.6055, 25, 0.029255144303464597
DataValue, -3.5000000000000004E-06, 19.99996, 0.22260000000000002, 7.6255, 25, 0.02919152842436562
DataValue, -3.6000000000000003E-06, 19.999760000000002, 0.2235, 7.627, 25, 0.029303789170053759
DataValue, -5.2E-06, 20.000420000000002, 0.22440000000000002, 7.613, 25, 0.029475896492841193
DataValue, -4.9000000000000005E-06, 19.99998, 0.2232, 7.596, 25, 0.029383886255924172
DataValue, -6.6E-06, 20.00006, 0.2227, 7.602, 25, 0.029294922388845041
DataValue, -2.2E-06, 20.000020000000003, 0.22460000000000002, 7.593, 25, 0.029579876201764787
DataValue, -5.2E-06, 19.999840000000003, 0.22340000000000002, 7.607, 25, 0.029367687656106218
DataValue, -2.5E-06, 20.00084, 0.2228, 7.609, 25, 0.029281114469706927
DataValue, -4.5E-06, 19.999840000000003, 0.2235, 7.6080000000000005, 25, 0.029376971608832805
DataValue, -4.3E-06, 19.99998, 0.2233, 7.5985000000000005, 25, 0.029387379087977887
DataValue, -2.5E-06, 20.00008, 0.22390000000000002, 7.6125, 25, 0.029412151067323485
DataValue, -7.0000000000000007E-07, 19.9998, 0.22340000000000002, 7.6055, 25, 0.029373479718624682
DataValue, -2.5E-06, 19.999760000000002, 0.2235, 7.5975, 25, 0.029417571569595263
DataValue, -4.5E-06, 19.9998, 0.224, 7.594, 25, 0.029496971293126152
DataValue, -2.2E-06, 20.00044, 0.22390000000000002, 7.6025, 25, 0.029450838539953964
DataValue, -7.6000000000000009E-06, 19.99914, 0.22240000000000001, 7.5855000000000006, 25, 0.0293190956430031
DataValue, -5.4000000000000008E-06, 20.000100000000003, 0.22440000000000002, 7.6055, 25, 0.029504963513246992
DataValue, -4.7000000000000007E-06, 20.00028, 0.22340000000000002, 7.6205, 25, 0.029315661701988061
DataValue, -5.8E-06, 19.99998, 0.2245, 7.5915, 25, 0.029572548244747417
DataValue, -4.2000000000000004E-06, 20.000420000000002, 0.2243, 7.615, 25, 0.029455022980958635
DataValue, -1.4000000000000002E-06, 20.000320000000002, 0.22390000000000002, 7.5955, 25, 0.029477980383121587
DataValue, -5.2E-06, 19.9994, 0.2248, 7.6080000000000005, 25, 0.029547844374342797
DataValue, -3.6000000000000003E-06, 19.999840000000003, 0.22410000000000002, 7.6080000000000005, 25, 0.02945583596214511
DataValue, -4.9000000000000005E-06, 19.999460000000003, 0.22310000000000002, 7.6075, 25, 0.029326322707854093
DataValue, -2.7000000000000004E-06, 20.000380000000003, 0.22340000000000002, 7.6235, 25, 0.029304125401718374
DataValue, -3E-06, 19.99952, 0.22410000000000002, 7.591, 25, 0.029521802134106181
DataValue, -2.8000000000000003E-06, 19.999920000000003, 0.2245, 7.5965, 25, 0.029553083656947279
DataValue, -4.7000000000000007E-06, 19.9998, 0.224, 7.6135, 25, 0.029421422473238326
DataValue, -1.0000000000000002E-06, 20.000600000000002, 0.22290000000000002, 7.627, 25, 0.029225121279664354
DataValue, -4.5E-06, 20.000320000000002, 0.22340000000000002, 7.604, 25, 0.029379274066280905
DataValue, -4.7000000000000007E-06, 20.000140000000002, 0.2233, 7.618, 25, 0.029312155421370438
DataValue, -2.1000000000000002E-06, 20.000220000000002, 0.225, 7.614, 25, 0.02955082742316785
DataValue, -2.2E-06, 19.999560000000002, 0.22390000000000002, 7.605, 25, 0.029441157133464825
DataValue, -4.3E-06, 20, 0.2247, 7.6000000000000005, 25, 0.029565789473684208
DataValue, -3.4000000000000005E-06, 20.000100000000003, 0.22490000000000002, 7.6155, 25, 0.029531875779659905
DataValue, -4.2000000000000004E-06, 19.99988, 0.2248, 7.6175, 25, 0.029510994420741714
DataValue, -4.4E-06, 19.9999, 0.2228, 7.6085, 25, 0.0292830387067096
DataValue, -3.2000000000000003E-06, 19.9995, 0.2237, 7.5995, 25, 0.029436147114941774
DataValue, -5.7000000000000005E-06, 19.9999, 0.22340000000000002, 7.6135, 25, 0.029342615091613584
DataValue, -5.2E-06, 20.00008, 0.2248, 7.62, 25, 0.029501312335958006
DataValue, -5.7000000000000005E-06, 20.00052, 0.2262, 7.6115, 25, 0.029718189581554227
DataValue, -4.2000000000000004E-06, 19.998880000000003, 0.22340000000000002, 7.593, 25, 0.029421835901488214
DataValue, -4.7000000000000007E-06, 19.999760000000002, 0.22540000000000002, 7.6000000000000005, 25, 0.029657894736842105
DataValue, -1.9000000000000002E-06, 20.00052, 0.22610000000000002, 7.607, 25, 0.02972262389904036
DataValue, -4.8000000000000006E-06, 19.99972, 0.22390000000000002, 7.625, 25, 0.029363934426229511
DataValue, -2.2E-06, 19.999940000000002, 0.2247, 7.6255, 25, 0.029466920201953972
DataValue, -5.7000000000000005E-06, 19.999480000000002, 0.22340000000000002, 7.607, 25, 0.029367687656106218
DataValue, -1.2000000000000002E-06, 20.00036, 0.22410000000000002, 7.6080000000000005, 25, 0.02945583596214511
DataValue, -2.1000000000000002E-06, 19.99998, 0.2243, 7.62, 25, 0.029435695538057742
DataValue, -2.1000000000000002E-06, 20.000300000000003, 0.22440000000000002, 7.597, 25, 0.02953797551665131
DataValue, -5.8E-06, 19.999740000000003, 0.22340000000000002, 7.5915, 25, 0.029427649344661796
DataValue, -4.6E-06, 19.99906, 0.22440000000000002, 7.588, 25, 0.029573010015814447
DataValue, -2.1000000000000002E-06, 20.00024, 0.2227, 7.5920000000000005, 25, 0.029333508956796626
DataValue, -2.4000000000000003E-06, 20.00036, 0.2238, 7.6000000000000005, 25, 0.029447368421052628
DataValue, -2.1000000000000002E-06, 20.00018, 0.22490000000000002, 7.5915, 25, 0.029625238753869462
DataValue, -4.5E-06, 19.99944, 0.22290000000000002, 7.5945, 25, 0.02935018763578906
DataValue, 1.0000000000000001E-07, 20.00052, 0.22440000000000002, 7.5995, 25, 0.029528258438055139
DataValue, -3.3E-06, 20.000700000000002, 0.2238, 7.6035, 25, 0.029433813375419213
DataValue, -5.5000000000000007E-06, 19.99914, 0.22410000000000002, 7.6205, 25, 0.029407519191654095
DataValue, -1.8000000000000001E-06, 19.999360000000003, 0.22290000000000002, 7.617, 25, 0.02926348956282001
DataValue, -3.1000000000000004E-06, 18.999920000000003, 0.0021000000000000003, 0.11750000000000001, 25, 0.017872340425531916
DataValue, -8.5E-06, 19.00016, 0.0089, 0.293, 25, 0.030375426621160412
DataValue, -6.800000000000001E-06, 18.999360000000003, 0.0171, 0.5155, 25, 0.033171677982541226
DataValue, -3.3E-06, 18.999360000000003, 0.024800000000000003, 0.7685, 25, 0.032270657124268062
DataValue, -5.4000000000000008E-06, 19.000140000000002, 0.0318, 1.025, 25, 0.031024390243902442
DataValue, -3.8000000000000005E-06, 18.999940000000002, 0.0379, 1.2025000000000001, 25, 0.031517671517671514
DataValue, -8.4000000000000009E-06, 18.99934, 0.0453, 1.4335, 25, 0.031600976630624347
DataValue, -4.1000000000000006E-06, 18.999360000000003, 0.049600000000000005, 1.6395, 25, 0.030253125953034466
DataValue, -4.9000000000000005E-06, 19.00008, 0.057300000000000004, 1.8395000000000001, 25, 0.031149768958956239
DataValue, -3.6000000000000003E-06, 18.9993, 0.0618, 2.061, 25, 0.029985443959243088
DataValue, -3.1000000000000004E-06, 18.99998, 0.0695, 2.275, 25, 0.030549450549450553
DataValue, -3.7E-06, 18.999840000000003, 0.0755, 2.4795000000000003, 25, 0.030449687436983258
DataValue, -2.9E-06, 19.00028, 0.081700000000000009, 2.694, 25, 0.030326651818856722
DataValue, -2.2E-06, 19.000320000000002, 0.0889, 2.9195, 25, 0.030450419592395958
DataValue, -2.4000000000000003E-06, 18.99952, 0.093300000000000008, 3.1265, 25, 0.029841675995522152
DataValue, -3.2000000000000003E-06, 19.00018, 0.09920000000000001, 3.323, 25, 0.029852542882937108
DataValue, -4.4E-06, 18.999760000000002, 0.1071, 3.5385, 25, 0.030267062314540058
DataValue, -3.9E-06, 18.99958, 0.11270000000000001, 3.7215000000000003, 25, 0.030283487840924359
DataValue, -4.1000000000000006E-06, 19.00062, 0.1188, 3.9055, 25, 0.030418640378952758
DataValue, -3.1000000000000004E-06, 19.00026, 0.1241, 4.121, 25, 0.030114049987867021
DataValue, -2.9E-06, 19.000020000000003, 0.1296, 4.3115, 25, 0.030059144149367969
DataValue, -4.5E-06, 18.99996, 0.1375, 4.5360000000000005, 25, 0.030313051146384478
DataValue, -6.6E-06, 18.999920000000003, 0.1437, 4.735, 25, 0.030348468848996828
DataValue, -5E-06, 18.99996, 0.1487, 4.9455, 25, 0.030067738347993124
DataValue, -5.3E-06, 18.999480000000002, 0.1537, 5.148, 25, 0.029856254856254857
DataValue, -3.3E-06, 18.99986, 0.16060000000000002, 5.329, 25, 0.030136986301369868
DataValue, -5.8E-06, 18.99916, 0.1658, 5.5505, 25, 0.029871182776326454
DataValue, -4.3E-06, 18.999660000000002, 0.1741, 5.7425, 25, 0.030317805833696129
DataValue, -5E-06, 19.000120000000003, 0.1792, 5.9475, 25, 0.030130306851618327
DataValue, -2.4000000000000003E-06, 19.000120000000003, 0.18510000000000002, 6.1345, 25, 0.0301736082810335
DataValue, -5.3E-06, 18.99958, 0.1913, 6.3355000000000006, 25, 0.030194933312287897
DataValue, -4.7000000000000007E-06, 18.999940000000002, 0.1956, 6.508, 25, 0.030055316533497235
DataValue, -3.4000000000000005E-06, 18.99924, 0.2024, 6.7010000000000005, 25, 0.030204447097448139
DataValue, -5.2E-06, 18.99944, 0.20670000000000002, 6.8635, 25, 0.030115830115830119
DataValue, -4.5E-06, 19.00084, 0.21180000000000002, 7.0255, 25, 0.030147320475411004
DataValue, -4.0000000000000007E-06, 19.00016, 0.2174, 7.1735, 25, 0.030305987314421134
DataValue, -1.4000000000000002E-06, 19.00016, 0.2194, 7.29, 25, 0.0300960219478738
DataValue, -3.1000000000000004E-06, 19.00084, 0.2209, 7.373, 25, 0.029960667299606673
DataValue, -3.1000000000000004E-06, 19.000320000000002, 0.2235, 7.426, 25, 0.03009695663883652
DataValue, -1.4000000000000002E-06, 19.000480000000003, 0.224, 7.4955, 25, 0.029884597425121742
DataValue, -3.9E-06, 19.000200000000003, 0.2232, 7.5045, 25, 0.029742154707175696
DataValue, -1.2000000000000002E-06, 19.00016, 0.22460000000000002, 7.529, 25, 0.029831318900252361
DataValue, -3.2000000000000003E-06, 19.00034, 0.227, 7.569, 25, 0.0299907517505615
DataValue, -3.3E-06, 19.00036, 0.2255, 7.5555, 25, 0.029845807689762423
DataValue, -3.8000000000000005E-06, 19.000140000000002, 0.22640000000000002, 7.569, 25, 0.029911481041088653
DataValue, -2.4000000000000003E-06, 19.00016, 0.22560000000000002, 7.562, 25, 0.029833377413382704
DataValue, -4.4E-06, 19.000120000000003, 0.2268, 7.5765, 25, 0.029934666402692534
DataValue, -4.3E-06, 19.00044, 0.2265, 7.5595, 25, 0.029962299093855414
DataValue, -5.9E-06, 19.000100000000003, 0.22590000000000002, 7.5695000000000006, 25, 0.029843450690270164
DataValue, -4.4E-06, 18.999940000000002, 0.228, 7.582, 25, 0.030071221313637566
DataValue, -5E-06, 18.99952, 0.2255, 7.5920000000000005, 25, 0.029702318229715488
DataValue, -2.4000000000000003E-06, 18.99988, 0.2262, 7.5795, 25, 0.029843657233326736
DataValue, -6.7E-06, 19.00026, 0.2265, 7.5840000000000005, 25, 0.029865506329113924
DataValue, -5.2E-06, 18.999920000000003, 0.2272, 7.593, 25, 0.029922296852364021
DataValue, -3.1000000000000004E-06, 19.000700000000002, 0.22610000000000002, 7.5955, 25, 0.029767625567770392
DataValue, 6.0000000000000008E-07, 18.999940000000002, 0.2275, 7.5840000000000005, 25, 0.02999736286919831
DataValue, -3.6000000000000003E-06, 19.00024, 0.2267, 7.5835, 25, 0.029893848486846446
