
SetupTitle, Rds-Id
ApplicationTest, Rds-Id, Public
TestParameter, Name, Memo, Scale, HoldTime, PulseBase, PulseAvgCnt, Gate, VgStart, VgStop, VgStep, IgLimit, Source, MeasurementTime, Drain, IdStart, IdStop, IdLinearStep, VdLimit, VdStop, PulsePeriodMode, ManualPulsePeriod, PulseWidth
TestParameter, Value, , LINEAR, 0, 0, 1, SMU2:MC	MCSMU, 15, 5, 1, 0.1, GNDU:GND	GNDU, 1E-05, SMU3:UHC500	UHCU500A, 0.5, 30, 0.2, 2, 0, 0, 0.05, 0.0002
DutParameter, Name, Polarity, Temp, YAxisRdsMin, YAxisRdsMax
DutParameter, Value, 1, 25, 0.001, 1
MetaData, TestRecord.EntryPoint, true
MetaData, TestRecord.RecordTime, 04/30/2021 08:12:17
MetaData, TestRecord.TestTarget, 
MetaData, TestRecord.IterationIndex, 1
MetaData, TestRecord.Preservation, true
MetaData, TestRecord.Flag, 
MetaData, TestRecord.Remarks, 
MetaData, TestRecord.LinkKey, c8c0426b-1967-4230-9756-59e50d85a269
Dimension1, 148, 148, 148, 148, 148, 148
Dimension2, 11, 11, 11, 11, 11, 11
DataName, Igate, Vgate, Vdrain, Idrain, Ta, Rds
DataValue, 2.0000000000000002E-07, 15.00008, 0.0068000000000000005, 0.124, 25, 0.054838709677419356
DataValue, 4.0000000000000003E-07, 14.999740000000001, 0.0151, 0.307, 25, 0.049185667752443
DataValue, 6.0000000000000008E-07, 15.000200000000001, 0.024, 0.5275, 25, 0.045497630331753559
DataValue, 0, 15.000020000000001, 0.0337, 0.7455, 25, 0.045204560697518444
DataValue, 1.6000000000000001E-06, 15.00064, 0.0422, 0.9655, 25, 0.043707923355774211
DataValue, 3.0000000000000004E-07, 14.999600000000001, 0.0529, 1.215, 25, 0.043539094650205758
DataValue, -2.0000000000000002E-07, 14.99966, 0.0621, 1.4060000000000001, 25, 0.0441678520625889
DataValue, 2.2E-06, 15.000440000000001, 0.0687, 1.6195, 25, 0.042420500154368629
DataValue, -1.4000000000000002E-06, 14.999760000000002, 0.076800000000000007, 1.815, 25, 0.042314049586776863
DataValue, 2.8000000000000003E-06, 15.0004, 0.084600000000000009, 2.0315, 25, 0.04164410534088113
DataValue, 8.0000000000000007E-07, 14.999480000000002, 0.093900000000000011, 2.267, 25, 0.041420379355977067
DataValue, -1.0000000000000001E-07, 14.999960000000002, 0.1039, 2.4705, 25, 0.042056263914187417
DataValue, 3.4000000000000005E-06, 15.000480000000001, 0.1101, 2.6625, 25, 0.041352112676056339
DataValue, 9.0000000000000007E-07, 14.999740000000001, 0.1174, 2.8435, 25, 0.041287146122736061
DataValue, 0, 15.000320000000002, 0.1272, 3.0755, 25, 0.0413591285969761
DataValue, 2.0000000000000003E-06, 15.000480000000001, 0.13390000000000002, 3.2815, 25, 0.040804510132561339
DataValue, 1.5E-06, 15.00022, 0.1431, 3.466, 25, 0.0412867859203693
DataValue, -2.0000000000000002E-07, 15.000340000000001, 0.15180000000000002, 3.6825, 25, 0.041221995926680251
DataValue, 2.8000000000000003E-06, 15.00036, 0.1605, 3.8905000000000003, 25, 0.041254337488754657
DataValue, -4.0000000000000003E-07, 14.999540000000001, 0.16670000000000002, 4.0815, 25, 0.040842827391890241
DataValue, 8.0000000000000007E-07, 14.999540000000001, 0.1753, 4.2745, 25, 0.041010644519826889
DataValue, 2.0000000000000002E-07, 15.000180000000002, 0.18280000000000002, 4.5035, 25, 0.040590651715332528
DataValue, 1.0000000000000002E-06, 15.000000000000002, 0.19160000000000002, 4.659, 25, 0.041124704872290196
DataValue, 1.3E-06, 15.00022, 0.2001, 4.8865, 25, 0.040949554896142437
DataValue, 1.8000000000000001E-06, 14.999920000000001, 0.20800000000000002, 5.087, 25, 0.040888539414193049
DataValue, -2.0000000000000002E-07, 15.0006, 0.21680000000000002, 5.2780000000000005, 25, 0.041076165214096245
DataValue, 1.8000000000000001E-06, 15.000340000000001, 0.2253, 5.4835, 25, 0.041086897054800765
DataValue, 1.8000000000000001E-06, 15.00012, 0.2305, 5.664, 25, 0.040695621468926559
DataValue, 2.5E-06, 14.999440000000002, 0.2404, 5.8755, 25, 0.040915666751765813
DataValue, 4.0000000000000003E-07, 14.99952, 0.2477, 6.0245, 25, 0.041115445265167236
DataValue, -8.0000000000000007E-07, 15.000180000000002, 0.2548, 6.234, 25, 0.04087263394289381
DataValue, -1.6000000000000001E-06, 14.999600000000001, 0.2612, 6.3415, 25, 0.041188993140424186
DataValue, -1.1E-06, 15.000000000000002, 0.2644, 6.4985, 25, 0.040686312225898288
DataValue, 1.6000000000000001E-06, 15.000300000000001, 0.2684, 6.5665000000000004, 25, 0.040874133861265517
DataValue, 1.4000000000000002E-06, 15.000200000000001, 0.2701, 6.6495, 25, 0.040619595458305138
DataValue, 1.7000000000000002E-06, 15.000340000000001, 0.2712, 6.6695, 25, 0.0406627183447035
DataValue, 2.0000000000000003E-06, 15.00012, 0.2727, 6.723, 25, 0.040562248995983936
DataValue, 2.1000000000000002E-06, 15.000040000000002, 0.2732, 6.7475000000000005, 25, 0.040489070025935527
DataValue, 5.0000000000000008E-07, 15.000340000000001, 0.2721, 6.7490000000000006, 25, 0.040317084012446283
DataValue, 1.4000000000000002E-06, 15.000200000000001, 0.2741, 6.7700000000000005, 25, 0.040487444608567208
DataValue, 1.3E-06, 14.999460000000001, 0.2725, 6.7615, 25, 0.040301708200843014
DataValue, 2.7000000000000004E-06, 14.999540000000001, 0.2733, 6.7835, 25, 0.040288936389769291
DataValue, 1.9000000000000002E-06, 15.000520000000002, 0.2723, 6.7730000000000006, 25, 0.040203750184556318
DataValue, 1.0000000000000001E-07, 14.999460000000001, 0.274, 6.7885, 25, 0.040362377550268842
DataValue, 1.5E-06, 14.999780000000001, 0.2728, 6.775, 25, 0.040265682656826562
DataValue, 2.9E-06, 14.999740000000001, 0.2743, 6.8035000000000005, 25, 0.040317483648122286
DataValue, 3.0000000000000004E-07, 15.000000000000002, 0.27490000000000003, 6.7985, 25, 0.040435390159594034
DataValue, 1.0000000000000002E-06, 15.000240000000002, 0.2717, 6.784, 25, 0.040050117924528304
DataValue, -1.0000000000000001E-07, 14.9998, 0.2736, 6.796, 25, 0.040258975868157743
DataValue, 9.0000000000000007E-07, 14.999920000000001, 0.2727, 6.8125, 25, 0.04002935779816514
DataValue, 1.6000000000000001E-06, 14.999920000000001, 0.2732, 6.7860000000000005, 25, 0.040259357500736809
DataValue, 1.9000000000000002E-06, 15.00026, 0.273, 6.792, 25, 0.040194346289752651
DataValue, 1.2000000000000002E-06, 15.000340000000001, 0.2753, 6.798, 25, 0.040497205060311854
DataValue, 1.4000000000000002E-06, 15.000420000000002, 0.2746, 6.8100000000000005, 25, 0.0403230543318649
DataValue, 1.1E-06, 15.00036, 0.2737, 6.8245000000000005, 25, 0.040105502234595941
DataValue, -1.0000000000000001E-07, 15.00026, 0.2743, 6.791, 25, 0.040391694890295975
DataValue, 3.0000000000000004E-07, 14.999860000000002, 0.2726, 6.8205, 25, 0.039967744300271245
DataValue, 1.7000000000000002E-06, 15.000180000000002, 0.27440000000000003, 6.8025, 25, 0.04033811098860713
DataValue, 8.0000000000000007E-07, 15.00008, 0.27440000000000003, 6.7780000000000005, 25, 0.040483918560047211
DataValue, 3.7E-06, 15.000000000000002, 0.2736, 6.7965, 25, 0.040256014124917236
DataValue, 3.0000000000000004E-07, 15.0004, 0.27240000000000003, 6.8185, 25, 0.039950135660335853
DataValue, -2.0000000000000002E-07, 15.00064, 0.2736, 6.7865, 25, 0.040315331908936859
DataValue, -6.0000000000000008E-07, 15.000280000000002, 0.2718, 6.8095, 25, 0.039914824877010056
DataValue, 1.8000000000000001E-06, 14.9998, 0.27390000000000003, 6.8125, 25, 0.040205504587155966
DataValue, 1.0000000000000001E-07, 15.000020000000001, 0.2737, 6.799, 25, 0.040255919988233559
DataValue, -3.0000000000000004E-07, 14.9998, 0.2727, 6.789, 25, 0.040167918692001772
DataValue, -5.0000000000000008E-07, 15.000300000000001, 0.2738, 6.823, 25, 0.040128975523963065
DataValue, 1.8000000000000001E-06, 15.000300000000001, 0.2737, 6.791, 25, 0.04030334265940215
DataValue, 1.7000000000000002E-06, 15.000340000000001, 0.27440000000000003, 6.7995, 25, 0.040355908522685495
DataValue, 1.5E-06, 15.000020000000001, 0.2741, 6.8260000000000005, 25, 0.040155288602402577
DataValue, 1.7000000000000002E-06, 14.999400000000001, 0.27290000000000003, 6.798, 25, 0.04014416004707267
DataValue, 4.0000000000000003E-07, 14.999080000000001, 0.275, 6.8195000000000006, 25, 0.040325537062834517
DataValue, 0, 15.000000000000002, 0.2728, 6.812, 25, 0.040046975924838517
DataValue, -1.0000000000000001E-07, 14.999820000000002, 0.2726, 6.78, 25, 0.040206489675516224
DataValue, 1.4000000000000002E-06, 15.000020000000001, 0.2746, 6.8015, 25, 0.040373447033742557
DataValue, 2.7000000000000004E-06, 15.000420000000002, 0.2742, 6.8100000000000005, 25, 0.040264317180616738
DataValue, 1.0000000000000001E-07, 15.000020000000001, 0.27290000000000003, 6.7955000000000005, 25, 0.040158928702818043
DataValue, 2.0000000000000003E-06, 15.000580000000001, 0.2731, 6.8125, 25, 0.040088073394495417
DataValue, -8.0000000000000007E-07, 15.0004, 0.2733, 6.813, 25, 0.040114487010127695
DataValue, 1.0000000000000001E-07, 15.000300000000001, 0.2721, 6.806, 25, 0.039979429914781074
DataValue, 3.0000000000000004E-07, 15.0004, 0.2748, 6.8265, 25, 0.040254889035376835
DataValue, 4.0000000000000003E-07, 15.00064, 0.2742, 6.815, 25, 0.040234776228906824
DataValue, 2.2E-06, 15.000040000000002, 0.2751, 6.8015, 25, 0.040446960229361173
DataValue, 1.4000000000000002E-06, 15.000320000000002, 0.27490000000000003, 6.8145, 25, 0.04034045050994204
DataValue, 0, 14.999480000000002, 0.274, 6.8175, 25, 0.040190685735240192
DataValue, 7.0000000000000007E-07, 14.999680000000002, 0.27490000000000003, 6.8085, 25, 0.040376000587500918
DataValue, 1.3E-06, 14.999640000000001, 0.2745, 6.8105, 25, 0.040305410762792745
DataValue, 2.8000000000000003E-06, 14.9997, 0.2746, 6.8245000000000005, 25, 0.040237380027840865
DataValue, 9.0000000000000007E-07, 15.000280000000002, 0.2745, 6.8, 25, 0.040367647058823536
DataValue, 0, 14.99938, 0.27440000000000003, 6.8025, 25, 0.04033811098860713
DataValue, -3.0000000000000004E-07, 14.999960000000002, 0.2753, 6.84, 25, 0.040248538011695908
DataValue, 1.1E-06, 14.999580000000002, 0.2756, 6.8145, 25, 0.040443172646562477
DataValue, 1.2000000000000002E-06, 14.999600000000001, 0.2742, 6.7835, 25, 0.040421611262622538
DataValue, -8.0000000000000007E-07, 15.000840000000002, 0.2731, 6.801, 25, 0.040155859432436408
DataValue, -2.0000000000000002E-07, 15.0006, 0.2752, 6.8065, 25, 0.040431940057298173
DataValue, 0, 15.000620000000001, 0.2758, 6.796, 25, 0.040582695703354911
DataValue, 1.4000000000000002E-06, 15.00026, 0.2751, 6.798, 25, 0.040467784642541922
DataValue, 1.0000000000000001E-07, 15.00026, 0.2753, 6.8255, 25, 0.04033404146216394
DataValue, 8.0000000000000007E-07, 15.00008, 0.27440000000000003, 6.8095, 25, 0.040296644393861519
DataValue, 1.2000000000000002E-06, 14.99956, 0.2742, 6.813, 25, 0.040246587406428891
DataValue, 5.0000000000000008E-07, 14.999440000000002, 0.27540000000000003, 6.8155, 25, 0.04040789377155015
DataValue, 3.0000000000000004E-07, 14.999960000000002, 0.2742, 6.8035000000000005, 25, 0.040302785331079588
DataValue, 1.0000000000000002E-06, 15.000340000000001, 0.2742, 6.7965, 25, 0.040344294857647317
DataValue, 3.3E-06, 14.999740000000001, 0.2763, 6.82, 25, 0.040513196480938415
DataValue, 2.0000000000000002E-07, 15.000200000000001, 0.27440000000000003, 6.811, 25, 0.040287769784172665
DataValue, 2.3E-06, 15.00046, 0.27340000000000003, 6.7925, 25, 0.040250276039749726
DataValue, 2.0000000000000002E-07, 14.99984, 0.2752, 6.8025, 25, 0.040455714810731347
DataValue, 2.0000000000000002E-07, 15.000200000000001, 0.2761, 6.806, 25, 0.04056714663532178
DataValue, 0, 15.00012, 0.2747, 6.8235, 25, 0.040257932146259251
DataValue, 1.0000000000000002E-06, 15.00026, 0.274, 6.815, 25, 0.04020542920029347
DataValue, 7.0000000000000007E-07, 14.99994, 0.2736, 6.7955000000000005, 25, 0.040261938047237142
DataValue, 9.0000000000000007E-07, 15.00012, 0.275, 6.808, 25, 0.040393654524089308
DataValue, 1.4000000000000002E-06, 15.000300000000001, 0.2752, 6.7965, 25, 0.040491429412197452
DataValue, 3E-06, 14.999480000000002, 0.2731, 6.8075, 25, 0.040117517443995596
DataValue, 3.0000000000000004E-07, 15.000560000000002, 0.275, 6.808, 25, 0.040393654524089308
DataValue, 6.0000000000000008E-07, 15.000680000000001, 0.27440000000000003, 6.8145, 25, 0.040267077555213152
DataValue, -6.0000000000000008E-07, 14.999580000000002, 0.2746, 6.814, 25, 0.0402993836219548
DataValue, -3.0000000000000004E-07, 14.999900000000002, 0.2742, 6.8235, 25, 0.040184655968344689
DataValue, -7.0000000000000007E-07, 14.99998, 0.27540000000000003, 6.7975, 25, 0.04051489518205223
DataValue, 1.9000000000000002E-06, 15.000560000000002, 0.27290000000000003, 6.8025, 25, 0.040117603822124225
DataValue, -3.0000000000000004E-07, 14.999760000000002, 0.2737, 6.8020000000000005, 25, 0.040238165245516024
DataValue, -1.4000000000000002E-06, 14.999580000000002, 0.2752, 6.798, 25, 0.040482494851426888
DataValue, 1.3E-06, 15.00008, 0.2742, 6.8005, 25, 0.040320564664362915
DataValue, -9.0000000000000007E-07, 14.999820000000002, 0.2753, 6.8, 25, 0.040485294117647057
DataValue, 1.9000000000000002E-06, 14.999760000000002, 0.2733, 6.8025, 25, 0.040176405733186323
DataValue, 3.0000000000000004E-07, 14.99942, 0.27390000000000003, 6.799, 25, 0.040285336078835124
DataValue, -7.0000000000000007E-07, 15.000280000000002, 0.2752, 6.814, 25, 0.040387437628412091
DataValue, 1.6000000000000001E-06, 14.999760000000002, 0.2746, 6.7995, 25, 0.040385322450180158
DataValue, 9.0000000000000007E-07, 14.9997, 0.2748, 6.8095, 25, 0.040355385857992511
DataValue, -6.0000000000000008E-07, 14.99994, 0.2755, 6.792, 25, 0.040562426383981158
DataValue, 3.0000000000000004E-07, 15.000300000000001, 0.27490000000000003, 6.812, 25, 0.040355255431591311
DataValue, 7.0000000000000007E-07, 14.99918, 0.2746, 6.815, 25, 0.040293470286133531
DataValue, 2.0000000000000002E-07, 14.999400000000001, 0.2752, 6.8365, 25, 0.040254516199809846
DataValue, 1.8000000000000001E-06, 14.999440000000002, 0.2753, 6.813, 25, 0.040408043446352564
DataValue, -1.1E-06, 14.999460000000001, 0.2745, 6.8185, 25, 0.040258121287673247
DataValue, 2.0000000000000003E-06, 15.000140000000002, 0.2747, 6.7915, 25, 0.040447618346462488
DataValue, 1.0000000000000002E-06, 14.99956, 0.27390000000000003, 6.801, 25, 0.040273489192765771
DataValue, 2.0000000000000002E-07, 15.000000000000002, 0.2741, 6.8035000000000005, 25, 0.04028808701403689
DataValue, 1.9000000000000002E-06, 14.99998, 0.2736, 6.801, 25, 0.04022937803264226
DataValue, 1.0000000000000001E-07, 14.99984, 0.27590000000000003, 6.8125, 25, 0.040499082568807347
DataValue, 0, 14.999920000000001, 0.2753, 6.815, 25, 0.040396184886280259
DataValue, 1.1E-06, 14.999720000000002, 0.274, 6.8325000000000005, 25, 0.040102451518477862
DataValue, 1.3E-06, 14.999960000000002, 0.2735, 6.808, 25, 0.040173325499412459
DataValue, -1.2000000000000002E-06, 15.0006, 0.2752, 6.803, 25, 0.04045274143760106
DataValue, 3.0000000000000004E-07, 15.000420000000002, 0.27540000000000003, 6.8085, 25, 0.040449438202247195
DataValue, 1.6000000000000001E-06, 15.000580000000001, 0.2743, 6.807, 25, 0.040296753342147787
DataValue, 7.0000000000000007E-07, 15.000240000000002, 0.2756, 6.82, 25, 0.040410557184750735
DataValue, -1.1E-06, 14.999160000000002, 0.2753, 6.832, 25, 0.040295667447306789
DataValue, 2.0000000000000002E-07, 14.000620000000001, 0.0053, 0.124, 25, 0.042741935483870966
DataValue, -6.0000000000000008E-07, 13.99966, 0.0159, 0.2925, 25, 0.054358974358974368
DataValue, 3.0000000000000004E-07, 14.00018, 0.0258, 0.522, 25, 0.049425287356321838
DataValue, 0, 13.99932, 0.0374, 0.7255, 25, 0.051550654720882154
DataValue, -1.0000000000000002E-06, 13.99966, 0.048100000000000004, 0.9515, 25, 0.050551760378349977
DataValue, -1.1E-06, 13.999920000000001, 0.0562, 1.1845, 25, 0.04744617982271
DataValue, 3.0000000000000004E-07, 14.000440000000001, 0.0655, 1.4045, 25, 0.046635813456746174
DataValue, 2.0000000000000002E-07, 14.000160000000001, 0.0746, 1.6145, 25, 0.046206255806751313
DataValue, -1.2000000000000002E-06, 13.999860000000002, 0.084, 1.794, 25, 0.046822742474916391
DataValue, 1.3E-06, 13.99956, 0.0941, 2.019, 25, 0.046607231302625063
DataValue, -2.2E-06, 13.9997, 0.10200000000000001, 2.2405, 25, 0.045525552332068737
DataValue, 4.0000000000000003E-07, 14.000100000000002, 0.11280000000000001, 2.4525, 25, 0.045993883792048933
DataValue, 9.0000000000000007E-07, 14.00012, 0.1213, 2.6355, 25, 0.046025422121039654
DataValue, 7.0000000000000007E-07, 13.999680000000002, 0.1298, 2.8425000000000002, 25, 0.04566402814423922
DataValue, 2.4000000000000003E-06, 14.00032, 0.1384, 3.0835, 25, 0.044884060321063728
DataValue, 1.4000000000000002E-06, 14.0005, 0.1484, 3.2735, 25, 0.045333740644570034
DataValue, -3.0000000000000004E-07, 14.000000000000002, 0.1585, 3.463, 25, 0.04576956396188276
DataValue, 1.5E-06, 13.99966, 0.16740000000000002, 3.6815, 25, 0.04547059622436507
DataValue, 6.0000000000000008E-07, 13.99994, 0.17550000000000002, 3.876, 25, 0.045278637770897835
DataValue, -6.0000000000000008E-07, 14.000840000000002, 0.18510000000000002, 4.056, 25, 0.045636094674556218
DataValue, 1.4000000000000002E-06, 14.000160000000001, 0.1953, 4.268, 25, 0.045759137769447053
DataValue, 2.3E-06, 14.00022, 0.2038, 4.5, 25, 0.045288888888888892
DataValue, 3.6000000000000003E-06, 14.000280000000002, 0.21380000000000002, 4.668, 25, 0.04580119965724079
DataValue, -3.1000000000000004E-06, 13.999960000000002, 0.2225, 4.8495, 25, 0.045881018661717704
DataValue, 2.0000000000000003E-06, 14.00064, 0.2291, 5.0725, 25, 0.04516510596352883
DataValue, -2.0000000000000002E-07, 13.999780000000001, 0.2383, 5.2575, 25, 0.045325725154541134
DataValue, 0, 14.000380000000002, 0.2477, 5.4510000000000005, 25, 0.045441203448908452
DataValue, -9.0000000000000007E-07, 14.000280000000002, 0.2582, 5.6665, 25, 0.045566046060178236
DataValue, 1.8000000000000001E-06, 14.00032, 0.2655, 5.8415, 25, 0.045450654797569122
DataValue, 2.5E-06, 14.000200000000001, 0.2752, 6.0040000000000004, 25, 0.045836109260493
DataValue, 0, 13.99998, 0.2802, 6.195, 25, 0.045230024213075058
DataValue, 1.0000000000000001E-07, 13.99984, 0.2859, 6.3245000000000005, 25, 0.045205154557672537
DataValue, 2.0000000000000003E-06, 14.000160000000001, 0.29050000000000004, 6.4190000000000005, 25, 0.045256270447110142
DataValue, 7.0000000000000007E-07, 14.00004, 0.2958, 6.5255, 25, 0.0453298597808597
DataValue, 1.0000000000000002E-06, 13.999500000000001, 0.29500000000000004, 6.5715, 25, 0.044890816404169524
DataValue, 5.0000000000000008E-07, 14.000100000000002, 0.29700000000000004, 6.595, 25, 0.045034116755117523
DataValue, 1.3E-06, 13.9998, 0.2984, 6.6585, 25, 0.044814898250356686
DataValue, 1.2000000000000002E-06, 13.999820000000002, 0.29810000000000003, 6.6610000000000005, 25, 0.044753040084071459
DataValue, 5.0000000000000008E-07, 14.000060000000001, 0.2975, 6.684, 25, 0.044509275882704966
DataValue, 1.4000000000000002E-06, 13.999500000000001, 0.3004, 6.678, 25, 0.044983528002395926
DataValue, 1.0000000000000002E-06, 14.00046, 0.2982, 6.689, 25, 0.04458065480639857
DataValue, 9.0000000000000007E-07, 13.999740000000001, 0.2987, 6.69, 25, 0.044648729446935723
DataValue, -1.0000000000000002E-06, 13.99998, 0.2979, 6.674, 25, 0.044635900509439615
DataValue, 1.4000000000000002E-06, 13.999860000000002, 0.29810000000000003, 6.696, 25, 0.044519115890083637
DataValue, 2.8000000000000003E-06, 14.00088, 0.29910000000000003, 6.678, 25, 0.044788858939802341
DataValue, 1.6000000000000001E-06, 13.99998, 0.30060000000000003, 6.7125, 25, 0.044782122905027935
DataValue, 2.5E-06, 14.00004, 0.2989, 6.703, 25, 0.0445919737431001
DataValue, -3.0000000000000004E-07, 13.99956, 0.2983, 6.6995000000000005, 25, 0.044525710873945815
DataValue, 2.2E-06, 14.0005, 0.2992, 6.732, 25, 0.044444444444444446
DataValue, 1.2000000000000002E-06, 13.9998, 0.2979, 6.7055, 25, 0.044426217284318843
DataValue, -1.0000000000000002E-06, 13.999440000000002, 0.2999, 6.713, 25, 0.044674512140622673
DataValue, 0, 14.000900000000002, 0.3013, 6.71, 25, 0.044903129657228022
DataValue, 2.0000000000000003E-06, 13.99938, 0.2992, 6.706, 25, 0.044616761109454221
