
SetupTitle, ID-VDS-3rd
PrimitiveTest, Multi Channel I/V Sweep
TestParameter, Channel.UnitType, SMU, SMU
TestParameter, Channel.Unit, SMU2:MC, SMU3:UHC500
TestParameter, Channel.IName, IG, ID
TestParameter, Channel.VName, VGS, VDS
TestParameter, Channel.Mode, VPULSE, VPULSE
TestParameter, Channel.Func, VAR2, VAR1
TestParameter, Channel.Index, 
TestParameter, Channel.Time, 
TestParameter, Measurement.Port.Unit, SMU2:MC, SMU3:UHC500
TestParameter, Measurement.Port.SeriesResistor, NONE, NONE
TestParameter, Measurement.Port.Filter, OFF, OFF
TestParameter, Measurement.Port.OutputVoltageComparison, 0, 0
TestParameter, Measurement.Primary.Start, -5
TestParameter, Measurement.Primary.Stop, 0
TestParameter, Measurement.Primary.Compliance, 10
TestParameter, Measurement.Primary.PowerCompliance, 0
TestParameter, Measurement.Primary.Locus, Single
TestParameter, Measurement.Primary.Scale, LINEAR
TestParameter, Measurement.Primary.Count, 21
TestParameter, Measurement.Aborting.Condition, CONTINUE AT ANY
TestParameter, Measurement.PostOutput.Value, START
TestParameter, Measurement.PostOutput.Retention, OFF
TestParameter, Measurement.Secondary.Start, 15.000000000000002
TestParameter, Measurement.Secondary.Count, 5
TestParameter, Measurement.Secondary.Step, 1.25
TestParameter, Measurement.Secondary.Compliance, 0.099999999999999992
TestParameter, Measurement.Secondary.PowerCompliance, 0
TestParameter, Measurement.Bias.Source, 0, 0
TestParameter, Measurement.Bias.Compliance, 0.099999999999999992, 0
TestParameter, Measurement.Pulse.Delay, 0, 9.9999999999999991E-05
TestParameter, Measurement.Pulse.Duration, 0.001, 0.00019999999999999998
TestParameter, Measurement.Pulse.Base, 0, 0
TestParameter, Measurement.Pulse.Period, 0
TestParameter, Measurement.Pulse.MeasurementDelay, 0
TestParameter, Measurement.Pulse.AveragingCount, 1
TestParameter, Measurement.Monitor.Unit, SMU2:MC, SMU3:UHC500
TestParameter, Measurement.Monitor.Adc, HS ADC, HS ADC
TestParameter, Measurement.Monitor.Measurement, Force and Compliance Sides, Force and Compliance Sides
TestParameter, Measurement.Timing.Hold, 0
TestParameter, Measurement.Timing.Delay, 0
TestParameter, Measurement.Adc.HighSpeed.Mode, TIME
TestParameter, Measurement.Adc.HighSpeed.Coeff, 9.9999999999999991E-06
TestParameter, Measurement.Adc.HighResolution.AutoZero, OFF
TestParameter, Measurement.Adc.HighResolution.Mode, AUTO
TestParameter, Measurement.Adc.HighResolution.Coeff, 6
TestParameter, Measurement.WaitTime.Source.Coeff, 1
TestParameter, Measurement.WaitTime.Source.Offset, 0
TestParameter, Measurement.WaitTime.Monitor.Coeff, 1
TestParameter, Measurement.WaitTime.Monitor.Offset, 0
TestParameter, Output.Graph.Enabled, true
TestParameter, Output.Graph.AutoScaling, false
TestParameter, Output.Graph.XAxis.Data, VDS
TestParameter, Output.Graph.XAxis.Scale, Linear
TestParameter, Output.Graph.XAxis.Left, -4.8
TestParameter, Output.Graph.XAxis.Right, 1.2
TestParameter, Output.Graph.XAxis.RunTimeAutoScale, false
TestParameter, Output.Graph.YAxis.Data, ID
TestParameter, Output.Graph.YAxis.Scale, Linear
TestParameter, Output.Graph.YAxis.Bottom, -15
TestParameter, Output.Graph.YAxis.Top, 1
TestParameter, Output.Graph.YAxis.Group, 
TestParameter, Output.Graph.YAxis.RunTimeAutoScale, false
TestParameter, Output.List.Data, VDS, ID
TestParameter, AutoAnalysis.Interpolation, false
TestParameter, AutoAnalysis.Line1.Enabled, false
TestParameter, AutoAnalysis.Line1.Type, 1
TestParameter, AutoAnalysis.Line1.Fix, True
TestParameter, AutoAnalysis.Line1.YAxis, 0
TestParameter, AutoAnalysis.Line1.Point1.Type, 0
TestParameter, AutoAnalysis.Line1.Point1.XY.X, 
TestParameter, AutoAnalysis.Line1.Point1.XY.Y, 
TestParameter, AutoAnalysis.Line1.Point1.Data.Var, 
TestParameter, AutoAnalysis.Line1.Point1.Data.Condition, 
TestParameter, AutoAnalysis.Line1.Point1.Data.Start, false
TestParameter, AutoAnalysis.Line1.Point1.Data.StartVar, 
TestParameter, AutoAnalysis.Line1.Point1.Data.StartCondition, 
TestParameter, AutoAnalysis.Line1.Point2.Type, 0
TestParameter, AutoAnalysis.Line1.Point2.XY.X, 
TestParameter, AutoAnalysis.Line1.Point2.XY.Y, 
TestParameter, AutoAnalysis.Line1.Point2.Data.Var, 
TestParameter, AutoAnalysis.Line1.Point2.Data.Condition, 
TestParameter, AutoAnalysis.Line1.Point2.Data.Start, false
TestParameter, AutoAnalysis.Line1.Point2.Data.StartVar, 
TestParameter, AutoAnalysis.Line1.Point2.Data.StartCondition, 
TestParameter, AutoAnalysis.Line1.GradientExpr, 0
TestParameter, AutoAnalysis.Line2.Enabled, false
TestParameter, AutoAnalysis.Line2.Type, 1
TestParameter, AutoAnalysis.Line2.Fix, True
TestParameter, AutoAnalysis.Line2.YAxis, 0
TestParameter, AutoAnalysis.Line2.Point1.Type, 0
TestParameter, AutoAnalysis.Line2.Point1.XY.X, 
TestParameter, AutoAnalysis.Line2.Point1.XY.Y, 
TestParameter, AutoAnalysis.Line2.Point1.Data.Var, 
TestParameter, AutoAnalysis.Line2.Point1.Data.Condition, 
TestParameter, AutoAnalysis.Line2.Point1.Data.Start, false
TestParameter, AutoAnalysis.Line2.Point1.Data.StartVar, 
TestParameter, AutoAnalysis.Line2.Point1.Data.StartCondition, 
TestParameter, AutoAnalysis.Line2.Point2.Type, 0
TestParameter, AutoAnalysis.Line2.Point2.XY.X, 
TestParameter, AutoAnalysis.Line2.Point2.XY.Y, 
TestParameter, AutoAnalysis.Line2.Point2.Data.Var, 
TestParameter, AutoAnalysis.Line2.Point2.Data.Condition, 
TestParameter, AutoAnalysis.Line2.Point2.Data.Start, false
TestParameter, AutoAnalysis.Line2.Point2.Data.StartVar, 
TestParameter, AutoAnalysis.Line2.Point2.Data.StartCondition, 
TestParameter, AutoAnalysis.Line2.GradientExpr, 0
TestParameter, AutoAnalysis.Marker.Enabled, false
TestParameter, AutoAnalysis.Marker.Data.Var, 
TestParameter, AutoAnalysis.Marker.Data.Condition, 
TestParameter, AutoAnalysis.Marker.Data.Start, false
TestParameter, AutoAnalysis.Marker.Data.StartVar, 
TestParameter, AutoAnalysis.Marker.Data.StartCondition, 
MetaData, TestRecord.EntryPoint, true
MetaData, TestRecord.RecordTime, 04/17/2021 12:51:47
MetaData, TestRecord.TestTarget, 
MetaData, TestRecord.IterationIndex, 1
MetaData, TestRecord.Preservation, true
MetaData, TestRecord.Flag, 
MetaData, TestRecord.Remarks, 
MetaData, TestRecord.LinkKey, 739429d9-715f-4f66-91c4-59c32cae2077
Dimension1, 21, 21
Dimension2, 5, 5
DataName, ID, VDS
DataValue, -18.216, -0.7018
DataValue, -17.3155, -0.6701
DataValue, -16.3865, -0.6353
DataValue, -15.485000000000001, -0.60010000000000008
DataValue, -14.584, -0.5656
DataValue, -13.63, -0.5302
DataValue, -12.7535, -0.49420000000000003
DataValue, -11.8345, -0.4591
DataValue, -10.9245, -0.42410000000000003
DataValue, -9.983, -0.3889
DataValue, -9.1035, -0.3549
DataValue, -8.171, -0.317
DataValue, -7.272, -0.2821
DataValue, -6.346, -0.24730000000000002
DataValue, -5.4515, -0.2126
DataValue, -4.516, -0.1762
DataValue, -3.6265, -0.1409
DataValue, -2.704, -0.1061
DataValue, -1.796, -0.0697
DataValue, -0.898, -0.034300000000000004
DataValue, 0.031, 0.002
DataValue, -18.308, -0.6856
DataValue, -17.3645, -0.6518
DataValue, -16.476, -0.6169
DataValue, -15.531, -0.5828
DataValue, -14.636000000000001, -0.5492
DataValue, -13.717500000000001, -0.5149
DataValue, -12.799, -0.48200000000000004
DataValue, -11.88, -0.4485
DataValue, -10.9625, -0.41200000000000003
DataValue, -10.057500000000001, -0.3788
DataValue, -9.131, -0.3422
DataValue, -8.2025, -0.3094
DataValue, -7.3105, -0.2755
DataValue, -6.3715, -0.24080000000000001
DataValue, -5.4725, -0.20550000000000002
DataValue, -4.5385, -0.1726
DataValue, -3.6305, -0.1373
DataValue, -2.7245, -0.10310000000000001
DataValue, -1.7925, -0.0692
DataValue, -0.9025, -0.033600000000000005
DataValue, 0.02, 0.0018000000000000002
DataValue, -18.366, -0.6725
DataValue, -17.4425, -0.63860000000000006
DataValue, -16.543, -0.6044
DataValue, -15.6005, -0.5708
DataValue, -14.6785, -0.53560000000000008
DataValue, -13.742, -0.5039
DataValue, -12.8475, -0.47200000000000003
DataValue, -11.9155, -0.4359
DataValue, -11.0015, -0.404
DataValue, -10.0755, -0.3703
DataValue, -9.1715, -0.3373
DataValue, -8.24, -0.30210000000000004
DataValue, -7.3355000000000006, -0.26990000000000003
DataValue, -6.389, -0.2358
DataValue, -5.4975000000000005, -0.2011
DataValue, -4.5665000000000004, -0.1681
DataValue, -3.657, -0.13440000000000002
DataValue, -2.733, -0.10020000000000001
DataValue, -1.807, -0.0658
DataValue, -0.9015, -0.0328
DataValue, 0.0155, 0.0015
DataValue, -18.408, -0.6594
DataValue, -17.501, -0.62730000000000008
DataValue, -16.5835, -0.59420000000000006
DataValue, -15.631, -0.56180000000000008
DataValue, -14.7215, -0.52760000000000007
DataValue, -13.7935, -0.4944
DataValue, -12.854000000000001, -0.4626
DataValue, -11.96, -0.4293
DataValue, -11.0175, -0.3965
DataValue, -10.0925, -0.3629
DataValue, -9.199, -0.3294
DataValue, -8.267, -0.2975
DataValue, -7.363, -0.2649
DataValue, -6.409, -0.231
DataValue, -5.514, -0.19740000000000002
DataValue, -4.5585, -0.1648
DataValue, -3.6835, -0.1327
DataValue, -2.7195, -0.0985
DataValue, -1.827, -0.0641
DataValue, -0.907, -0.0309
DataValue, 0.03, 0.0015
DataValue, -18.463, -0.65070000000000006
DataValue, -17.529, -0.6181
DataValue, -16.5885, -0.5852
DataValue, -15.6865, -0.5546
DataValue, -14.7395, -0.5203
DataValue, -13.8455, -0.48860000000000003
DataValue, -12.9025, -0.4559
DataValue, -11.993500000000001, -0.42400000000000004
DataValue, -11.065, -0.3904
DataValue, -10.118500000000001, -0.35710000000000003
DataValue, -9.2365, -0.3254
DataValue, -8.2865, -0.2924
DataValue, -7.367, -0.2616
DataValue, -6.4295, -0.22740000000000002
DataValue, -5.502, -0.1933
DataValue, -4.5905000000000005, -0.1628
DataValue, -3.6735, -0.1274
DataValue, -2.7345, -0.09530000000000001
DataValue, -1.834, -0.0629
DataValue, -0.903, -0.0318
DataValue, 0.014, 0.0012000000000000001